#           v(tb.r1)   v(tb.r2)   v(tb.r3)   v(tb.r4)   v(tb.r5)   v(tb.r6)  
 1.         0.024998   0.023902   3.4801     3.5101     0.40046    0.39121   
 2.         0.024456   0.025551   3.6531     3.2366     0.4006     0.37899   
 3.         0.024866   0.024222   3.2587     3.218      0.3963     0.40222   
 4.         0.024707   0.024774   3.64       3.341      0.38625    0.38206   
 5.         0.025043   0.024526   3.6108     3.1628     0.39915    0.39659   
 6.         0.024555   0.024478   3.4118     3.5642     0.41208    0.4018    
 7.         0.024857   0.024685   3.2638     3.1529     0.3812     0.38907   
 8.         0.024877   0.024372   3.6342     3.5192     0.40761    0.40059   
 9.         0.024811   0.024944   3.7228     3.5908     0.40181    0.39215   
 10.        0.024549   0.024464   3.1431     3.3656     0.39783    0.38553   
 11.        0.024822   0.02478    3.8196     3.5854     0.3824     0.40144   
 12.        0.025185   0.024916   3.6761     3.3581     0.39287    0.38785   
 13.        0.024433   0.024605   3.4591     3.3216     0.40045    0.37595   
 14.        0.025013   0.024885   3.1738     3.6283     0.38789    0.40778   
 15.        0.024893   0.024702   3.5055     3.2537     0.38491    0.37139   
 16.        0.024845   0.024513   3.5891     3.1454     0.39653    0.40817   
 17.        0.024466   0.024901   3.2108     3.6867     0.41098    0.38612   
 18.        0.024676   0.024612   3.2222     2.9621     0.37455    0.40672   
 19.        0.024886   0.024286   3.6147     3.626      0.39048    0.41838   
 20.        0.024626   0.025077   3.7686     3.2415     0.39266    0.38108   
 21.        0.024522   0.02421    3.044      3.8492     0.37977    0.40486   
 22.        0.024749   0.025095   3.4744     3.9295     0.38913    0.39285   
 23.        0.025143   0.024545   3.3998     3.1663     0.3974     0.39963   
 24.        0.024276   0.024976   3.0309     3.6906     0.41611    0.38316   
 25.        0.024622   0.025309   3.2196     3.4379     0.41055    0.40169   
 26.        0.02472    0.024427   3.5569     3.5252     0.37827    0.39393   
 27.        0.024445   0.024975   4.0341     3.2647     0.40855    0.37943   
 28.        0.024648   0.024697   3.7189     3.6252     0.39322    0.41475   
 29.        0.02478    0.024874   3.1741     3.3117     0.38446    0.39665   
 30.        0.025203   0.024461   3.8427     3.163      0.38725    0.3868    
 31.        0.025138   0.024909   3.3391     3.9357     0.4159     0.40446   
 32.        0.024338   0.024773   3.1507     3.4547     0.37794    0.38259   
 33.        0.025047   0.024374   3.4235     3.3474     0.39205    0.39611   
 34.        0.024748   0.025195   3.965      3.6836     0.37813    0.38553   
 35.        0.024534   0.024805   3.0958     3.2146     0.40251    0.3906    
 36.        0.024527   0.024542   3.3354     3.424      0.38925    0.41601   
 37.        0.025232   0.024973   3.1596     3.219      0.38884    0.37258   
 38.        0.024368   0.024466   3.643      3.4672     0.39547    0.41248   
 39.        0.024711   0.024804   3.2471     3.8188     0.41722    0.39284   
 40.        0.024345   0.024545   3.2659     3.0079     0.38007    0.38455   
 41.        0.024929   0.024618   3.568      3.8615     0.40042    0.40991   
 42.        0.024655   0.025275   3.933      3.3944     0.38831    0.36783   
 43.        0.024625   0.024222   3.1827     3.3618     0.38937    0.40668   
 44.        0.024726   0.025151   3.6114     3.7244     0.38966    0.37815   
 45.        0.025273   0.024709   3.2905     2.8959     0.39879    0.41051   
 46.        0.024395   0.024474   3.2893     3.6246     0.40159    0.39336   
 47.        0.024874   0.02513    3.3602     3.1564     0.385      0.38299   
 48.        0.024614   0.024125   3.5852     3.8505     0.40313    0.40664   
 49.        0.024641   0.025053   3.5257     3.3553     0.39816    0.39348   
 50.        0.024623   0.024341   3.2403     3.2265     0.39329    0.39338   
 51.        0.024829   0.0251     3.6927     3.7003     0.38832    0.39601   
 52.        0.024933   0.024742   3.5578     3.3826     0.39248    0.40504   
 53.        0.024519   0.024466   3.3966     3.4696     0.39909    0.36542   
 54.        0.024921   0.025027   3.3035     3.6084     0.39274    0.40826   
 55.        0.024821   0.02473    3.4387     3.573      0.39101    0.38345   
 56.        0.024727   0.024697   3.5237     2.8736     0.40607    0.40176   
 57.        0.024604   0.024743   3.3445     3.7468     0.39868    0.38403   
 58.        0.024686   0.025031   3.4127     3.2105     0.38622    0.41456   
 59.        0.024859   0.024056   3.751      3.5239     0.40214    0.38423   
 60.        0.024721   0.025066   3.4843     3.2678     0.38914    0.4047    
 61.        0.024643   0.02449    3.2791     3.8785     0.40069    0.38262   
 62.        0.024995   0.024936   3.638      3.2853     0.37891    0.38704   
 63.        0.024858   0.02448    3.4021     3.6724     0.40128    0.4056    
 64.        0.024545   0.025207   3.5324     3.208      0.38976    0.36867   
 65.        0.024911   0.024486   3.1049     3.3623     0.40446    0.42191   
 66.        0.0246     0.024983   3.5581     3.5163     0.3938     0.39832   
 67.        0.024909   0.024467   3.3735     2.9122     0.39563    0.40977   
 68.        0.024386   0.024554   3.6711     4.0672     0.3953     0.39847   
 69.        0.02491    0.025062   3.4123     3.5149     0.40514    0.41324   
 70.        0.024621   0.024133   3.466      3.715      0.38376    0.4033    
 71.        0.024971   0.025364   3.5037     3.5589     0.41736    0.39045   
 72.        0.024732   0.024829   3.6202     3.9249     0.38354    0.38949   
 73.        0.024768   0.025106   3.2568     3.6492     0.41338    0.39838   
 74.        0.024747   0.024813   3.8553     3.4093     0.39751    0.36832   
 75.        0.025007   0.025148   3.2324     3.4419     0.39595    0.39532   
 76.        0.024477   0.024942   3.9317     3.4316     0.39009    0.39675   
 77.        0.025296   0.024635   3.5418     2.8918     0.39023    0.38173   
 78.        0.024473   0.024603   3.4479     3.549      0.41617    0.38336   
 79.        0.025153   0.024878   3.3303     3.4817     0.37467    0.39525   
 80.        0.024805   0.024139   3.4388     3.1431     0.41777    0.38612   
 81.        0.024789   0.024739   3.7732     3.2775     0.39713    0.38113   
 82.        0.024646   0.024809   3.0308     3.5035     0.39432    0.39226   
 83.        0.024617   0.024463   4.0332     3.2051     0.39777    0.4051    
 84.        0.025292   0.024466   3.5691     3.1294     0.37225    0.38313   
 85.        0.024272   0.024759   3.4823     3.443      0.41439    0.41316   
 86.        0.025251   0.02458    3.384      3.6271     0.38647    0.3821    
 87.        0.024784   0.024445   3.0397     3.2331     0.39278    0.41416   
 88.        0.024734   0.024676   3.9569     3.7752     0.37743    0.38926   
 89.        0.024867   0.025005   3.2799     3.2325     0.40894    0.38932   
 90.        0.0242     0.024468   3.337      3.9154     0.38077    0.39988   
 91.        0.025184   0.025196   3.1608     3.3496     0.38886    0.37516   
 92.        0.024563   0.024432   3.7649     3.3978     0.39247    0.40645   
 93.        0.024731   0.025186   3.1362     3.482      0.3935     0.38807   
 94.        0.024321   0.024619   3.3567     3.0555     0.39089    0.39642   
 95.        0.025084   0.024609   3.4272     3.6996     0.38484    0.40182   
 96.        0.024435   0.024901   3.3579     3.3201     0.42093    0.38031   
 97.        0.024605   0.024288   3.2816     3.5167     0.37839    0.40781   
 98.        0.024695   0.025022   3.4021     3.5085     0.39734    0.39585   
 99.        0.024746   0.02459    4.0785     3.2014     0.37763    0.37409   
 100.       0.024683   0.02478    3.0445     3.8424     0.43918    0.40421   
 101.       0.024461   0.024943   3.3501     3.4234     0.38333    0.37705   
 102.       0.025351   0.02439    3.2423     3.0561     0.38098    0.41015   
 103.       0.024398   0.025023   4.474      3.61       0.41905    0.38053   
 104.       0.024855   0.0248     3.1109     3.1086     0.37695    0.40682   
 105.       0.02429    0.024259   3.3171     3.6994     0.38934    0.40541   
 106.       0.025771   0.024988   4.0441     3.1667     0.38128    0.37831   
 107.       0.024515   0.024329   3.0168     3.7964     0.41784    0.41299   
 108.       0.024373   0.025134   3.2421     3.5971     0.38494    0.39165   
 109.       0.025307   0.024407   3.285      3.1521     0.38483    0.39203   
 110.       0.024366   0.025002   3.9877     3.862      0.40211    0.4053    
 111.       0.024653   0.025024   3.1494     3.3325     0.40289    0.38933   
 112.       0.024393   0.024347   3.2576     3.4194     0.38661    0.40139   
 113.       0.025282   0.025168   3.7056     3.6975     0.39953    0.3837    
 114.       0.024556   0.024693   3.5792     3.3949     0.40093    0.39383   
 115.       0.024508   0.024672   3.2036     3.5664     0.41688    0.39571   
 116.       0.02489    0.024986   3.5298     3.195      0.38519    0.39088   
 117.       0.024959   0.024606   3.6834     3.4591     0.39971    0.39268   
 118.       0.024582   0.024918   3.9026     3.4987     0.40576    0.3837    
 119.       0.024857   0.024501   3.2488     3.3806     0.38411    0.4007    
 120.       0.024854   0.024719   3.6359     3.3708     0.40005    0.38386   
 121.       0.02527    0.024766   3.6255     3.2571     0.40355    0.39172   
 122.       0.024523   0.02466    3.2006     3.5805     0.39495    0.39637   
 123.       0.024839   0.024717   3.6254     3.235      0.39147    0.37601   
 124.       0.025027   0.02448    3.6515     3.4091     0.40117    0.40073   
 125.       0.024506   0.024892   3.4009     3.3972     0.40057    0.38622   
 126.       0.024849   0.024495   3.3893     3.1324     0.38685    0.36921   
 127.       0.024951   0.024677   3.6499     3.729      0.39666    0.38518   
 128.       0.02477    0.024819   3.5711     3.2675     0.38895    0.38633   
 129.       0.024665   0.024286   3.2983     2.9002     0.39487    0.39969   
 130.       0.024877   0.024853   3.4893     3.1772     0.39249    0.40472   
 131.       0.024888   0.024572   3.3356     3.2052     0.39204    0.40583   
 132.       0.024563   0.024176   3.4512     3.5325     0.40209    0.39732   
 133.       0.024797   0.024559   3.3881     3.7009     0.38797    0.40242   
 134.       0.024614   0.024573   3.4102     3.7406     0.40521    0.37945   
 135.       0.024755   0.024862   3.5601     3.5546     0.39564    0.41206   
 136.       0.024702   0.02496    3.3273     3.5372     0.39223    0.38909   
 137.       0.024681   0.024986   3.7024     3.1753     0.39653    0.38963   
 138.       0.024934   0.024795   3.4596     3.8329     0.39522    0.40946   
 139.       0.024581   0.024954   3.4199     3.3028     0.38175    0.36978   
 140.       0.024982   0.024374   3.5142     3.4191     0.4035     0.42272   
 141.       0.024773   0.02515    3.4293     3.7063     0.3796     0.36491   
 142.       0.024683   0.024626   3.2511     3.0297     0.39066    0.41608   
 143.       0.024785   0.024605   3.6374     3.9451     0.39172    0.39371   
 144.       0.024773   0.025114   3.1153     2.8562     0.39278    0.3923    
 145.       0.024424   0.024136   3.3639     3.9376     0.39276    0.40458   
 146.       0.024962   0.02544    3.3847     3.3751     0.39352    0.39071   
 147.       0.024408   0.024043   3.4023     3.434      0.39386    0.39474   
 148.       0.024657   0.025236   3.4111     3.7126     0.39428    0.37628   
 149.       0.024682   0.02474    3.4443     3.414      0.38396    0.39282   
 150.       0.024707   0.024675   3.4463     3.424      0.40185    0.38658   
 151.       0.024703   0.024961   3.4104     3.1218     0.38569    0.36922   
 152.       0.024715   0.024645   3.2805     3.4663     0.3909     0.41307   
 153.       0.024727   0.024765   3.6064     3.1995     0.39338    0.37104   
 154.       0.024751   0.024306   3.2191     2.9647     0.40687    0.41912   
 155.       0.024481   0.024699   3.3574     3.7186     0.38124    0.39024   
 156.       0.02492    0.024598   3.4732     2.9848     0.40793    0.40162   
 157.       0.024555   0.024144   3.6366     4.0096     0.39114    0.39344   
 158.       0.024662   0.025218   3.1898     3.367      0.39221    0.39842   
 159.       0.0247     0.024181   3.7854     3.5859     0.39218    0.39907   
 160.       0.025055   0.025303   3.4072     3.416      0.38097    0.39339   
 161.       0.024422   0.024639   3.4044     3.5433     0.39551    0.39635   
 162.       0.025039   0.024911   3.3332     3.5437     0.39962    0.40168   
 163.       0.024658   0.024718   3.2176     3.4507     0.36597    0.37965   
 164.       0.024694   0.024827   3.5991     3.5156     0.40514    0.41828   
 165.       0.024713   0.024848   3.4305     3.4896     0.39673    0.38556   
 166.       0.024409   0.024708   2.8318     3.1792     0.402      0.40272   
 167.       0.024736   0.02478    3.6926     3.9837     0.38516    0.38912   
 168.       0.024917   0.024946   3.491      3.3041     0.4115     0.38782   
 169.       0.024086   0.024375   3.5498     3.621      0.38183    0.39747   
 170.       0.024982   0.025286   3.357      3.2826     0.39382    0.39191   
 171.       0.024794   0.02452    3.8763     3.3504     0.37383    0.39096   
 172.       0.024931   0.024939   3.1604     3.5957     0.42013    0.37492   
 173.       0.024487   0.024635   3.316      3.3804     0.38465    0.42186   
 174.       0.025127   0.024571   3.1257     3.2217     0.37134    0.3929    
 175.       0.024464   0.024791   4.0398     3.1088     0.41793    0.38275   
 176.       0.024767   0.024698   3.1276     4.1093     0.37298    0.4113    
 177.       0.024221   0.024713   3.1175     3.3349     0.38843    0.38409   
 178.       0.025336   0.024255   4.0143     3.2614     0.37778    0.3999    
 179.       0.024554   0.025359   2.9227     3.8222     0.42371    0.3851    
 180.       0.024151   0.024732   3.199      3.23       0.38157    0.40153   
 181.       0.025287   0.024446   3.2454     3.5126     0.37658    0.38677   
 182.       0.02428    0.025132   4.1464     3.2829     0.40497    0.3918    
 183.       0.02464    0.024502   3.0656     3.656      0.39262    0.3783    
 184.       0.024299   0.024885   3.1262     3.3326     0.38262    0.39856   
 185.       0.025414   0.02451    3.7649     3.341      0.39808    0.38329   
 186.       0.024486   0.024891   3.3443     3.0877     0.39607    0.41097   
 187.       0.024305   0.024556   3.1263     3.4883     0.41681    0.37598   
 188.       0.024964   0.024706   3.4906     3.2945     0.38471    0.39884   
 189.       0.024729   0.024376   3.5862     3.7837     0.39379    0.39159   
 190.       0.02449    0.024851   3.8999     3.0798     0.40432    0.39002   
 191.       0.024828   0.024454   3.1999     3.5415     0.39081    0.40918   
 192.       0.02474    0.025137   3.5302     3.3121     0.37916    0.39035   
 193.       0.025272   0.024308   3.7094     3.3353     0.39899    0.41664   
 194.       0.024525   0.024848   3.28       3.7329     0.40166    0.38614   
 195.       0.024692   0.024701   3.1357     3.4701     0.38062    0.3884    
 196.       0.024963   0.024638   3.6322     3.93       0.39612    0.41129   
 197.       0.024693   0.025085   3.5319     3.1951     0.4032     0.38255   
 198.       0.02438    0.024605   3.1176     3.3752     0.3912     0.40822   
 199.       0.024822   0.025261   3.5455     3.8157     0.39028    0.37519   
 200.       0.024938   0.024573   3.6493     3.2486     0.39663    0.41438   
 201.       0.024431   0.024578   3.3354     3.6585     0.39761    0.38536   
 202.       0.024757   0.025131   3.3585     3.0725     0.39099    0.40934   
 203.       0.024943   0.02445    3.5385     3.8497     0.38922    0.38617   
 204.       0.024681   0.025092   3.515      3.2654     0.40478    0.41091   
 205.       0.024642   0.024281   3.3381     3.7333     0.38551    0.38021   
 206.       0.024778   0.025212   3.357      3.3354     0.40744    0.40296   
 207.       0.024818   0.024523   3.6195     3.8015     0.38369    0.37577   
 208.       0.024674   0.025094   3.2887     3.1922     0.40772    0.40126   
 209.       0.024612   0.024525   3.7362     3.594      0.37156    0.37839   
 210.       0.024996   0.025126   3.2932     3.103      0.40994    0.39061   
 211.       0.02452    0.024398   3.6502     3.5927     0.38872    0.38644   
 212.       0.02504    0.024956   2.9992     3.126      0.39277    0.38645   
 213.       0.02447    0.024294   3.7716     3.376      0.40274    0.39846   
 214.       0.025082   0.024908   3.2792     3.2514     0.39558    0.38485   
 215.       0.024198   0.024369   3.4529     3.261      0.3827     0.41427   
 216.       0.025106   0.024657   3.659      3.4581     0.41239    0.38134   
 217.       0.024622   0.024571   3.424      3.3058     0.37787    0.39452   
 218.       0.024685   0.024564   3.2574     3.8769     0.40823    0.39433   
 219.       0.024925   0.024857   3.7541     3.2151     0.3899     0.37725   
 220.       0.024785   0.024493   3.1075     3.5284     0.39919    0.39726   
 221.       0.024449   0.025202   3.7856     3.3555     0.37744    0.40103   
 222.       0.025185   0.024423   3.408      3.0287     0.40356    0.39686   
 223.       0.024348   0.024727   3.5108     3.5329     0.38617    0.38823   
 224.       0.025047   0.024779   3.1181     3.6387     0.39803    0.40076   
 225.       0.024621   0.02436    3.5905     3.5054     0.40242    0.38262   
 226.       0.02487    0.024793   3.2192     3.3244     0.40332    0.4061    
 227.       0.024339   0.024878   3.5493     3.4848     0.38036    0.3959    
 228.       0.024973   0.024799   3.6728     3.2209     0.41016    0.38818   
 229.       0.024563   0.024598   3.5861     3.8021     0.37527    0.37821   
 230.       0.02481    0.02492    3.2227     3.4982     0.39938    0.41334   
 231.       0.024907   0.024452   3.7808     3.2521     0.38363    0.3769    
 232.       0.024964   0.02498    3.0907     3.1576     0.38597    0.41094   
 233.       0.024389   0.024777   3.536      3.7403     0.40882    0.40747   
 234.       0.025114   0.024622   3.157      3.0692     0.38665    0.38491   
 235.       0.024285   0.024348   3.3035     3.876      0.40521    0.41838   
 236.       0.02487    0.025218   3.7026     3.673      0.40136    0.39065   
 237.       0.024514   0.024329   3.2644     3.2963     0.39339    0.40628   
 238.       0.024531   0.025096   3.6959     3.8977     0.40807    0.41467   
 239.       0.025092   0.025058   3.5956     3.2916     0.37947    0.39933   
 240.       0.024561   0.024498   3.4864     3.7515     0.40309    0.40806   
 241.       0.02498    0.025315   3.6783     3.9521     0.38861    0.3861    
 242.       0.024898   0.024667   3.1635     3.6002     0.39423    0.41044   
 243.       0.024696   0.024985   3.7029     3.622      0.37077    0.41509   
 244.       0.025079   0.025182   3.348      3.2393     0.41238    0.38395   
 245.       0.02438    0.024839   3.3322     3.8906     0.387      0.41054   
 246.       0.024924   0.025093   3.0305     3.8763     0.38435    0.38073   
 247.       0.024607   0.024545   3.8735     3.2967     0.39791    0.39505   
 248.       0.024779   0.025072   3.1887     3.7864     0.4084     0.39557   
 249.       0.024162   0.025222   3.2195     3.1622     0.38576    0.38232   
 250.       0.025154   0.024472   3.6432     3.4841     0.37771    0.41326   
 251.       0.024607   0.025122   3.7192     3.415      0.4205     0.38149   
 252.       0.024506   0.024423   3.156      3.2277     0.37893    0.41229   
 253.       0.024782   0.024751   3.2531     3.7584     0.37497    0.39978   
 254.       0.025082   0.024788   4.072      3.1814     0.40108    0.38913   
 255.       0.024574   0.024447   3.0104     3.8928     0.39171    0.40062   
