#           v(tb.r1)   v(tb.r2)   v(tb.r3)   v(tb.r4)   v(tb.r5)   v(tb.r6)  
 1.         0.026482   0.025104   4.6913     4.744      0.44449    0.4336    
 2.         0.025799   0.027176   4.9488     4.347      0.44485    0.41872   
 3.         0.02631    0.025508   4.3679     4.3186     0.43966    0.44692   
 4.         0.026111   0.026201   4.9224     4.498      0.42731    0.42237   
 5.         0.026535   0.025892   4.8868     4.2347     0.44294    0.43986   
 6.         0.02592    0.02583    4.598      4.8235     0.45878    0.44623   
 7.         0.026298   0.02609    4.3752     4.2182     0.42113    0.4308    
 8.         0.026328   0.025696   4.9148     4.748      0.45306    0.44483   
 9.         0.026245   0.026414   5.0526     4.8552     0.44628    0.4346    
 10.        0.025912   0.025808   4.1976     4.5256     0.4416     0.42652   
 11.        0.026254   0.026202   5.1813     4.8499     0.42276    0.44596   
 12.        0.026714   0.026374   4.9809     4.518      0.43539    0.42953   
 13.        0.025765   0.025984   4.6697     4.4614     0.44482    0.41503   
 14.        0.02649    0.026337   4.2477     4.9162     0.42956    0.45378   
 15.        0.026347   0.026108   4.7292     4.3707     0.42569    0.40957   
 16.        0.02629    0.025869   4.8613     4.2083     0.43973    0.45398   
 17.        0.025811   0.02636    4.3082     5.0074     0.45756    0.427     
 18.        0.026073   0.025998   4.3146     3.9449     0.41334    0.45192   
 19.        0.026342   0.025587   4.885      4.9087     0.43267    0.46638   
 20.        0.026015   0.026584   5.1236     4.3378     0.43558    0.42111   
 21.        0.025878   0.025493   4.062      5.2222     0.41984    0.44988   
 22.        0.026162   0.0266     4.6898     5.3543     0.43077    0.4354    
 23.        0.026665   0.025903   4.592      4.235      0.44052    0.44366   
 24.        0.025575   0.026442   4.0504     4.9992     0.46337    0.42368   
 25.        0.02601    0.026869   4.3114     4.6322     0.45686    0.44626   
 26.        0.026139   0.025761   4.7916     4.7618     0.41765    0.43682   
 27.        0.025791   0.026447   5.4965     4.3794     0.45452    0.41901   
 28.        0.026036   0.0261     5.0443     4.9116     0.43609    0.46185   
 29.        0.026194   0.026323   4.2439     4.4536     0.42521    0.44001   
 30.        0.026729   0.025805   5.228      4.2262     0.42843    0.42802   
 31.        0.026653   0.02637    4.4975     5.3577     0.46351    0.44958   
 32.        0.025648   0.026198   4.2139     4.6571     0.41759    0.42314   
 33.        0.026542   0.025692   4.6031     4.4977     0.43459    0.4395    
 34.        0.02617    0.026723   5.4113     4.9956     0.41762    0.42652   
 35.        0.025895   0.026235   4.1426     4.3122     0.44728    0.43259   
 36.        0.025882   0.025904   4.4891     4.6181     0.4312     0.46362   
 37.        0.026776   0.026449   4.2275     4.313      0.43042    0.41083   
 38.        0.025693   0.025815   4.9386     4.6711     0.43835    0.45913   
 39.        0.026121   0.026238   4.3605     5.1962     0.46496    0.43538   
 40.        0.025659   0.025909   4.378      4.0048     0.41995    0.42536   
 41.        0.026396   0.025999   4.8129     5.2501     0.44468    0.4564    
 42.        0.026051   0.02683    5.3585     4.5687     0.43008    0.4053    
 43.        0.026006   0.025504   4.2608     4.5206     0.43126    0.45221   
 44.        0.026131   0.026668   4.89       5.0644     0.43148    0.41751   
 45.        0.026824   0.026115   4.424      3.8496     0.44259    0.45684   
 46.        0.025722   0.025821   4.4184     4.9079     0.44606    0.43613   
 47.        0.026326   0.026652   4.5167     4.2185     0.42579    0.42343   
 48.        0.026      0.025388   4.847      5.2374     0.44774    0.4521    
 49.        0.026032   0.026548   4.7637     4.5167     0.44188    0.4361    
 50.        0.026005   0.025651   4.3407     4.3226     0.43604    0.43591   
 51.        0.026265   0.026607   5.         5.0158     0.42994    0.43928   
 52.        0.026397   0.026159   4.8091     4.5501     0.43495    0.45049   
 53.        0.025874   0.025809   4.5762     4.6734     0.44304    0.40231   
 54.        0.026379   0.026514   4.4376     4.8821     0.43524    0.45417   
 55.        0.026256   0.02614    4.6334     4.8425     0.43301    0.42411   
 56.        0.02614    0.026097   4.7607     3.8146     0.45138    0.4462    
 57.        0.025984   0.026159   4.496      5.0878     0.44252    0.42459   
 58.        0.026086   0.026527   4.5894     4.3039     0.42731    0.46166   
 59.        0.026305   0.0253     5.0886     4.759      0.44662    0.42495   
 60.        0.026129   0.026565   4.7028     4.3791     0.43097    0.44987   
 61.        0.026028   0.025843   4.3986     5.2755     0.4451     0.42314   
 62.        0.026473   0.026399   4.923      4.4084     0.4186     0.42852   
 63.        0.026304   0.025825   4.5815     4.9793     0.44558    0.45111   
 64.        0.025908   0.026739   4.7784     4.3012     0.43157    0.40604   
 65.        0.026367   0.025834   4.1499     4.5272     0.44945    0.47042   
 66.        0.02598    0.026462   4.8073     4.7576     0.43654    0.44186   
 67.        0.026372   0.025815   4.5349     3.8642     0.43871    0.45567   
 68.        0.025713   0.025924   4.9724     5.5464     0.43831    0.44188   
 69.        0.026366   0.026565   4.5948     4.739      0.4503     0.45988   
 70.        0.026002   0.02539    4.6711     5.0295     0.42431    0.44801   
 71.        0.026443   0.026931   4.726      4.7968     0.46505    0.43251   
 72.        0.026144   0.026261   4.8998     5.336      0.42392    0.4315    
 73.        0.026188   0.026607   4.365      4.9392     0.46011    0.44248   
 74.        0.026162   0.026237   5.2421     4.5905     0.44107    0.40583   
 75.        0.026489   0.02666    4.3253     4.6436     0.43923    0.43842   
 76.        0.025823   0.026406   5.3484     4.6377     0.43204    0.44036   
 77.        0.026851   0.026022   4.7846     3.842      0.43219    0.4221    
 78.        0.025814   0.025987   4.6499     4.7952     0.46378    0.42399   
 79.        0.026668   0.026337   4.475      4.7051     0.41321    0.43856   
 80.        0.026236   0.025403   4.6315     4.2086     0.46536    0.42753   
 81.        0.026217   0.026153   5.1281     4.4003     0.44057    0.42128   
 82.        0.026036   0.026247   4.0336     4.7371     0.43734    0.43464   
 83.        0.025999   0.02581    5.4948     4.3036     0.44152    0.45029   
 84.        0.026849   0.025813   4.8227     4.1856     0.41038    0.42359   
 85.        0.025562   0.026184   4.7027     4.6379     0.46155    0.45997   
 86.        0.026789   0.02596    4.5608     4.911      0.42786    0.42223   
 87.        0.026209   0.025786   4.0489     4.3319     0.43545    0.46118   
 88.        0.02615    0.026073   5.3936     5.125      0.41673    0.43111   
 89.        0.026317   0.026488   4.4087     4.3269     0.45507    0.43124   
 90.        0.025475   0.025811   4.4906     5.3297     0.42092    0.44413   
 91.        0.026713   0.026725   4.2276     4.5052     0.43064    0.41401   
 92.        0.025937   0.025764   5.1171     4.5771     0.43508    0.45189   
 93.        0.026146   0.026712   4.198      4.7051     0.43633    0.42961   
 94.        0.025629   0.026003   4.5159     4.0763     0.43293    0.43975   
 95.        0.026589   0.025992   4.6216     5.0154     0.4255     0.4463    
 96.        0.025776   0.026361   4.5215     4.4603     0.46969    0.42009   
 97.        0.025987   0.025588   4.4023     4.7482     0.41815    0.45355   
 98.        0.026101   0.026508   4.5708     4.7378     0.44077    0.43927   
 99.        0.026166   0.025966   5.5813     4.2824     0.41668    0.41281   
 100.       0.026079   0.026205   4.0688     5.2247     0.49172    0.44931   
 101.       0.025799   0.02641    4.5035     4.6202     0.4239     0.41633   
 102.       0.026927   0.025711   4.3348     4.0801     0.42087    0.45642   
 103.       0.025731   0.026509   6.1593     4.8899     0.46745    0.42037   
 104.       0.026296   0.026235   4.158      4.1543     0.41645    0.45225   
 105.       0.025582   0.025555   4.4487     5.0173     0.43117    0.45068   
 106.       0.027451   0.026469   5.5322     4.2329     0.42126    0.41772   
 107.       0.025873   0.02564    4.0304     5.153      0.46587    0.45982   
 108.       0.025691   0.026649   4.3486     4.8683     0.42596    0.43394   
 109.       0.026873   0.025734   4.4031     4.2126     0.42558    0.43428   
 110.       0.025693   0.02648    5.4448     5.2535     0.44657    0.45043   
 111.       0.026046   0.026512   4.2178     4.479      0.44772    0.43116   
 112.       0.025715   0.025659   4.3653     4.6005     0.42783    0.44589   
 113.       0.026839   0.026692   5.0209     5.0096     0.44325    0.42438   
 114.       0.025927   0.026095   4.845      4.5697     0.44494    0.43657   
 115.       0.02586    0.026066   4.2911     4.8258     0.46451    0.43891   
 116.       0.026341   0.026461   4.7578     4.2805     0.42604    0.43314   
 117.       0.026432   0.025987   4.9811     4.6622     0.44364    0.43531   
 118.       0.025955   0.02638    5.3125     4.7228     0.45113    0.42435   
 119.       0.026294   0.025855   4.3538     4.5528     0.42474    0.44502   
 120.       0.02629    0.026127   4.9185     4.5387     0.44399    0.42462   
 121.       0.026819   0.026187   4.9106     4.3694     0.44838    0.43417   
 122.       0.025879   0.026057   4.2843     4.8448     0.43795    0.43979   
 123.       0.026276   0.026127   4.9008     4.3403     0.43361    0.41498   
 124.       0.026517   0.025829   4.9452     4.5948     0.44539    0.44512   
 125.       0.025858   0.026347   4.5791     4.578      0.44481    0.42788   
 126.       0.026287   0.02585    4.5569     4.1849     0.42819    0.40721   
 127.       0.026419   0.026079   4.9386     5.0641     0.44007    0.42636   
 128.       0.026192   0.026256   4.8292     4.4024     0.43073    0.42749   
 129.       0.026057   0.025584   4.4303     3.8647     0.4379     0.44347   
 130.       0.026324   0.026301   4.7098     4.2618     0.43499    0.44952   
 131.       0.026341   0.025957   4.4849     4.2935     0.43441    0.45098   
 132.       0.025933   0.025458   4.6537     4.7625     0.4466     0.44082   
 133.       0.026227   0.025933   4.5609     5.0068     0.42939    0.44706   
 134.       0.025997   0.025945   4.5915     5.0691     0.45033    0.41911   
 135.       0.026174   0.026301   4.8112     4.8024     0.43878    0.45869   
 136.       0.026107   0.026423   4.4671     4.7807     0.43462    0.43086   
 137.       0.026079   0.026459   5.0169     4.2466     0.4399     0.43147   
 138.       0.026397   0.026223   4.6641     5.211      0.43835    0.45566   
 139.       0.025952   0.026424   4.6051     4.4357     0.42199    0.40752   
 140.       0.026457   0.025694   4.745      4.6026     0.44852    0.47187   
 141.       0.026195   0.026668   4.6228     5.03       0.41953    0.4016    
 142.       0.026082   0.026011   4.3604     4.0385     0.43283    0.46351   
 143.       0.026211   0.025984   4.932      5.3857     0.43409    0.43641   
 144.       0.026197   0.026626   4.1685     3.7864     0.43536    0.43459   
 145.       0.025759   0.025398   4.5273     5.3625     0.43531    0.44957   
 146.       0.026438   0.027039   4.5569     4.5401     0.43623    0.43291   
 147.       0.025742   0.02528    4.5818     4.6209     0.43669    0.43788   
 148.       0.026052   0.026775   4.5936     5.0321     0.43721    0.41548   
 149.       0.026082   0.026153   4.6422     4.6006     0.42466    0.43565   
 150.       0.026114   0.026069   4.6469     4.6193     0.44645    0.42816   
 151.       0.026107   0.026431   4.595      4.1761     0.42685    0.40696   
 152.       0.026124   0.026037   4.403      4.684      0.43302    0.46005   
 153.       0.026139   0.02619    4.8844     4.2979     0.43601    0.40891   
 154.       0.026169   0.025613   4.3179     3.9483     0.45244    0.46715   
 155.       0.02583    0.026111   4.5144     5.0497     0.42125    0.4322    
 156.       0.026383   0.025985   4.6822     3.9694     0.45362    0.446     
 157.       0.025925   0.025411   4.9253     5.4661     0.43341    0.43605   
 158.       0.026056   0.026758   4.2671     4.5276     0.43477    0.44207   
 159.       0.026104   0.025451   5.1384     4.8478     0.4347     0.44289   
 160.       0.02655    0.026858   4.59       4.5983     0.421      0.43602   
 161.       0.025753   0.026026   4.5887     4.7834     0.43879    0.43969   
 162.       0.026528   0.026368   4.4841     4.7852     0.44402    0.44614   
 163.       0.026054   0.026125   4.31       4.6497     0.40296    0.41927   
 164.       0.0261     0.026261   4.8731     4.7474     0.4502     0.46616   
 165.       0.026123   0.026288   4.6379     4.7107     0.44006    0.42657   
 166.       0.025739   0.026113   3.7544     4.2494     0.4464     0.44746   
 167.       0.026153   0.026205   5.0014     5.4291     0.42595    0.43094   
 168.       0.026387   0.026413   4.7082     4.4366     0.45816    0.42926   
 169.       0.025337   0.025693   4.7931     4.9037     0.42231    0.44109   
 170.       0.026455   0.026838   4.5081     4.4083     0.43667    0.43455   
 171.       0.026221   0.025878   5.2802     4.5022     0.41229    0.43324   
 172.       0.026391   0.026406   4.237      4.8656     0.46867    0.41352   
 173.       0.025833   0.026024   4.4592     4.5588     0.42561    0.47056   
 174.       0.026644   0.025941   4.1729     4.3233     0.40931    0.43552   
 175.       0.025815   0.02622    5.5223     4.1462     0.4662     0.42308   
 176.       0.02619    0.026109   4.1864     5.6162     0.41173    0.45782   
 177.       0.025501   0.026123   4.162      4.485      0.43007    0.42487   
 178.       0.026907   0.025542   5.493      4.371      0.41698    0.44397   
 179.       0.025925   0.026931   3.8962     5.1971     0.47307    0.42595   
 180.       0.025415   0.026146   4.2862     4.3319     0.42197    0.44595   
 181.       0.02685    0.025783   4.3436     4.7431     0.41566    0.42824   
 182.       0.025587   0.026647   5.6815     4.4038     0.45019    0.4344    
 183.       0.026029   0.025858   4.0991     4.9523     0.43539    0.41791   
 184.       0.025596   0.026336   4.176      4.4854     0.42307    0.44232   
 185.       0.027006   0.025865   5.1141     4.5014     0.44154    0.42377   
 186.       0.025841   0.026345   4.5061     4.1268     0.43909    0.45752   
 187.       0.025607   0.025929   4.1808     4.7065     0.4645     0.41509   
 188.       0.026438   0.026119   4.7027     4.4206     0.4255     0.44277   
 189.       0.026148   0.0257     4.8405     5.1446     0.43642    0.43395   
 190.       0.025842   0.026293   5.3113     4.1142     0.44945    0.43185   
 191.       0.026259   0.025794   4.2842     4.7882     0.43312    0.45499   
 192.       0.026149   0.026657   4.7617     4.452      0.4188     0.43219   
 193.       0.026823   0.025616   5.0348     4.4783     0.44285    0.46435   
 194.       0.025883   0.026293   4.41       5.0565     0.44627    0.42732   
 195.       0.026091   0.026106   4.1911     4.6714     0.42059    0.42988   
 196.       0.026437   0.026023   4.916      5.3573     0.43925    0.45775   
 197.       0.026099   0.026581   4.7773     4.2806     0.448      0.42298   
 198.       0.025702   0.025981   4.1661     4.5354     0.43347    0.45415   
 199.       0.026257   0.02681    4.785      5.1854     0.43225    0.41399   
 200.       0.026407   0.025946   4.9435     4.3575     0.43996    0.46147   
 201.       0.025766   0.025947   4.4856     4.9604     0.44125    0.42626   
 202.       0.026173   0.026645   4.5148     4.0987     0.43321    0.4553    
 203.       0.026411   0.025791   4.7779     5.2346     0.43098    0.42721   
 204.       0.026082   0.026598   4.748      4.3781     0.44985    0.45734   
 205.       0.02603    0.025577   4.4892     5.0617     0.42643    0.42017   
 206.       0.026201   0.026745   4.5132     4.4785     0.45306    0.44781   
 207.       0.026255   0.02588    4.8981     5.1665     0.42436    0.41482   
 208.       0.026073   0.026596   4.4115     4.2763     0.45362    0.44578   
 209.       0.025993   0.025881   5.068      4.8666     0.40967    0.41808   
 210.       0.026475   0.02664    4.4224     4.1472     0.45616    0.43289   
 211.       0.025876   0.025727   4.9509     4.8658     0.4304     0.42783   
 212.       0.02653    0.026429   3.9945     4.1841     0.43519    0.42775   
 213.       0.025817   0.025598   5.1226     4.5491     0.44739    0.44219   
 214.       0.026589   0.02637    4.4011     4.3675     0.43878    0.42558   
 215.       0.025475   0.025694   4.6499     4.3779     0.42311    0.46138   
 216.       0.026615   0.026055   4.9558     4.6622     0.45917    0.4215    
 217.       0.026006   0.025947   4.6149     4.4342     0.4172     0.4376    
 218.       0.026083   0.025936   4.3681     5.2757     0.45396    0.43751   
 219.       0.026386   0.0263     5.0991     4.3084     0.43188    0.41656   
 220.       0.026212   0.025841   4.1486     4.7704     0.44326    0.44059   
 221.       0.025789   0.026734   5.1379     4.5242     0.41684    0.44526   
 222.       0.026715   0.025758   4.5901     4.0387     0.44849    0.44034   
 223.       0.025661   0.026142   4.7457     4.7653     0.42727    0.4299    
 224.       0.026537   0.026211   4.1696     4.9233     0.4415     0.44504   
 225.       0.026006   0.025678   4.8602     4.7336     0.44691    0.42287   
 226.       0.026322   0.026216   4.3127     4.47       0.44811    0.45138   
 227.       0.025654   0.026325   4.7882     4.7035     0.42025    0.43929   
 228.       0.02645    0.02623    4.9723     4.3107     0.45652    0.42993   
 229.       0.025931   0.025978   4.8505     5.1619     0.41426    0.41773   
 230.       0.026237   0.026381   4.3166     4.7273     0.44353    0.46035   
 231.       0.026362   0.025789   5.1396     4.3687     0.42437    0.41596   
 232.       0.026436   0.026453   4.1311     4.2252     0.42703    0.45713   
 233.       0.025713   0.026206   4.7841     5.0799     0.45477    0.45308   
 234.       0.026627   0.026011   4.2281     4.0912     0.42779    0.42567   
 235.       0.025587   0.025664   4.4347     5.2658     0.45022    0.46631   
 236.       0.026323   0.026757   5.0207     4.975      0.44561    0.43252   
 237.       0.025874   0.025635   4.3758     4.4212     0.43599    0.45128   
 238.       0.025891   0.026596   5.0035     5.305      0.45391    0.46161   
 239.       0.026596   0.026552   4.8589     4.4121     0.41916    0.4432    
 240.       0.025926   0.025848   4.7004     5.0758     0.44784    0.45384   
 241.       0.026451   0.026875   4.9869     5.3759     0.43048    0.42698   
 242.       0.026349   0.026056   4.2307     4.8673     0.43728    0.4564    
 243.       0.026097   0.026452   5.021      4.9029     0.40867    0.46227   
 244.       0.026581   0.026703   4.5087     4.3345     0.45925    0.42456   
 245.       0.025701   0.026277   4.4862     5.2821     0.42849    0.45694   
 246.       0.026386   0.026597   4.038      5.2712     0.42501    0.42081   
 247.       0.025992   0.025903   5.2768     4.4232     0.44142    0.43813   
 248.       0.026207   0.026563   4.2761     5.1465     0.45444    0.43879   
 249.       0.02543    0.026757   4.3103     4.2334     0.42685    0.42265   
 250.       0.026678   0.025816   4.9272     4.7024     0.41693    0.46015   
 251.       0.025991   0.026636   5.0514     4.6031     0.46924    0.42148   
 252.       0.025857   0.025759   4.2241     4.3251     0.41883    0.4588    
 253.       0.026204   0.02617    4.3561     5.1026     0.41375    0.44378   
 254.       0.026588   0.026217   5.5748     4.2527     0.44548    0.4309    
 255.       0.025947   0.025786   4.0209     5.2916     0.43435    0.44494   
