#           v(tb.r1)   v(tb.r2)   v(tb.r3)   v(tb.r4)   v(tb.r5)   v(tb.r6)  
 1.         0.023681   0.022822   2.4816     2.4979     0.36133    0.35353   
 2.         0.023257   0.024115   2.5924     2.3187     0.36134    0.34353   
 3.         0.023581   0.023071   2.3375     2.3071     0.35778    0.36259   
 4.         0.023455   0.023504   2.5867     2.3872     0.34964    0.34611   
 5.         0.023718   0.023309   2.565      2.2723     0.36024    0.35812   
 6.         0.023336   0.023271   2.4347     2.5328     0.37076    0.36237   
 7.         0.023574   0.023434   2.3409     2.2667     0.34552    0.35191   
 8.         0.023587   0.023189   2.5826     2.5073     0.36727    0.36132   
 9.         0.023535   0.023638   2.637      2.5528     0.36235    0.3544    
 10.        0.023332   0.023263   2.2628     2.4065     0.35899    0.34899   
 11.        0.023546   0.023513   2.7049     2.5484     0.34641    0.36196   
 12.        0.023829   0.023619   2.608      2.4004     0.35503    0.35078   
 13.        0.023241   0.023375   2.4645     2.3778     0.36111    0.34104   
 14.        0.023698   0.023593   2.2808     2.5749     0.35081    0.36709   
 15.        0.0236     0.02345    2.4979     2.3303     0.34854    0.33725   
 16.        0.02356    0.023302   2.5485     2.2615     0.3581     0.36759   
 17.        0.023265   0.023605   2.3024     2.6107     0.36978    0.34962   
 18.        0.02343    0.023377   2.3138     2.1403     0.33988    0.36658   
 19.        0.023592   0.023122   2.5704     2.575      0.35297    0.37594   
 20.        0.023388   0.023741   2.6654     2.3283     0.35458    0.34535   
 21.        0.02331    0.023061   2.1948     2.7252     0.34407    0.36491   
 22.        0.023489   0.023759   2.4753     2.7718     0.35202    0.355     
 23.        0.023794   0.023331   2.4225     2.2765     0.35898    0.36055   
 24.        0.023114   0.02367    2.1832     2.6185     0.37424    0.34703   
 25.        0.023385   0.023927   2.3119     2.4532     0.36954    0.36217   
 26.        0.023458   0.023235   2.5363     2.5093     0.34307    0.35581   
 27.        0.023244   0.023666   2.8439     2.3404     0.36784    0.34406   
 28.        0.02341    0.023446   2.6356     2.573      0.35515    0.37304   
 29.        0.023517   0.023585   2.2827     2.3688     0.34812    0.35813   
 30.        0.023847   0.023261   2.7151     2.276      0.35052    0.35006   
 31.        0.023793   0.023611   2.3851     2.778      0.37382    0.36447   
 32.        0.023166   0.023504   2.2658     2.464      0.34258    0.34646   
 33.        0.02372    0.023195   2.447      2.3952     0.35424    0.35758   
 34.        0.023483   0.023839   2.7929     2.6114     0.34287    0.34899   
 35.        0.023319   0.023531   2.2265     2.3054     0.36283    0.3532    
 36.        0.023315   0.023325   2.3839     2.4418     0.35195    0.37394   
 37.        0.023864   0.023661   2.2713     2.3105     0.35178    0.33836   
 38.        0.023184   0.023262   2.5842     2.4738     0.3573     0.37116   
 39.        0.023455   0.023528   2.3263     2.6983     0.375      0.355     
 40.        0.023169   0.023327   2.3423     2.173      0.34447    0.34817   
 41.        0.023626   0.023385   2.5415     2.7293     0.36114    0.36881   
 42.        0.023411   0.023899   2.7744     2.4249     0.35115    0.33432   
 43.        0.023392   0.023074   2.2865     2.4039     0.3521     0.36633   
 44.        0.023473   0.023804   2.5645     2.6345     0.35242    0.34296   
 45.        0.023899   0.023456   2.3545     2.0968     0.35989    0.36949   
 46.        0.023208   0.023271   2.3552     2.5737     0.36215    0.35534   
 47.        0.023584   0.023782   2.4035     2.2709     0.34861    0.34692   
 48.        0.023378   0.022994   2.5493     2.7209     0.36352    0.36634   
 49.        0.023402   0.023726   2.5092     2.3975     0.35933    0.35555   
 50.        0.023389   0.023167   2.3257     2.3159     0.35529    0.35552   
 51.        0.02355    0.023763   2.6208     2.624      0.35125    0.35757   
 52.        0.023631   0.02348    2.5306     2.4177     0.35469    0.36482   
 53.        0.023308   0.023265   2.4246     2.4759     0.36008    0.33237   
 54.        0.023624   0.023706   2.3651     2.5639     0.35492    0.3676    
 55.        0.023543   0.023473   2.4538     2.5361     0.35358    0.34722   
 56.        0.023468   0.023449   2.5079     2.0831     0.36589    0.36232   
 57.        0.023373   0.023482   2.3923     2.6527     0.35975    0.34784   
 58.        0.023437   0.023704   2.4391     2.3036     0.34958    0.37286   
 59.        0.023573   0.022941   2.6575     2.5088     0.36266    0.34793   
 60.        0.023466   0.023735   2.4824     2.3443     0.35191    0.36467   
 61.        0.023406   0.023282   2.3504     2.7402     0.36131    0.34652   
 62.        0.023681   0.023634   2.5841     2.3542     0.34349    0.35012   
 63.        0.023572   0.023278   2.4292     2.6041     0.36194    0.36532   
 64.        0.023328   0.023848   2.5116     2.3016     0.35251    0.33518   
 65.        0.023615   0.02328    2.2348     2.402      0.36456    0.379     
 66.        0.023369   0.02367    2.5317     2.5001     0.35579    0.3596    
 67.        0.02361    0.023264   2.4125     2.111      0.35733    0.36905   
 68.        0.023201   0.023331   2.6052     2.8649     0.35705    0.35983   
 69.        0.023614   0.02373    2.4365     2.5056     0.36509    0.37189   
 70.        0.023388   0.023005   2.4724     2.6365     0.34757    0.36362   
 71.        0.023662   0.023973   2.497      2.5367     0.37516    0.35302   
 72.        0.023474   0.023553   2.5714     2.7732     0.34748    0.35213   
 73.        0.023503   0.023771   2.3364     2.5914     0.37197    0.35931   
 74.        0.023487   0.023543   2.7249     2.4346     0.35882    0.33475   
 75.        0.02369    0.023804   2.322      2.4536     0.3575     0.35701   
 76.        0.023275   0.02364    2.7767     2.4435     0.35274    0.35806   
 77.        0.023918   0.023397   2.5206     2.0947     0.35287    0.34576   
 78.        0.023273   0.02337    2.4585     2.5253     0.37409    0.34715   
 79.        0.023807   0.023583   2.3832     2.4783     0.34016    0.35682   
 80.        0.023531   0.023006   2.4546     2.2585     0.37562    0.34929   
 81.        0.023517   0.023479   2.6692     2.3478     0.35853    0.34532   
 82.        0.023407   0.023531   2.1897     2.4925     0.35611    0.35453   
 83.        0.023384   0.02326    2.8435     2.2972     0.35894    0.36504   
 84.        0.023913   0.023264   2.5391     2.2507     0.33811    0.34703   
 85.        0.023115   0.023491   2.4799     2.4572     0.37267    0.37171   
 86.        0.023885   0.02335    2.4152     2.5755     0.34963    0.34625   
 87.        0.023515   0.023247   2.1947     2.3203     0.35486    0.37253   
 88.        0.023473   0.02343    2.7899     2.6728     0.34232    0.35202   
 89.        0.023577   0.023688   2.3475     2.3215     0.36812    0.35203   
 90.        0.023057   0.023267   2.3853     2.7641     0.34498    0.36065   
 91.        0.023829   0.02384    2.2727     2.395      0.35168    0.34043   
 92.        0.023338   0.023241   2.6633     2.4258     0.3546     0.36617   
 93.        0.023471   0.023831   2.2543     2.4786     0.35544    0.35107   
 94.        0.023151   0.023384   2.3994     2.2032     0.35344    0.35792   
 95.        0.023748   0.023375   2.4443     2.6233     0.34855    0.36234   
 96.        0.023239   0.023604   2.3987     2.3764     0.37791    0.34477   
 97.        0.023373   0.023124   2.352      2.5042     0.34295    0.36728   
 98.        0.023442   0.023702   2.4335     2.4983     0.35874    0.35732   
 99.        0.023483   0.023362   2.8653     2.3009     0.34267    0.33949   
 100.       0.023437   0.023511   2.1927     2.716      0.39296    0.36424   
 101.       0.023264   0.02364    2.3963     2.4402     0.34716    0.34197   
 102.       0.023956   0.023207   2.3305     2.2025     0.34534    0.36918   
 103.       0.023208   0.023702   3.1227     2.5629     0.37634    0.34495   
 104.       0.023572   0.023524   2.239      2.2376     0.34173    0.36654   
 105.       0.023131   0.0231     2.3774     2.6223     0.3521     0.36527   
 106.       0.024288   0.023673   2.8424     2.2779     0.34558    0.3431    
 107.       0.023304   0.023156   2.1739     2.6877     0.37542    0.37154   
 108.       0.023194   0.023789   2.3247     2.5555     0.34841    0.35401   
 109.       0.023921   0.023221   2.356      2.268      0.34848    0.3544    
 110.       0.023182   0.023687   2.8076     2.7287     0.36265    0.36527   
 111.       0.023412   0.023703   2.2626     2.3842     0.36316    0.3521    
 112.       0.023209   0.023173   2.3372     2.443      0.34988    0.36193   
 113.       0.023904   0.023817   2.6284     2.6229     0.36065    0.34745   
 114.       0.023334   0.023443   2.5428     2.4251     0.3618     0.35582   
 115.       0.023299   0.023429   2.3002     2.5346     0.37474    0.35731   
 116.       0.023599   0.023675   2.5164     2.2939     0.34875    0.35331   
 117.       0.02365    0.023375   2.6169     2.4673     0.36068    0.3548    
 118.       0.023357   0.023618   2.7552     2.4921     0.36555    0.34746   
 119.       0.023576   0.023291   2.3309     2.4142     0.34785    0.36138   
 120.       0.023573   0.023464   2.5832     2.4078     0.36101    0.34753   
 121.       0.023897   0.023499   2.5737     2.335      0.36378    0.35399   
 122.       0.023311   0.023416   2.2992     2.5444     0.35672    0.35782   
 123.       0.023559   0.02346    2.5774     2.3194     0.35395    0.34118   
 124.       0.023705   0.023276   2.5919     2.4326     0.36189    0.36136   
 125.       0.023297   0.023598   2.4288     2.4246     0.36131    0.34923   
 126.       0.023568   0.023286   2.4233     2.2547     0.35004    0.33528   
 127.       0.023646   0.023429   2.5926     2.6402     0.35809    0.34854   
 128.       0.023504   0.023541   2.539      2.3349     0.35176    0.34965   
 129.       0.023423   0.023124   2.3615     2.0961     0.35663    0.36077   
 130.       0.023589   0.023566   2.4857     2.2794     0.35468    0.36492   
 131.       0.023596   0.023341   2.3857     2.3012     0.35434    0.36576   
 132.       0.02334    0.02303    2.4611     2.5179     0.3626     0.35867   
 133.       0.023524   0.023334   2.4203     2.6282     0.35105    0.36282   
 134.       0.02338    0.02335    2.4353     2.6523     0.3652     0.34403   
 135.       0.023491   0.02358    2.5326     2.5293     0.35729    0.37077   
 136.       0.02345    0.023657   2.3825     2.5165     0.3545     0.35191   
 137.       0.023434   0.023676   2.6261     2.283      0.358      0.35238   
 138.       0.023633   0.023523   2.4673     2.7097     0.3569     0.36857   
 139.       0.023357   0.023647   2.4418     2.3649     0.34585    0.33599   
 140.       0.023672   0.023194   2.5024     2.4417     0.36362    0.37938   
 141.       0.023506   0.023802   2.4464     2.6258     0.344      0.33202   
 142.       0.023435   0.023391   2.3312     2.1864     0.35315    0.37411   
 143.       0.023515   0.023375   2.5799     2.7786     0.35403    0.35573   
 144.       0.023505   0.023772   2.2403     2.073      0.35492    0.35464   
 145.       0.023231   0.023004   2.4038     2.7784     0.35492    0.36467   
 146.       0.023651   0.024027   2.4176     2.4125     0.35554    0.35318   
 147.       0.023217   0.022932   2.4294     2.4528     0.35579    0.35644   
 148.       0.023414   0.02387    2.4355     2.6326     0.35613    0.34128   
 149.       0.023434   0.023481   2.4572     2.4364     0.34768    0.3548    
 150.       0.023454   0.023432   2.4578     2.4413     0.3623     0.34962   
 151.       0.023451   0.023655   2.4341     2.2451     0.34904    0.33547   
 152.       0.023461   0.023404   2.3505     2.4677     0.35341    0.37151   
 153.       0.023469   0.023497   2.5606     2.2926     0.35546    0.33712   
 154.       0.023487   0.023136   2.3087     2.1423     0.36649    0.37664   
 155.       0.023276   0.023444   2.401      2.6331     0.34551    0.35287   
 156.       0.023619   0.023363   2.4768     2.1586     0.36742    0.36222   
 157.       0.023333   0.023009   2.5814     2.8259     0.35355    0.35552   
 158.       0.023419   0.023854   2.2927     2.4075     0.35438    0.35963   
 159.       0.02345    0.023042   2.68       2.5498     0.35438    0.36014   
 160.       0.023727   0.023924   2.4322     2.4397     0.34524    0.35546   
 161.       0.023232   0.023401   2.4292     2.523      0.35709    0.35785   
 162.       0.023716   0.023615   2.3831     2.5227     0.3603     0.36222   
 163.       0.023415   0.023464   2.31       2.462      0.33283    0.34424   
 164.       0.023442   0.02355    2.5561     2.5032     0.36515    0.37593   
 165.       0.023458   0.023565   2.442      2.4857     0.35822    0.34901   
 166.       0.02322    0.023455   2.0557     2.2867     0.36258    0.36305   
 167.       0.023474   0.023511   2.6202     2.8087     0.34877    0.3519    
 168.       0.023613   0.023641   2.4884     2.3662     0.37022    0.3509    
 169.       0.022965   0.023196   2.527      2.5708     0.34578    0.35875   
 170.       0.023672   0.023911   2.4029     2.3509     0.35573    0.35405   
 171.       0.023523   0.023307   2.7357     2.3971     0.33942    0.35336   
 172.       0.023632   0.023635   2.2686     2.5549     0.37728    0.34036   
 173.       0.023283   0.023397   2.3719     2.4117     0.34817    0.37883   
 174.       0.023782   0.023348   2.2513     2.3097     0.33734    0.355     
 175.       0.023259   0.023519   2.841      2.241      0.37535    0.34675   
 176.       0.0235     0.023443   2.2483     2.8891     0.33843    0.37012   
 177.       0.023073   0.023457   2.2455     2.3849     0.35135    0.34775   
 178.       0.023945   0.023101   2.8214     2.3396     0.34271    0.36077   
 179.       0.023332   0.023967   2.1113     2.7021     0.38019    0.34866   
 180.       0.023018   0.023473   2.2966     2.3165     0.34558    0.36211   
 181.       0.023904   0.02325    2.3308     2.5012     0.34165    0.34988   
 182.       0.023113   0.023787   2.9091     2.3531     0.3649     0.35396   
 183.       0.023401   0.023292   2.2066     2.5947     0.35464    0.34295   
 184.       0.023136   0.023594   2.2507     2.3819     0.34656    0.35969   
 185.       0.024006   0.023301   2.6646     2.386      0.35942    0.34716   
 186.       0.023277   0.023598   2.3882     2.2228     0.35777    0.36979   
 187.       0.023139   0.023333   2.2489     2.4858     0.37464    0.34106   
 188.       0.023655   0.02345    2.49       2.3607     0.34834    0.35984   
 189.       0.023468   0.023192   2.553      2.6756     0.35585    0.35392   
 190.       0.023283   0.023568   2.7524     2.218      0.36434    0.35276   
 191.       0.023552   0.023256   2.2984     2.5189     0.35319    0.36855   
 192.       0.023483   0.02379    2.5154     2.3699     0.34375    0.35306   
 193.       0.023897   0.023139   2.6277     2.3879     0.36004    0.37448   
 194.       0.023312   0.023564   2.3472     2.6478     0.36212    0.34946   
 195.       0.023444   0.023448   2.2563     2.4772     0.34495    0.35143   
 196.       0.023653   0.023402   2.5798     2.7712     0.35775    0.37015   
 197.       0.02344    0.023754   2.5114     2.2939     0.36346    0.3465    
 198.       0.023198   0.023377   2.244      2.4145     0.3536     0.36754   
 199.       0.023545   0.023888   2.525      2.6987     0.35292    0.3405    
 200.       0.023633   0.023349   2.5898     2.3293     0.35813    0.3727    
 201.       0.023237   0.023355   2.3852     2.5945     0.35886    0.34888   
 202.       0.023495   0.023788   2.402      2.2152     0.35343    0.3686    
 203.       0.023639   0.023251   2.5192     2.721      0.35203    0.34957   
 204.       0.023433   0.023755   2.5022     2.3417     0.3648     0.3698    
 205.       0.023404   0.02312    2.3871     2.6463     0.34902    0.34456   
 206.       0.02351    0.023851   2.4008     2.3881     0.367      0.36321   
 207.       0.023541   0.023311   2.5712     2.6887     0.34744    0.34089   
 208.       0.023428   0.02376    2.3572     2.292      0.36709    0.36179   
 209.       0.02338    0.023312   2.6474     2.5524     0.33747    0.34299   
 210.       0.023682   0.023783   2.3584     2.2335     0.36901    0.35304   
 211.       0.023308   0.02321    2.5882     2.5512     0.35161    0.34961   
 212.       0.023716   0.023648   2.1663     2.2472     0.355      0.34968   
 213.       0.023267   0.023128   2.6694     2.4101     0.36312    0.35962   
 214.       0.023746   0.023609   2.3495     2.3288     0.3572     0.3485    
 215.       0.023054   0.023186   2.4646     2.3364     0.34666    0.37258   
 216.       0.023767   0.023412   2.5969     2.4662     0.37099    0.34551   
 217.       0.023388   0.023344   2.443      2.3691     0.34273    0.35627   
 218.       0.023439   0.023341   2.3358     2.7382     0.36768    0.35602   
 219.       0.023625   0.023572   2.6571     2.3074     0.35254    0.34215   
 220.       0.023515   0.023288   2.2385     2.5098     0.3601     0.35872   
 221.       0.023252   0.023843   2.6805     2.3948     0.34226    0.36176   
 222.       0.023829   0.023231   2.4331     2.1851     0.36372    0.35825   
 223.       0.023173   0.023467   2.4979     2.5172     0.34953    0.35114   
 224.       0.023722   0.023506   2.2432     2.5848     0.35937    0.36147   
 225.       0.023385   0.023181   2.5507     2.4961     0.36291    0.34668   
 226.       0.02358    0.023524   2.3108     2.3779     0.36359    0.36592   
 227.       0.023164   0.023589   2.5283     2.4826     0.34475    0.35739   
 228.       0.023662   0.023525   2.6074     2.3137     0.36914    0.35104   
 229.       0.023342   0.023367   2.5491     2.6912     0.34045    0.34292   
 230.       0.023538   0.023621   2.3136     2.4898     0.36023    0.37176   
 231.       0.023613   0.023256   2.674      2.3292     0.34734    0.34197   
 232.       0.023656   0.02367    2.2248     2.2698     0.34936    0.36998   
 233.       0.023204   0.023507   2.5138     2.6478     0.36811    0.36704   
 234.       0.023772   0.023385   2.2679     2.2142     0.34997    0.34854   
 235.       0.02312    0.023171   2.3662     2.7409     0.36526    0.37599   
 236.       0.023579   0.023855   2.6249     2.6066     0.36206    0.35333   
 237.       0.023301   0.023159   2.3413     2.3627     0.35548    0.36628   
 238.       0.023317   0.023763   2.6234     2.7521     0.36746    0.37307   
 239.       0.023757   0.023731   2.5573     2.3604     0.34402    0.36035   
 240.       0.023341   0.023292   2.4859     2.663      0.36339    0.36749   
 241.       0.023671   0.023933   2.6084     2.7909     0.35138    0.34961   
 242.       0.023606   0.023426   2.2749     2.5596     0.35601    0.36965   
 243.       0.023446   0.023679   2.6252     2.5724     0.33684    0.37332   
 244.       0.023746   0.023831   2.3917     2.3269     0.37093    0.34773   
 245.       0.023198   0.023559   2.3811     2.7524     0.35009    0.36946   
 246.       0.023624   0.023758   2.1876     2.7393     0.34808    0.34498   
 247.       0.023372   0.023331   2.7336     2.3623     0.35922    0.35676   
 248.       0.023508   0.023746   2.2879     2.6781     0.36766    0.35717   
 249.       0.023026   0.023861   2.3121     2.2722     0.34914    0.34635   
 250.       0.023803   0.02327    2.5887     2.4823     0.34263    0.37176   
 251.       0.023373   0.023779   2.6332     2.4367     0.37751    0.34576   
 252.       0.023298   0.02323    2.2682     2.3164     0.34337    0.37108   
 253.       0.023515   0.023488   2.3353     2.661      0.3403     0.36071   
 254.       0.023746   0.023517   2.8599     2.2881     0.3617     0.35193   
 255.       0.02335    0.02325    2.1697     2.7513     0.35385    0.36131   
