#           v(tb.r1)   v(tb.r2)   v(tb.r3)   v(tb.r4)   v(tb.r5)   v(tb.r6)  
 1.         0.024523   0.024523   3.3873     3.3873     0.39063    0.39063   
 2.         0.024359   0.024359   3.318      3.318      0.38952    0.38952   
 3.         0.025343   0.025343   3.809      3.809      0.40558    0.40558   
 4.         0.024756   0.024756   3.331      3.331      0.38195    0.38195   
 5.         0.024568   0.024568   3.4516     3.4516     0.39008    0.39008   
 6.         0.025197   0.025197   3.6759     3.6759     0.39968    0.39968   
 7.         0.024617   0.024617   3.067      3.067      0.39426    0.39426   
 8.         0.024648   0.024648   3.4911     3.4911     0.37743    0.37743   
 9.         0.025054   0.025054   3.659      3.659      0.41317    0.41317   
 10.        0.024299   0.024299   3.2459     3.2459     0.38785    0.38785   
 11.        0.024686   0.024686   3.0422     3.0422     0.40644    0.40644   
 12.        0.024912   0.024912   3.9628     3.9628     0.39478    0.39478   
 13.        0.024605   0.024605   3.2727     3.2727     0.39817    0.39817   
 14.        0.024219   0.024219   3.6833     3.6833     0.40178    0.40178   
 15.        0.025397   0.025397   3.373      3.373      0.40137    0.40137   
 16.        0.024537   0.024537   3.6396     3.6396     0.38209    0.38209   
 17.        0.025128   0.025128   3.7816     3.7816     0.39832    0.39832   
 18.        0.02476    0.02476    3.5514     3.5514     0.40401    0.40401   
 19.        0.024972   0.024972   3.142      3.142      0.37002    0.37002   
 20.        0.02507    0.02507    3.6403     3.6403     0.41431    0.41431   
 21.        0.024919   0.024919   3.5196     3.5196     0.38757    0.38757   
 22.        0.024346   0.024346   2.9944     2.9944     0.37487    0.37487   
 23.        0.024915   0.024915   4.1642     4.1642     0.3969     0.3969    
 24.        0.024964   0.024964   3.1085     3.1085     0.40606    0.40606   
 25.        0.024042   0.024042   3.0135     3.0135     0.36731    0.36731   
 26.        0.02545    0.02545    3.7134     3.7134     0.41698    0.41698   
 27.        0.024381   0.024381   3.4851     3.4851     0.39271    0.39271   
 28.        0.024128   0.024128   2.762      2.762      0.39276    0.39276   
 29.        0.024891   0.024891   4.1279     4.1279     0.40554    0.40554   
 30.        0.024941   0.024941   3.3673     3.3673     0.38523    0.38523   
 31.        0.023868   0.023868   3.4861     3.4861     0.39367    0.39367   
 32.        0.025568   0.025568   3.6822     3.6822     0.40732    0.40732   
 33.        0.024685   0.024685   3.2021     3.2021     0.37768    0.37768   
 34.        0.024746   0.024746   3.5877     3.5877     0.39861    0.39861   
 35.        0.025084   0.025084   3.6707     3.6707     0.40429    0.40429   
 36.        0.024449   0.024449   2.9907     2.9907     0.36932    0.36932   
 37.        0.024801   0.024801   3.6897     3.6897     0.4134     0.4134    
 38.        0.025086   0.025086   3.6093     3.6093     0.38171    0.38171   
 39.        0.024182   0.024182   3.0013     3.0013     0.38112    0.38112   
 40.        0.02496    0.02496    4.0287     4.0287     0.41015    0.41015   
 41.        0.025009   0.025009   2.934      2.934      0.39486    0.39486   
 42.        0.024007   0.024007   3.1408     3.1408     0.39174    0.39174   
 43.        0.025341   0.025341   3.8643     3.8643     0.40461    0.40461   
 44.        0.024181   0.024181   3.3341     3.3341     0.39797    0.39797   
 45.        0.02434    0.02434    3.44       3.44       0.38342    0.38342   
 46.        0.025281   0.025281   3.8348     3.8348     0.39729    0.39729   
 47.        0.024718   0.024718   3.4949     3.4949     0.39256    0.39256   
 48.        0.024734   0.024734   3.2277     3.2277     0.37577    0.37577   
 49.        0.025158   0.025158   3.6093     3.6093     0.41531    0.41531   
 50.        0.024829   0.024829   3.3246     3.3246     0.37656    0.37656   
 51.        0.02441    0.02441    3.0911     3.0911     0.39893    0.39893   
 52.        0.024856   0.024856   3.8354     3.8354     0.40628    0.40628   
 53.        0.024609   0.024609   2.8802     2.8802     0.3948     0.3948    
 54.        0.02417    0.02417    3.7348     3.7348     0.38729    0.38729   
 55.        0.025321   0.025321   3.8391     3.8391     0.40774    0.40774   
 56.        0.024115   0.024115   3.3369     3.3369     0.39056    0.39056   
 57.        0.025029   0.025029   3.2548     3.2548     0.39913    0.39913   
 58.        0.025172   0.025172   3.7593     3.7593     0.40302    0.40302   
 59.        0.024685   0.024685   3.3749     3.3749     0.38291    0.38291   
 60.        0.024528   0.024528   3.6941     3.6941     0.39655    0.39655   
 61.        0.0252     0.0252     3.5844     3.5844     0.40697    0.40697   
 62.        0.024662   0.024662   3.1452     3.1452     0.37324    0.37324   
 63.        0.024973   0.024973   3.6375     3.6375     0.41636    0.41636   
 64.        0.024973   0.024973   3.6261     3.6261     0.38552    0.38552   
 65.        0.024371   0.024371   2.982      2.982      0.38862    0.38862   
 66.        0.024886   0.024886   4.0424     4.0424     0.40631    0.40631   
 67.        0.025069   0.025069   3.145      3.145      0.39142    0.39142   
 68.        0.024096   0.024096   3.4648     3.4648     0.38332    0.38332   
 69.        0.025479   0.025479   3.7858     3.7858     0.41136    0.41136   
 70.        0.024418   0.024418   3.164      3.164      0.39762    0.39762   
 71.        0.02465    0.02465    3.1975     3.1975     0.38875    0.38875   
 72.        0.025116   0.025116   3.9819     3.9819     0.40764    0.40764   
 73.        0.024526   0.024526   3.4496     3.4496     0.38862    0.38862   
 74.        0.024437   0.024437   3.3556     3.3556     0.39181    0.39181   
 75.        0.025378   0.025378   3.7857     3.7857     0.4027     0.4027    
 76.        0.024822   0.024822   3.2866     3.2866     0.38359    0.38359   
 77.        0.02461    0.02461    3.5249     3.5249     0.39349    0.39349   
 78.        0.02519    0.02519    3.6376     3.6376     0.4012     0.4012    
 79.        0.024559   0.024559   3.1044     3.1044     0.3937     0.3937    
 80.        0.024732   0.024732   3.4433     3.4433     0.39597    0.39597   
 81.        0.024971   0.024971   3.5628     3.5628     0.40718    0.40718   
 82.        0.024339   0.024339   3.3654     3.3654     0.38745    0.38745   
 83.        0.024733   0.024733   3.558      3.558      0.40784    0.40784   
 84.        0.024948   0.024948   3.7562     3.7562     0.39432    0.39432   
 85.        0.024718   0.024718   3.2987     3.2987     0.39486    0.39486   
 86.        0.024868   0.024868   3.7489     3.7489     0.4069     0.4069    
 87.        0.025173   0.025173   3.3331     3.3331     0.39723    0.39723   
 88.        0.024547   0.024547   3.5421     3.5421     0.38738    0.38738   
 89.        0.02518    0.02518    3.8629     3.8629     0.40004    0.40004   
 90.        0.024719   0.024719   3.4584     3.4584     0.39936    0.39936   
 91.        0.024855   0.024855   3.3145     3.3145     0.37367    0.37367   
 92.        0.025221   0.025221   3.6592     3.6592     0.41003    0.41003   
 93.        0.024808   0.024808   3.4317     3.4317     0.38817    0.38817   
 94.        0.024549   0.024549   3.0891     3.0891     0.37403    0.37403   
 95.        0.024957   0.024957   4.0306     4.0306     0.40676    0.40676   
 96.        0.024828   0.024828   3.1187     3.1187     0.39716    0.39716   
 97.        0.024158   0.024158   2.9844     2.9844     0.3889     0.3889    
 98.        0.025292   0.025292   3.8142     3.8142     0.41072    0.41072   
 99.        0.024394   0.024394   3.29       3.29       0.40374    0.40374   
 100.       0.024095   0.024095   3.2361     3.2361     0.39544    0.39544   
 101.       0.025158   0.025158   3.9616     3.9616     0.40472    0.40472   
 102.       0.024718   0.024718   3.7477     3.7477     0.38438    0.38438   
 103.       0.024591   0.024591   3.5671     3.5671     0.39531    0.39531   
 104.       0.025408   0.025408   3.6415     3.6415     0.40007    0.40007   
 105.       0.025126   0.025126   3.1832     3.1832     0.38308    0.38308   
 106.       0.024839   0.024839   3.6269     3.6269     0.39037    0.39037   
 107.       0.025044   0.025044   3.5878     3.5878     0.39737    0.39737   
 108.       0.024424   0.024424   3.1251     3.1251     0.37515    0.37515   
 109.       0.024856   0.024856   3.395      3.395      0.40711    0.40711   
 110.       0.024892   0.024892   3.4809     3.4809     0.38307    0.38307   
 111.       0.02433    0.02433    3.1212     3.1212     0.38249    0.38249   
 112.       0.024625   0.024625   3.7907     3.7907     0.41457    0.41457   
 113.       0.024801   0.024801   2.9689     2.9689     0.38386    0.38386   
 114.       0.024172   0.024172   3.1953     3.1953     0.40381    0.40381   
 115.       0.025102   0.025102   3.9465     3.9465     0.39784    0.39784   
 116.       0.024239   0.024239   3.1903     3.1903     0.39057    0.39057   
 117.       0.024403   0.024403   3.7607     3.7607     0.39413    0.39413   
 118.       0.025415   0.025415   3.4598     3.4598     0.39826    0.39826   
 119.       0.024423   0.024423   3.3319     3.3319     0.39052    0.39052   
 120.       0.025102   0.025102   3.5735     3.5735     0.3782     0.3782    
 121.       0.024822   0.024822   3.6129     3.6129     0.40243    0.40243   
 122.       0.024632   0.024632   3.2722     3.2722     0.38197    0.38197   
 123.       0.024815   0.024815   3.1451     3.1451     0.38735    0.38735   
 124.       0.024875   0.024875   3.6901     3.6901     0.39801    0.39801   
 125.       0.024545   0.024545   3.0723     3.0723     0.38903    0.38903   
 126.       0.02425    0.02425    3.2963     3.2963     0.39708    0.39708   
 127.       0.024978   0.024978   3.4942     3.4942     0.40216    0.40216   
 128.       0.024266   0.024266   3.2572     3.2572     0.39081    0.39081   
 129.       0.024511   0.024511   3.5096     3.5096     0.40129    0.40129   
 130.       0.024824   0.024824   3.5705     3.5705     0.40202    0.40202   
 131.       0.024544   0.024544   3.3997     3.3997     0.38282    0.38282   
 132.       0.02485    0.02485    3.755      3.755      0.39804    0.39804   
 133.       0.02499    0.02499    3.5538     3.5538     0.3972     0.3972    
 134.       0.024686   0.024686   3.152      3.152      0.37986    0.37986   
 135.       0.025047   0.025047   3.6615     3.6615     0.40063    0.40063   
 136.       0.024937   0.024937   3.502      3.502      0.38619    0.38619   
 137.       0.024373   0.024373   3.1552     3.1552     0.38272    0.38272   
 138.       0.024927   0.024927   3.5959     3.5959     0.40717    0.40717   
 139.       0.024802   0.024802   3.1306     3.1306     0.39232    0.39232   
 140.       0.024281   0.024281   3.2742     3.2742     0.38314    0.38314   
 141.       0.024903   0.024903   3.8        3.8        0.41348    0.41348   
 142.       0.0244     0.0244     3.175      3.175      0.39613    0.39613   
 143.       0.024427   0.024427   3.2077     3.2077     0.38925    0.38925   
 144.       0.025144   0.025144   4.0546     4.0546     0.40708    0.40708   
 145.       0.024556   0.024556   3.4243     3.4243     0.38708    0.38708   
 146.       0.024445   0.024445   3.3678     3.3678     0.39373    0.39373   
 147.       0.025456   0.025456   3.7434     3.7434     0.40293    0.40293   
 148.       0.024776   0.024776   3.2533     3.2533     0.38243    0.38243   
 149.       0.02462    0.02462    3.5819     3.5819     0.39516    0.39516   
 150.       0.025155   0.025155   3.6278     3.6278     0.39954    0.39954   
 151.       0.024514   0.024514   3.089      3.089      0.3827     0.3827    
 152.       0.024801   0.024801   3.4966     3.4966     0.40849    0.40849   
 153.       0.024973   0.024973   3.5273     3.5273     0.38639    0.38639   
 154.       0.024311   0.024311   3.2621     3.2621     0.38934    0.38934   
 155.       0.024792   0.024792   3.8092     3.8092     0.4088     0.4088    
 156.       0.024892   0.024892   3.1225     3.1225     0.39437    0.39437   
 157.       0.024421   0.024421   3.3853     3.3853     0.39215    0.39215   
 158.       0.025182   0.025182   3.8014     3.8014     0.40761    0.40761   
 159.       0.024413   0.024413   3.3122     3.3122     0.39715    0.39715   
 160.       0.024637   0.024637   3.4606     3.4606     0.3866     0.3866    
 161.       0.025219   0.025219   3.893      3.893      0.39992    0.39992   
 162.       0.024701   0.024701   3.4615     3.4615     0.392      0.392     
 163.       0.024758   0.024758   3.303      3.303      0.37949    0.37949   
 164.       0.025251   0.025251   3.6547     3.6547     0.39868    0.39868   
 165.       0.024807   0.024807   3.3404     3.3404     0.38858    0.38858   
 166.       0.024524   0.024524   3.2065     3.2065     0.37479    0.37479   
 167.       0.024947   0.024947   3.6474     3.6474     0.40597    0.40597   
 168.       0.024621   0.024621   3.1337     3.1337     0.39707    0.39707   
 169.       0.024305   0.024305   2.9982     2.9982     0.38804    0.38804   
 170.       0.024866   0.024866   3.7963     3.7963     0.41154    0.41154   
 171.       0.024412   0.024412   3.305      3.305      0.39934    0.39934   
 172.       0.024118   0.024118   3.2321     3.2321     0.39788    0.39788   
 173.       0.025135   0.025135   3.9501     3.9501     0.40372    0.40372   
 174.       0.024723   0.024723   3.6326     3.6326     0.38376    0.38376   
 175.       0.024565   0.024565   3.6388     3.6388     0.39694    0.39694   
 176.       0.025409   0.025409   3.6001     3.6001     0.39886    0.39886   
 177.       0.024979   0.024979   3.1722     3.1722     0.38275    0.38275   
 178.       0.024922   0.024922   3.6626     3.6626     0.3927     0.3927    
 179.       0.025002   0.025002   3.5585     3.5585     0.39429    0.39429   
 180.       0.024407   0.024407   3.1457     3.1457     0.3773     0.3773    
 181.       0.024907   0.024907   3.432      3.432      0.41411    0.41411   
 182.       0.024856   0.024856   3.3816     3.3816     0.37932    0.37932   
 183.       0.024333   0.024333   3.1674     3.1674     0.39252    0.39252   
 184.       0.024683   0.024683   3.8675     3.8675     0.41823    0.41823   
 185.       0.024691   0.024691   2.9006     2.9006     0.38167    0.38167   
 186.       0.024246   0.024246   3.5169     3.5169     0.40707    0.40707   
 187.       0.025301   0.025301   4.0193     4.0193     0.39605    0.39605   
 188.       0.024164   0.024164   3.1431     3.1431     0.3915     0.3915    
 189.       0.024792   0.024792   3.8739     3.8739     0.39118    0.39118   
 190.       0.025529   0.025529   3.4411     3.4411     0.4036     0.4036    
 191.       0.024362   0.024362   3.3543     3.3543     0.38444    0.38444   
 192.       0.025228   0.025228   3.4839     3.4839     0.38789    0.38789   
 193.       0.024772   0.024772   3.6557     3.6557     0.39928    0.39928   
 194.       0.024652   0.024652   3.1392     3.1392     0.38499    0.38499   
 195.       0.024703   0.024703   3.4238     3.4238     0.38516    0.38516   
 196.       0.025009   0.025009   3.6377     3.6377     0.3982     0.3982    
 197.       0.024382   0.024382   3.1482     3.1482     0.38641    0.38641   
 198.       0.0246     0.0246     3.2165     3.2165     0.40225    0.40225   
 199.       0.024891   0.024891   3.4844     3.4844     0.39754    0.39754   
 200.       0.024358   0.024358   3.2425     3.2425     0.39091    0.39091   
 201.       0.024422   0.024422   3.6327     3.6327     0.40347    0.40347   
 202.       0.024828   0.024828   3.4168     3.4168     0.40088    0.40088   
 203.       0.024486   0.024486   3.417      3.417      0.38353    0.38353   
 204.       0.025005   0.025005   3.8143     3.8143     0.39899    0.39899   
 205.       0.024816   0.024816   3.5243     3.5243     0.38768    0.38768   
 206.       0.024702   0.024702   3.1735     3.1735     0.38819    0.38819   
 207.       0.025121   0.025121   3.6681     3.6681     0.38726    0.38726   
 208.       0.024901   0.024901   3.3943     3.3943     0.38518    0.38518   
 209.       0.024399   0.024399   3.3709     3.3709     0.38164    0.38164   
 210.       0.02495    0.02495    3.1957     3.1957     0.40705    0.40705   
 211.       0.024549   0.024549   3.0925     3.0925     0.39412    0.39412   
 212.       0.024514   0.024514   3.2326     3.2326     0.38222    0.38222   
 213.       0.024404   0.024404   3.7971     3.7971     0.4175     0.4175    
 214.       0.024353   0.024353   3.2047     3.2047     0.39329    0.39329   
 215.       0.024383   0.024383   3.1905     3.1905     0.39293    0.39293   
 216.       0.025144   0.025144   4.1508     4.1508     0.40601    0.40601   
 217.       0.024611   0.024611   3.3756     3.3756     0.38589    0.38589   
 218.       0.024423   0.024423   3.4765     3.4765     0.39553    0.39553   
 219.       0.025591   0.025591   3.6897     3.6897     0.40259    0.40259   
 220.       0.0247     0.0247     3.2282     3.2282     0.38178    0.38178   
 221.       0.024748   0.024748   3.6313     3.6313     0.39658    0.39658   
 222.       0.025104   0.025104   3.6114     3.6114     0.39517    0.39517   
 223.       0.02448    0.02448    3.0892     3.0892     0.37767    0.37767   
 224.       0.024863   0.024863   3.5346     3.5346     0.41189    0.41189   
 225.       0.024959   0.024959   3.4545     3.4545     0.37472    0.37472   
 226.       0.0243     0.0243     3.2486     3.2486     0.38819    0.38819   
 227.       0.024836   0.024836   3.8496     3.8496     0.40916    0.40916   
 228.       0.02476    0.02476    2.7886     2.7886     0.39502    0.39502   
 229.       0.024287   0.024287   3.3695     3.3695     0.38679    0.38679   
 230.       0.025212   0.025212   3.8406     3.8406     0.41117    0.41117   
 231.       0.023982   0.023982   3.3118     3.3118     0.39221    0.39221   
 232.       0.024608   0.024608   3.3541     3.3541     0.38642    0.38642   
 233.       0.025241   0.025241   3.9875     3.9875     0.39957    0.39957   
 234.       0.024705   0.024705   3.3202     3.3202     0.39133    0.39133   
 235.       0.024589   0.024589   3.3073     3.3073     0.37963    0.37963   
 236.       0.025355   0.025355   3.6431     3.6431     0.39949    0.39949   
 237.       0.024627   0.024627   3.3148     3.3148     0.38815    0.38815   
 238.       0.024519   0.024519   3.1984     3.1984     0.37737    0.37737   
 239.       0.024929   0.024929   3.6524     3.6524     0.40482    0.40482   
 240.       0.024592   0.024592   3.1374     3.1374     0.39432    0.39432   
 241.       0.024305   0.024305   3.0607     3.0607     0.38971    0.38971   
 242.       0.024891   0.024891   3.7615     3.7615     0.40799    0.40799   
 243.       0.024413   0.024413   3.2956     3.2956     0.39472    0.39472   
 244.       0.024204   0.024204   3.2885     3.2885     0.40023    0.40023   
 245.       0.025096   0.025096   3.7931     3.7931     0.40261    0.40261   
 246.       0.02466    0.02466    3.5089     3.5089     0.38341    0.38341   
 247.       0.024608   0.024608   3.7063     3.7063     0.3985     0.3985    
 248.       0.025241   0.025241   3.5604     3.5604     0.39765    0.39765   
 249.       0.024821   0.024821   3.1703     3.1703     0.38227    0.38227   
 250.       0.025002   0.025002   3.6934     3.6934     0.3962     0.3962    
 251.       0.024959   0.024959   3.5251     3.5251     0.39026    0.39026   
 252.       0.024401   0.024401   3.165      3.165      0.38057    0.38057   
 253.       0.024954   0.024954   3.4904     3.4904     0.42241    0.42241   
 254.       0.024819   0.024819   3.2662     3.2662     0.37431    0.37431   
 255.       0.024334   0.024334   3.2501     3.2501     0.40561    0.40561   
