 v-sweep         v(out)          i(VDD)         
 0.00000000e+00  1.19999968e+00 -2.92906127e-11 
 2.00000000e-02  1.19999948e+00 -4.22316496e-11 
 4.00000000e-02  1.19999911e+00 -6.71394300e-11 
 6.00000000e-02  1.19999839e+00 -1.14425793e-10 
 8.00000000e-02  1.19999702e+00 -2.03629990e-10 
 1.00000000e-01  1.19999439e+00 -3.71440216e-10 
 1.20000000e-01  1.19998935e+00 -6.86760722e-10 
 1.40000000e-01  1.19997966e+00 -1.27895559e-09 
 1.60000000e-01  1.19996101e+00 -2.39055215e-09 
 1.80000000e-01  1.19992516e+00 -4.47467613e-09 
 2.00000000e-01  1.19985628e+00 -8.37191798e-09 
 2.20000000e-01  1.19972448e+00 -1.56201794e-08 
 2.40000000e-01  1.19947444e+00 -2.89611802e-08 
 2.60000000e-01  1.19900779e+00 -5.30608905e-08 
 2.80000000e-01  1.19816104e+00 -9.52579664e-08 
 3.00000000e-01  1.19668865e+00 -1.65756904e-07 
 3.20000000e-01  1.19426638e+00 -2.76532480e-07 
 3.40000000e-01  1.19051324e+00 -4.39182465e-07 
 3.60000000e-01  1.18499952e+00 -6.63364059e-07 
 3.80000000e-01  1.17720965e+00 -9.56801708e-07 
 4.00000000e-01  1.16645687e+00 -1.32593292e-06 
 4.20000000e-01  1.15173203e+00 -1.77605768e-06 
 4.40000000e-01  1.13137559e+00 -2.31073317e-06 
 4.60000000e-01  1.10208088e+00 -2.93005474e-06 
 4.80000000e-01  1.05514445e+00 -3.62489301e-06 
 5.00000000e-01  9.41235371e-01 -4.32582779e-06 
 5.20000000e-01  4.26717271e-01 -4.36122204e-06 
 5.40000000e-01  1.22120087e-01 -3.93894766e-06 
 5.60000000e-01  7.47810745e-02 -3.47664734e-06 
 5.80000000e-01  5.30081031e-02 -3.04058298e-06 
 6.00000000e-01  3.93142768e-02 -2.63497965e-06 
 6.20000000e-01  2.97216558e-02 -2.26079559e-06 
 6.40000000e-01  2.26394251e-02 -1.91831029e-06 
 6.60000000e-01  1.72641816e-02 -1.60749042e-06 
 6.80000000e-01  1.31132210e-02 -1.32808585e-06 
 7.00000000e-01  9.88080831e-03 -1.07965249e-06 
 7.20000000e-01  7.35748354e-03 -8.61554745e-07 
 7.40000000e-01  5.39290006e-03 -6.72954313e-07 
 7.60000000e-01  3.87496137e-03 -5.12788602e-07 
 7.80000000e-01  2.71725130e-03 -3.79735959e-07 
 8.00000000e-01  1.85098023e-03 -2.72162807e-07 
 8.20000000e-01  1.21953599e-03 -1.88049406e-07 
 8.40000000e-01  7.74686578e-04 -1.24905005e-07 
 8.60000000e-01  4.74109400e-04 -7.97190060e-08 
 8.80000000e-01  2.80340657e-04 -4.90409337e-08 
 9.00000000e-01  1.61178554e-04 -2.92696338e-08 
 9.20000000e-01  9.08426026e-05 -1.70904652e-08 
 9.40000000e-01  5.05801305e-05 -9.83923056e-09 
 9.60000000e-01  2.79858554e-05 -5.61840314e-09 
 9.80000000e-01  1.54492123e-05 -3.19456985e-09 
 1.00000000e+00  8.53224937e-06 -1.81305694e-09 
 1.02000000e+00  4.72446736e-06 -1.02862092e-09 
 1.04000000e+00  2.62914058e-06 -5.83940922e-10 
 1.06000000e+00  1.47565705e-06 -3.31961568e-10 
 1.08000000e+00  8.40375913e-07 -1.89130973e-10 
 1.10000000e+00  4.90620957e-07 -1.08109778e-10 
 1.12000000e+00  2.98532723e-07 -6.21047541e-11 
 1.14000000e+00  1.93758870e-07 -3.59528144e-11 
 1.16000000e+00  1.37524389e-07 -2.10687420e-11 
 1.18000000e+00  1.08420093e-07 -1.25878597e-11 
 1.20000000e+00  9.46054489e-08 -7.75103418e-12 
