 v-sweep         v(out)          i(VDD)         
 0.00000000e+00  1.19999989e+00 -8.34835846e-12 
 2.00000000e-02  1.19999982e+00 -1.23221218e-11 
 4.00000000e-02  1.19999969e+00 -1.99518559e-11 
 6.00000000e-02  1.19999944e+00 -3.44693773e-11 
 8.00000000e-02  1.19999895e+00 -6.19831345e-11 
 1.00000000e-01  1.19999800e+00 -1.14047956e-10 
 1.20000000e-01  1.19999616e+00 -2.12536157e-10 
 1.40000000e-01  1.19999258e+00 -3.98870123e-10 
 1.60000000e-01  1.19998561e+00 -7.51505125e-10 
 1.80000000e-01  1.19997198e+00 -1.41895152e-09 
 2.00000000e-01  1.19994532e+00 -2.68180599e-09 
 2.20000000e-01  1.19989315e+00 -5.06797997e-09 
 2.40000000e-01  1.19979118e+00 -9.56207682e-09 
 2.60000000e-01  1.19959275e+00 -1.79697773e-08 
 2.80000000e-01  1.19921035e+00 -3.35001647e-08 
 3.00000000e-01  1.19848708e+00 -6.15456914e-08 
 3.20000000e-01  1.19716162e+00 -1.10354949e-07 
 3.40000000e-01  1.19484171e+00 -1.90858950e-07 
 3.60000000e-01  1.19100233e+00 -3.15035634e-07 
 3.80000000e-01  1.18498746e+00 -4.93619183e-07 
 4.00000000e-01  1.17594536e+00 -7.34983090e-07 
 4.20000000e-01  1.16261564e+00 -1.04544708e-06 
 4.40000000e-01  1.14278806e+00 -1.42945095e-06 
 4.60000000e-01  1.11137275e+00 -1.88777645e-06 
 4.80000000e-01  1.04936942e+00 -2.40636227e-06 
 5.00000000e-01  6.90721286e-01 -2.69749469e-06 
 5.20000000e-01  1.49047863e-01 -2.43825973e-06 
 5.40000000e-01  6.67247687e-02 -2.09598987e-06 
 5.60000000e-01  4.29055389e-02 -1.77531261e-06 
 5.80000000e-01  2.95897556e-02 -1.48353662e-06 
 6.00000000e-01  2.09143411e-02 -1.22124572e-06 
 6.20000000e-01  1.48877730e-02 -9.88268737e-07 
 6.40000000e-01  1.05652522e-02 -7.84108078e-07 
 6.60000000e-01  7.42206812e-03 -6.08022484e-07 
 6.80000000e-01  5.12676136e-03 -4.59036749e-07 
 7.00000000e-01  3.46030832e-03 -3.35916769e-07 
 7.20000000e-01  2.26806460e-03 -2.37116513e-07 
 7.40000000e-01  1.43546249e-03 -1.60693308e-07 
 7.60000000e-01  8.73634791e-04 -1.04203641e-07 
 7.80000000e-01  5.10822289e-04 -6.46378232e-08 
 8.00000000e-01  2.88004785e-04 -3.85137643e-08 
 8.20000000e-01  1.57809014e-04 -2.22259880e-08 
 8.40000000e-01  8.48418709e-05 -1.25461328e-08 
 8.60000000e-01  4.51305282e-05 -6.98731507e-09 
 8.80000000e-01  2.38934022e-05 -3.86286318e-09 
 9.00000000e-01  1.26367844e-05 -2.12791368e-09 
 9.20000000e-01  6.69170824e-06 -1.17063472e-09 
 9.40000000e-01  3.55381418e-06 -6.44037860e-10 
 9.60000000e-01  1.89604028e-06 -3.54693424e-10 
 9.80000000e-01  1.01879324e-06 -1.95729660e-10 
 1.00000000e+00  5.53765682e-07 -1.08356388e-10 
 1.02000000e+00  3.06931348e-07 -6.02945812e-11 
 1.04000000e+00  1.75902450e-07 -3.38310881e-11 
 1.06000000e+00  1.06529435e-07 -1.92439288e-11 
 1.08000000e+00  7.01050275e-08 -1.11938639e-11 
 1.10000000e+00  5.13729496e-08 -6.74612569e-12 
 1.12000000e+00  4.22066909e-08 -4.28598961e-12 
 1.14000000e+00  3.82690542e-08 -2.92408043e-12 
 1.16000000e+00  3.72423111e-08 -2.17001212e-12 
 1.18000000e+00  3.78880263e-08 -1.75312077e-12 
 1.20000000e+00  3.95463039e-08 -1.52389522e-12 
