 v-sweep         v(out)          i(VDD)         
 0.00000000e+00  1.19999435e+00 -4.36366211e-10 
 2.00000000e-02  1.19998954e+00 -7.85138034e-10 
 4.00000000e-02  1.19998048e+00 -1.43160424e-09 
 6.00000000e-02  1.19996341e+00 -2.62883529e-09 
 8.00000000e-02  1.19993121e+00 -4.84331563e-09 
 1.00000000e-01  1.19987061e+00 -8.92914217e-09 
 1.20000000e-01  1.19975698e+00 -1.64298420e-08 
 1.40000000e-01  1.19954570e+00 -3.00683871e-08 
 1.60000000e-01  1.19915889e+00 -5.44472018e-08 
 1.80000000e-01  1.19846915e+00 -9.68060765e-08 
 2.00000000e-01  1.19728734e+00 -1.67334482e-07 
 2.20000000e-01  1.19536604e+00 -2.78343951e-07 
 2.40000000e-01  1.19242028e+00 -4.42333376e-07 
 2.60000000e-01  1.18814534e+00 -6.70274714e-07 
 2.80000000e-01  1.18220981e+00 -9.71247784e-07 
 3.00000000e-01  1.17422548e+00 -1.35293802e-06 
 3.20000000e-01  1.16370297e+00 -1.82199437e-06 
 3.40000000e-01  1.14998443e+00 -2.38393560e-06 
 3.60000000e-01  1.13211712e+00 -3.04272169e-06 
 3.80000000e-01  1.10857102e+00 -3.79996734e-06 
 4.00000000e-01  1.07648517e+00 -4.65319234e-06 
 4.20000000e-01  1.02881229e+00 -5.58979532e-06 
 4.40000000e-01  9.38522700e-01 -6.55325865e-06 
 4.60000000e-01  5.91906970e-01 -7.00753510e-06 
 4.80000000e-01  1.86036050e-01 -6.55891746e-06 
 5.00000000e-01  1.08536837e-01 -5.95885281e-06 
 5.20000000e-01  7.87045581e-02 -5.37340915e-06 
 5.40000000e-01  6.05320246e-02 -4.81579151e-06 
 5.60000000e-01  4.77629346e-02 -4.28856778e-06 
 5.80000000e-01  3.81673597e-02 -3.79283496e-06 
 6.00000000e-01  3.06911775e-02 -3.32920172e-06 
 6.20000000e-01  2.47245830e-02 -2.89802943e-06 
 6.40000000e-01  1.98929262e-02 -2.49949985e-06 
 6.60000000e-01  1.59444140e-02 -2.13364278e-06 
 6.80000000e-01  1.27010542e-02 -1.80034178e-06 
 7.00000000e-01  1.00319929e-02 -1.49933080e-06 
 7.20000000e-01  7.83792180e-03 -1.23018558e-06 
 7.40000000e-01  6.04140836e-03 -9.92311157e-07 
 7.60000000e-01  4.58060106e-03 -7.84925404e-07 
 7.80000000e-01  3.40495596e-03 -6.07037140e-07 
 8.00000000e-01  2.47221342e-03 -4.57415692e-07 
 8.20000000e-01  1.74616039e-03 -3.34547090e-07 
 8.40000000e-01  1.19488967e-03 -2.36572039e-07 
 8.60000000e-01  7.89403574e-04 -1.61207707e-07 
 8.80000000e-01  5.02571893e-04 -1.05678167e-07 
 9.00000000e-01  3.08656896e-04 -6.67201903e-08 
 9.20000000e-01  1.83701576e-04 -4.07571546e-08 
 9.40000000e-01  1.06730602e-04 -2.42654875e-08 
 9.60000000e-01  6.10298856e-05 -1.41928132e-08 
 9.80000000e-01  3.45952387e-05 -8.21069838e-09 
 1.00000000e+00  1.95543570e-05 -4.72089329e-09 
 1.02000000e+00  1.10773405e-05 -2.70616121e-09 
 1.04000000e+00  6.32504146e-06 -1.54954094e-09 
 1.06000000e+00  3.66984252e-06 -8.87352519e-10 
 1.08000000e+00  2.19136399e-06 -5.08623954e-10 
 1.10000000e+00  1.37276221e-06 -2.92023147e-10 
 1.12000000e+00  9.24704615e-07 -1.68078001e-10 
 1.14000000e+00  6.85382215e-07 -9.70898251e-11 
 1.16000000e+00  5.64294970e-07 -5.63876539e-11 
 1.18000000e+00  5.10800144e-07 -3.30225634e-11 
 1.20000000e+00  4.96547822e-07 -1.95940012e-11 
