 v-sweep         v(1)            i(vd)          
 0.00000000e+00  2.00000000e-01  3.73283236e-15 
 2.00000000e-02  2.00000000e-01 -8.66709444e-09 
 4.00000000e-02  2.00000000e-01 -1.29981758e-08 
 6.00000000e-02  2.00000000e-01 -1.52098994e-08 
 8.00000000e-02  2.00000000e-01 -1.64518043e-08 
 1.00000000e-01  2.00000000e-01 -1.72791435e-08 
 1.20000000e-01  2.00000000e-01 -1.79372849e-08 
 1.40000000e-01  2.00000000e-01 -1.85281232e-08 
 1.60000000e-01  2.00000000e-01 -1.90927790e-08 
 1.80000000e-01  2.00000000e-01 -1.96476033e-08 
 2.00000000e-01  2.00000000e-01 -2.02000675e-08 
 2.20000000e-01  2.00000000e-01 -2.07492786e-08 
 2.40000000e-01  2.00000000e-01 -2.12981244e-08 
 2.60000000e-01  2.00000000e-01 -2.18459967e-08 
 2.80000000e-01  2.00000000e-01 -2.23922614e-08 
 3.00000000e-01  2.00000000e-01 -2.29363281e-08 
 3.20000000e-01  2.00000000e-01 -2.34776787e-08 
 3.40000000e-01  2.00000000e-01 -2.40158741e-08 
 3.60000000e-01  2.00000000e-01 -2.45505511e-08 
 3.80000000e-01  2.00000000e-01 -2.50814151e-08 
 4.00000000e-01  2.00000000e-01 -2.56082313e-08 
 4.20000000e-01  2.00000000e-01 -2.61308162e-08 
 4.40000000e-01  2.00000000e-01 -2.66490296e-08 
 4.60000000e-01  2.00000000e-01 -2.71627683e-08 
 4.80000000e-01  2.00000000e-01 -2.76719591e-08 
 5.00000000e-01  2.00000000e-01 -2.81765549e-08 
 5.20000000e-01  2.00000000e-01 -2.86765292e-08 
 5.40000000e-01  2.00000000e-01 -2.91718736e-08 
 5.60000000e-01  2.00000000e-01 -2.96625941e-08 
 5.80000000e-01  2.00000000e-01 -3.01487085e-08 
 6.00000000e-01  2.00000000e-01 -3.06302448e-08 
 6.20000000e-01  2.00000000e-01 -3.11072389e-08 
 6.40000000e-01  2.00000000e-01 -3.15797333e-08 
 6.60000000e-01  2.00000000e-01 -3.20477758e-08 
 6.80000000e-01  2.00000000e-01 -3.25114186e-08 
 7.00000000e-01  2.00000000e-01 -3.29707171e-08 
 7.20000000e-01  2.00000000e-01 -3.34257293e-08 
 7.40000000e-01  2.00000000e-01 -3.38765153e-08 
 7.60000000e-01  2.00000000e-01 -3.43231367e-08 
 7.80000000e-01  2.00000000e-01 -3.47656559e-08 
 8.00000000e-01  2.00000000e-01 -3.52041361e-08 
 8.20000000e-01  2.00000000e-01 -3.56386408e-08 
 8.40000000e-01  2.00000000e-01 -3.60692334e-08 
 8.60000000e-01  2.00000000e-01 -3.64959774e-08 
 8.80000000e-01  2.00000000e-01 -3.69189358e-08 
 9.00000000e-01  2.00000000e-01 -3.73381711e-08 
 9.20000000e-01  2.00000000e-01 -3.77537453e-08 
 9.40000000e-01  2.00000000e-01 -3.81657196e-08 
 9.60000000e-01  2.00000000e-01 -3.85741544e-08 
 9.80000000e-01  2.00000000e-01 -3.89791093e-08 
 1.00000000e+00  2.00000000e-01 -3.93806429e-08 
 1.02000000e+00  2.00000000e-01 -3.97788131e-08 
 1.04000000e+00  2.00000000e-01 -4.01736766e-08 
 1.06000000e+00  2.00000000e-01 -4.05652893e-08 
 1.08000000e+00  2.00000000e-01 -4.09537061e-08 
 1.10000000e+00  2.00000000e-01 -4.13389809e-08 
 1.12000000e+00  2.00000000e-01 -4.17211666e-08 
 1.14000000e+00  2.00000000e-01 -4.21003155e-08 
 1.16000000e+00  2.00000000e-01 -4.24764786e-08 
 1.18000000e+00  2.00000000e-01 -4.28497063e-08 
 1.20000000e+00  2.00000000e-01 -4.32200480e-08 
 0.00000000e+00  4.00000000e-01  2.07951896e-13 
 2.00000000e-02  4.00000000e-01 -7.14142816e-07 
 4.00000000e-02  4.00000000e-01 -1.24607106e-06 
 6.00000000e-02  4.00000000e-01 -1.61862099e-06 
 8.00000000e-02  4.00000000e-01 -1.86509498e-06 
 1.00000000e-01  4.00000000e-01 -2.02399019e-06 
 1.20000000e-01  4.00000000e-01 -2.12906488e-06 
 1.40000000e-01  4.00000000e-01 -2.20386320e-06 
 1.60000000e-01  4.00000000e-01 -2.26236678e-06 
 1.80000000e-01  4.00000000e-01 -2.31212891e-06 
 2.00000000e-01  4.00000000e-01 -2.35705745e-06 
 2.20000000e-01  4.00000000e-01 -2.39915578e-06 
 2.40000000e-01  4.00000000e-01 -2.43946246e-06 
 2.60000000e-01  4.00000000e-01 -2.47852852e-06 
 2.80000000e-01  4.00000000e-01 -2.51665539e-06 
 3.00000000e-01  4.00000000e-01 -2.55401421e-06 
 3.20000000e-01  4.00000000e-01 -2.59070646e-06 
 3.40000000e-01  4.00000000e-01 -2.62679557e-06 
 3.60000000e-01  4.00000000e-01 -2.66232365e-06 
 3.80000000e-01  4.00000000e-01 -2.69758190e-06 
 4.00000000e-01  4.00000000e-01 -2.73206000e-06 
 4.20000000e-01  4.00000000e-01 -2.76604995e-06 
 4.40000000e-01  4.00000000e-01 -2.79956687e-06 
 4.60000000e-01  4.00000000e-01 -2.83262444e-06 
 4.80000000e-01  4.00000000e-01 -2.86523538e-06 
 5.00000000e-01  4.00000000e-01 -2.89741166e-06 
 5.20000000e-01  4.00000000e-01 -2.92916472e-06 
 5.40000000e-01  4.00000000e-01 -2.96050556e-06 
 5.60000000e-01  4.00000000e-01 -2.99144476e-06 
 5.80000000e-01  4.00000000e-01 -3.02199257e-06 
 6.00000000e-01  4.00000000e-01 -3.05215889e-06 
 6.20000000e-01  4.00000000e-01 -3.08195332e-06 
 6.40000000e-01  4.00000000e-01 -3.11138517e-06 
 6.60000000e-01  4.00000000e-01 -3.14046344e-06 
 6.80000000e-01  4.00000000e-01 -3.16919686e-06 
 7.00000000e-01  4.00000000e-01 -3.19759388e-06 
 7.20000000e-01  4.00000000e-01 -3.22566268e-06 
 7.40000000e-01  4.00000000e-01 -3.25341119e-06 
 7.60000000e-01  4.00000000e-01 -3.28084707e-06 
 7.80000000e-01  4.00000000e-01 -3.30797775e-06 
 8.00000000e-01  4.00000000e-01 -3.33481041e-06 
 8.20000000e-01  4.00000000e-01 -3.36135201e-06 
 8.40000000e-01  4.00000000e-01 -3.38760926e-06 
 8.60000000e-01  4.00000000e-01 -3.41358870e-06 
 8.80000000e-01  4.00000000e-01 -3.43929661e-06 
 9.00000000e-01  4.00000000e-01 -3.46473910e-06 
 9.20000000e-01  4.00000000e-01 -3.48992209e-06 
 9.40000000e-01  4.00000000e-01 -3.51485128e-06 
 9.60000000e-01  4.00000000e-01 -3.53953223e-06 
 9.80000000e-01  4.00000000e-01 -3.56397029e-06 
 1.00000000e+00  4.00000000e-01 -3.58817068e-06 
 1.02000000e+00  4.00000000e-01 -3.61213844e-06 
 1.04000000e+00  4.00000000e-01 -3.63587845e-06 
 1.06000000e+00  4.00000000e-01 -3.65939546e-06 
 1.08000000e+00  4.00000000e-01 -3.68269408e-06 
 1.10000000e+00  4.00000000e-01 -3.70577877e-06 
 1.12000000e+00  4.00000000e-01 -3.72865389e-06 
 1.14000000e+00  4.00000000e-01 -3.75132366e-06 
 1.16000000e+00  4.00000000e-01 -3.77379218e-06 
 1.18000000e+00  4.00000000e-01 -3.79606348e-06 
 1.20000000e+00  4.00000000e-01 -3.81814144e-06 
 0.00000000e+00  6.00000000e-01  1.53012718e-12 
 2.00000000e-02  6.00000000e-01 -2.90962031e-06 
 4.00000000e-02  6.00000000e-01 -5.52225161e-06 
 6.00000000e-02  6.00000000e-01 -7.83158059e-06 
 8.00000000e-02  6.00000000e-01 -9.83422230e-06 
 1.00000000e-01  6.00000000e-01 -1.15346703e-05 
 1.20000000e-01  6.00000000e-01 -1.29481418e-05 
 1.40000000e-01  6.00000000e-01 -1.41006914e-05 
 1.60000000e-01  6.00000000e-01 -1.50267044e-05 
 1.80000000e-01  6.00000000e-01 -1.57647389e-05 
 2.00000000e-01  6.00000000e-01 -1.63531211e-05 
 2.20000000e-01  6.00000000e-01 -1.68264924e-05 
 2.40000000e-01  6.00000000e-01 -1.72138727e-05 
 2.60000000e-01  6.00000000e-01 -1.75381571e-05 
 2.80000000e-01  6.00000000e-01 -1.78165978e-05 
 3.00000000e-01  6.00000000e-01 -1.80617676e-05 
 3.20000000e-01  6.00000000e-01 -1.82826243e-05 
 3.40000000e-01  6.00000000e-01 -1.84854650e-05 
 3.60000000e-01  6.00000000e-01 -1.86746917e-05 
 3.80000000e-01  6.00000000e-01 -1.88533833e-05 
 4.00000000e-01  6.00000000e-01 -1.90237066e-05 
 4.20000000e-01  6.00000000e-01 -1.91872015e-05 
 4.40000000e-01  6.00000000e-01 -1.93449781e-05 
 4.60000000e-01  6.00000000e-01 -1.94978497e-05 
 4.80000000e-01  6.00000000e-01 -1.96464238e-05 
 5.00000000e-01  6.00000000e-01 -1.97930131e-05 
 5.20000000e-01  6.00000000e-01 -1.99341131e-05 
 5.40000000e-01  6.00000000e-01 -2.00720598e-05 
 5.60000000e-01  6.00000000e-01 -2.02070783e-05 
 5.80000000e-01  6.00000000e-01 -2.03393570e-05 
 6.00000000e-01  6.00000000e-01 -2.04690562e-05 
 6.20000000e-01  6.00000000e-01 -2.05963149e-05 
 6.40000000e-01  6.00000000e-01 -2.07212552e-05 
 6.60000000e-01  6.00000000e-01 -2.08439858e-05 
 6.80000000e-01  6.00000000e-01 -2.09646047e-05 
 7.00000000e-01  6.00000000e-01 -2.10832007e-05 
 7.20000000e-01  6.00000000e-01 -2.11998555e-05 
 7.40000000e-01  6.00000000e-01 -2.13146441e-05 
 7.60000000e-01  6.00000000e-01 -2.14276363e-05 
 7.80000000e-01  6.00000000e-01 -2.15388971e-05 
 8.00000000e-01  6.00000000e-01 -2.16484872e-05 
 8.20000000e-01  6.00000000e-01 -2.17564638e-05 
 8.40000000e-01  6.00000000e-01 -2.18628805e-05 
 8.60000000e-01  6.00000000e-01 -2.19677880e-05 
 8.80000000e-01  6.00000000e-01 -2.20712343e-05 
 9.00000000e-01  6.00000000e-01 -2.21732650e-05 
 9.20000000e-01  6.00000000e-01 -2.22739232e-05 
 9.40000000e-01  6.00000000e-01 -2.23732499e-05 
 9.60000000e-01  6.00000000e-01 -2.24712842e-05 
 9.80000000e-01  6.00000000e-01 -2.25680634e-05 
 1.00000000e+00  6.00000000e-01 -2.26636231e-05 
 1.02000000e+00  6.00000000e-01 -2.27579973e-05 
 1.04000000e+00  6.00000000e-01 -2.28512184e-05 
 1.06000000e+00  6.00000000e-01 -2.29433176e-05 
 1.08000000e+00  6.00000000e-01 -2.30343248e-05 
 1.10000000e+00  6.00000000e-01 -2.31242685e-05 
 1.12000000e+00  6.00000000e-01 -2.32131763e-05 
 1.14000000e+00  6.00000000e-01 -2.33010745e-05 
 1.16000000e+00  6.00000000e-01 -2.33879886e-05 
 1.18000000e+00  6.00000000e-01 -2.34739430e-05 
 1.20000000e+00  6.00000000e-01 -2.35589614e-05 
 0.00000000e+00  8.00000000e-01  6.39680603e-12 
 2.00000000e-02  8.00000000e-01 -5.40888349e-06 
 4.00000000e-02  8.00000000e-01 -1.05184935e-05 
 6.00000000e-02  8.00000000e-01 -1.53131018e-05 
 8.00000000e-02  8.00000000e-01 -1.97766238e-05 
 1.00000000e-01  8.00000000e-01 -2.38950510e-05 
 1.20000000e-01  8.00000000e-01 -2.76586337e-05 
 1.40000000e-01  8.00000000e-01 -3.10636323e-05 
 1.60000000e-01  8.00000000e-01 -3.41134399e-05 
 1.80000000e-01  8.00000000e-01 -3.68189385e-05 
 2.00000000e-01  8.00000000e-01 -3.91980596e-05 
 2.20000000e-01  8.00000000e-01 -4.12746465e-05 
 2.40000000e-01  8.00000000e-01 -4.30768278e-05 
 2.60000000e-01  8.00000000e-01 -4.46351676e-05 
 2.80000000e-01  8.00000000e-01 -4.59808613e-05 
 3.00000000e-01  8.00000000e-01 -4.71441871e-05 
 3.20000000e-01  8.00000000e-01 -4.81533386e-05 
 3.40000000e-01  8.00000000e-01 -4.90336763e-05 
 3.60000000e-01  8.00000000e-01 -4.98073638e-05 
 3.80000000e-01  8.00000000e-01 -5.04933148e-05 
 4.00000000e-01  8.00000000e-01 -5.11073585e-05 
 4.20000000e-01  8.00000000e-01 -5.16625382e-05 
 4.40000000e-01  8.00000000e-01 -5.21694727e-05 
 4.60000000e-01  8.00000000e-01 -5.26367302e-05 
 4.80000000e-01  8.00000000e-01 -5.30711816e-05 
 5.00000000e-01  8.00000000e-01 -5.34783163e-05 
 5.20000000e-01  8.00000000e-01 -5.38625134e-05 
 5.40000000e-01  8.00000000e-01 -5.42272676e-05 
 5.60000000e-01  8.00000000e-01 -5.45753741e-05 
 5.80000000e-01  8.00000000e-01 -5.49090764e-05 
 6.00000000e-01  8.00000000e-01 -5.52301844e-05 
 6.20000000e-01  8.00000000e-01 -5.55455094e-05 
 6.40000000e-01  8.00000000e-01 -5.58450064e-05 
 6.60000000e-01  8.00000000e-01 -5.61356652e-05 
 6.80000000e-01  8.00000000e-01 -5.64182870e-05 
 7.00000000e-01  8.00000000e-01 -5.66935450e-05 
 7.20000000e-01  8.00000000e-01 -5.69620092e-05 
 7.40000000e-01  8.00000000e-01 -5.72241673e-05 
 7.60000000e-01  8.00000000e-01 -5.74804403e-05 
 7.80000000e-01  8.00000000e-01 -5.77311948e-05 
 8.00000000e-01  8.00000000e-01 -5.79767525e-05 
 8.20000000e-01  8.00000000e-01 -5.82173987e-05 
 8.40000000e-01  8.00000000e-01 -5.84533877e-05 
 8.60000000e-01  8.00000000e-01 -5.86849481e-05 
 8.80000000e-01  8.00000000e-01 -5.89122867e-05 
 9.00000000e-01  8.00000000e-01 -5.91355917e-05 
 9.20000000e-01  8.00000000e-01 -5.93550356e-05 
 9.40000000e-01  8.00000000e-01 -5.95707767e-05 
 9.60000000e-01  8.00000000e-01 -5.97829614e-05 
 9.80000000e-01  8.00000000e-01 -5.99917257e-05 
 1.00000000e+00  8.00000000e-01 -6.01971961e-05 
 1.02000000e+00  8.00000000e-01 -6.03994907e-05 
 1.04000000e+00  8.00000000e-01 -6.05987205e-05 
 1.06000000e+00  8.00000000e-01 -6.07949895e-05 
 1.08000000e+00  8.00000000e-01 -6.09883958e-05 
 1.10000000e+00  8.00000000e-01 -6.11790322e-05 
 1.12000000e+00  8.00000000e-01 -6.13669861e-05 
 1.14000000e+00  8.00000000e-01 -6.15523409e-05 
 1.16000000e+00  8.00000000e-01 -6.17351753e-05 
 1.18000000e+00  8.00000000e-01 -6.19155645e-05 
 1.20000000e+00  8.00000000e-01 -6.20935801e-05 
 0.00000000e+00  1.00000000e+00  2.13178063e-11 
 2.00000000e-02  1.00000000e+00 -7.63407526e-06 
 4.00000000e-02  1.00000000e+00 -1.50049217e-05 
 6.00000000e-02  1.00000000e+00 -2.20927201e-05 
 8.00000000e-02  1.00000000e+00 -2.88769153e-05 
 1.00000000e-01  1.00000000e+00 -3.53374663e-05 
 1.20000000e-01  1.00000000e+00 -4.14560560e-05 
 1.40000000e-01  1.00000000e+00 -4.72172231e-05 
 1.60000000e-01  1.00000000e+00 -5.26093546e-05 
 1.80000000e-01  1.00000000e+00 -5.76254676e-05 
 2.00000000e-01  1.00000000e+00 -6.22637185e-05 
 2.20000000e-01  1.00000000e+00 -6.65275997e-05 
 2.40000000e-01  1.00000000e+00 -7.04258159e-05 
 2.60000000e-01  1.00000000e+00 -7.39718602e-05 
 2.80000000e-01  1.00000000e+00 -7.71833428e-05 
 3.00000000e-01  1.00000000e+00 -8.00811438e-05 
 3.20000000e-01  1.00000000e+00 -8.26884731e-05 
 3.40000000e-01  1.00000000e+00 -8.50299192e-05 
 3.60000000e-01  1.00000000e+00 -8.71305572e-05 
 3.80000000e-01  1.00000000e+00 -8.90151701e-05 
 4.00000000e-01  1.00000000e+00 -9.07076161e-05 
 4.20000000e-01  1.00000000e+00 -9.22303542e-05 
 4.40000000e-01  1.00000000e+00 -9.36041246e-05 
 4.60000000e-01  1.00000000e+00 -9.48477684e-05 
 4.80000000e-01  1.00000000e+00 -9.59781634e-05 
 5.00000000e-01  1.00000000e+00 -9.70102501e-05 
 5.20000000e-01  1.00000000e+00 -9.79571225e-05 
 5.40000000e-01  1.00000000e+00 -9.88301627e-05 
 5.60000000e-01  1.00000000e+00 -9.96391982e-05 
 5.80000000e-01  1.00000000e+00 -1.00392670e-04 
 6.00000000e-01  1.00000000e+00 -1.01097798e-04 
 6.20000000e-01  1.00000000e+00 -1.01760743e-04 
 6.40000000e-01  1.00000000e+00 -1.02386749e-04 
 6.60000000e-01  1.00000000e+00 -1.02980278e-04 
 6.80000000e-01  1.00000000e+00 -1.03545127e-04 
 7.00000000e-01  1.00000000e+00 -1.04084526e-04 
 7.20000000e-01  1.00000000e+00 -1.04601233e-04 
 7.40000000e-01  1.00000000e+00 -1.05107408e-04 
 7.60000000e-01  1.00000000e+00 -1.05584496e-04 
 7.80000000e-01  1.00000000e+00 -1.06045128e-04 
 8.00000000e-01  1.00000000e+00 -1.06490775e-04 
 8.20000000e-01  1.00000000e+00 -1.06922712e-04 
 8.40000000e-01  1.00000000e+00 -1.07342047e-04 
 8.60000000e-01  1.00000000e+00 -1.07749747e-04 
 8.80000000e-01  1.00000000e+00 -1.08146659e-04 
 9.00000000e-01  1.00000000e+00 -1.08533530e-04 
 9.20000000e-01  1.00000000e+00 -1.08911022e-04 
 9.40000000e-01  1.00000000e+00 -1.09279721e-04 
 9.60000000e-01  1.00000000e+00 -1.09640153e-04 
 9.80000000e-01  1.00000000e+00 -1.09992787e-04 
 1.00000000e+00  1.00000000e+00 -1.10338047e-04 
 1.02000000e+00  1.00000000e+00 -1.10676318e-04 
 1.04000000e+00  1.00000000e+00 -1.11007946e-04 
 1.06000000e+00  1.00000000e+00 -1.11333250e-04 
 1.08000000e+00  1.00000000e+00 -1.11652521e-04 
 1.10000000e+00  1.00000000e+00 -1.11966026e-04 
 1.12000000e+00  1.00000000e+00 -1.12274011e-04 
 1.14000000e+00  1.00000000e+00 -1.12576704e-04 
 1.16000000e+00  1.00000000e+00 -1.12874316e-04 
 1.18000000e+00  1.00000000e+00 -1.13167045e-04 
 1.20000000e+00  1.00000000e+00 -1.13455073e-04 
 0.00000000e+00  1.20000000e+00  6.10797615e-11 
 2.00000000e-02  1.20000000e+00 -9.43472213e-06 
 4.00000000e-02  1.20000000e+00 -1.86508130e-05 
 6.00000000e-02  1.20000000e+00 -2.76271607e-05 
 8.00000000e-02  1.20000000e+00 -3.63420284e-05 
 1.00000000e-01  1.20000000e+00 -4.47737346e-05 
 1.20000000e-01  1.20000000e+00 -5.29013510e-05 
 1.40000000e-01  1.20000000e+00 -6.07053928e-05 
 1.60000000e-01  1.20000000e+00 -6.81684852e-05 
 1.80000000e-01  1.20000000e+00 -7.52759742e-05 
 2.00000000e-01  1.20000000e+00 -8.20164438e-05 
 2.20000000e-01  1.20000000e+00 -8.83821095e-05 
 2.40000000e-01  1.20000000e+00 -9.43690669e-05 
 2.60000000e-01  1.20000000e+00 -9.99773813e-05 
 2.80000000e-01  1.20000000e+00 -1.05211021e-04 
 3.00000000e-01  1.20000000e+00 -1.10077640e-04 
 3.20000000e-01  1.20000000e+00 -1.14588237e-04 
 3.40000000e-01  1.20000000e+00 -1.18756710e-04 
 3.60000000e-01  1.20000000e+00 -1.22599342e-04 
 3.80000000e-01  1.20000000e+00 -1.26134251e-04 
 4.00000000e-01  1.20000000e+00 -1.29380838e-04 
 4.20000000e-01  1.20000000e+00 -1.32359249e-04 
 4.40000000e-01  1.20000000e+00 -1.35089894e-04 
 4.60000000e-01  1.20000000e+00 -1.37593018e-04 
 4.80000000e-01  1.20000000e+00 -1.39888347e-04 
 5.00000000e-01  1.20000000e+00 -1.41994801e-04 
 5.20000000e-01  1.20000000e+00 -1.43930288e-04 
 5.40000000e-01  1.20000000e+00 -1.45711560e-04 
 5.60000000e-01  1.20000000e+00 -1.47354122e-04 
 5.80000000e-01  1.20000000e+00 -1.48872206e-04 
 6.00000000e-01  1.20000000e+00 -1.50278765e-04 
 6.20000000e-01  1.20000000e+00 -1.51585519e-04 
 6.40000000e-01  1.20000000e+00 -1.52803004e-04 
 6.60000000e-01  1.20000000e+00 -1.53940654e-04 
 6.80000000e-01  1.20000000e+00 -1.55006875e-04 
 7.00000000e-01  1.20000000e+00 -1.56009140e-04 
 7.20000000e-01  1.20000000e+00 -1.56954069e-04 
 7.40000000e-01  1.20000000e+00 -1.57847520e-04 
 7.60000000e-01  1.20000000e+00 -1.58694667e-04 
 7.80000000e-01  1.20000000e+00 -1.59500075e-04 
 8.00000000e-01  1.20000000e+00 -1.60267775e-04 
 8.20000000e-01  1.20000000e+00 -1.61001318e-04 
 8.40000000e-01  1.20000000e+00 -1.61718861e-04 
 8.60000000e-01  1.20000000e+00 -1.62391809e-04 
 8.80000000e-01  1.20000000e+00 -1.63039110e-04 
 9.00000000e-01  1.20000000e+00 -1.63662915e-04 
 9.20000000e-01  1.20000000e+00 -1.64265129e-04 
 9.40000000e-01  1.20000000e+00 -1.64847446e-04 
 9.60000000e-01  1.20000000e+00 -1.65411373e-04 
 9.80000000e-01  1.20000000e+00 -1.65958256e-04 
 1.00000000e+00  1.20000000e+00 -1.66489297e-04 
 1.02000000e+00  1.20000000e+00 -1.67005574e-04 
 1.04000000e+00  1.20000000e+00 -1.67508055e-04 
 1.06000000e+00  1.20000000e+00 -1.67997614e-04 
 1.08000000e+00  1.20000000e+00 -1.68475039e-04 
 1.10000000e+00  1.20000000e+00 -1.68941043e-04 
 1.12000000e+00  1.20000000e+00 -1.69396274e-04 
 1.14000000e+00  1.20000000e+00 -1.69841323e-04 
 1.16000000e+00  1.20000000e+00 -1.70276727e-04 
 1.18000000e+00  1.20000000e+00 -1.70702980e-04 
 1.20000000e+00  1.20000000e+00 -1.71120534e-04 
