 v-sweep         v(out)          i(VDD)         
 0.00000000e+00  1.19999968e+00 -2.92906118e-11 
 2.00000000e-02  1.19999948e+00 -4.22316476e-11 
 4.00000000e-02  1.19999911e+00 -6.71394265e-11 
 6.00000000e-02  1.19999839e+00 -1.14425786e-10 
 8.00000000e-02  1.19999702e+00 -2.03629978e-10 
 1.00000000e-01  1.19999439e+00 -3.71440193e-10 
 1.20000000e-01  1.19998935e+00 -6.86760680e-10 
 1.40000000e-01  1.19997966e+00 -1.27895551e-09 
 1.60000000e-01  1.19996101e+00 -2.39055200e-09 
 1.80000000e-01  1.19992516e+00 -4.47467586e-09 
 2.00000000e-01  1.19985628e+00 -8.37191747e-09 
 2.20000000e-01  1.19972448e+00 -1.56201785e-08 
 2.40000000e-01  1.19947444e+00 -2.89611784e-08 
 2.60000000e-01  1.19900779e+00 -5.30608872e-08 
 2.80000000e-01  1.19816104e+00 -9.52579604e-08 
 3.00000000e-01  1.19668865e+00 -1.65756893e-07 
 3.20000000e-01  1.19426638e+00 -2.76532461e-07 
 3.40000000e-01  1.19051324e+00 -4.39182434e-07 
 3.60000000e-01  1.18499952e+00 -6.63364011e-07 
 3.80000000e-01  1.17720965e+00 -9.56801639e-07 
 4.00000000e-01  1.16645687e+00 -1.32593283e-06 
 4.20000000e-01  1.15173203e+00 -1.77605757e-06 
 4.40000000e-01  1.13137559e+00 -2.31073305e-06 
 4.60000000e-01  1.10215017e+00 -2.93011961e-06 
 4.80000000e-01  1.05514446e+00 -3.62489292e-06 
 5.00000000e-01  9.41235381e-01 -4.32582773e-06 
 5.20000000e-01  4.26717266e-01 -4.36122200e-06 
 5.40000000e-01  1.22120083e-01 -3.93894760e-06 
 5.60000000e-01  7.47810728e-02 -3.47664728e-06 
 5.80000000e-01  5.30081020e-02 -3.04058293e-06 
 6.00000000e-01  3.93142759e-02 -2.63497959e-06 
 6.20000000e-01  2.97216551e-02 -2.26079554e-06 
 6.40000000e-01  2.26394245e-02 -1.91831025e-06 
 6.60000000e-01  1.72641812e-02 -1.60749037e-06 
 6.80000000e-01  1.31132206e-02 -1.32808581e-06 
 7.00000000e-01  9.88080800e-03 -1.07965246e-06 
 7.20000000e-01  7.35748330e-03 -8.61554717e-07 
 7.40000000e-01  5.39289987e-03 -6.72954289e-07 
 7.60000000e-01  3.87496122e-03 -5.12788582e-07 
 7.80000000e-01  2.71725118e-03 -3.79735944e-07 
 8.00000000e-01  1.85098014e-03 -2.72162794e-07 
 8.20000000e-01  1.21953593e-03 -1.88049396e-07 
 8.40000000e-01  7.74686536e-04 -1.24904999e-07 
 8.60000000e-01  4.74109373e-04 -7.97190013e-08 
 8.80000000e-01  2.80340639e-04 -4.90409307e-08 
 9.00000000e-01  1.61178543e-04 -2.92696319e-08 
 9.20000000e-01  9.08425965e-05 -1.70904641e-08 
 9.40000000e-01  5.05801270e-05 -9.83922988e-09 
 9.60000000e-01  2.79858534e-05 -5.61840275e-09 
 9.80000000e-01  1.54492112e-05 -3.19456962e-09 
 1.00000000e+00  8.53224875e-06 -1.81305681e-09 
 1.02000000e+00  4.72446702e-06 -1.02862084e-09 
 1.04000000e+00  2.62914039e-06 -5.83940879e-10 
 1.06000000e+00  1.47565694e-06 -3.31961543e-10 
 1.08000000e+00  8.40375851e-07 -1.89130958e-10 
 1.10000000e+00  4.90620922e-07 -1.08109770e-10 
 1.12000000e+00  2.98532704e-07 -6.21047492e-11 
 1.14000000e+00  1.93758860e-07 -3.59528116e-11 
 1.16000000e+00  1.37524383e-07 -2.10687402e-11 
 1.18000000e+00  1.08420090e-07 -1.25878589e-11 
 1.20000000e+00  9.46054473e-08 -7.75103360e-12 
