 v-sweep         v(out)          i(VDD)         
 0.00000000e+00  1.19999917e+00 -6.06690952e-11 
 2.00000000e-02  1.19999850e+00 -1.04463717e-10 
 4.00000000e-02  1.19999723e+00 -1.86203104e-10 
 6.00000000e-02  1.19999482e+00 -3.38497687e-10 
 8.00000000e-02  1.19999023e+00 -6.22083317e-10 
 1.00000000e-01  1.19998150e+00 -1.15006243e-09 
 1.20000000e-01  1.19996485e+00 -2.13283149e-09 
 1.40000000e-01  1.19993310e+00 -3.96070397e-09 
 1.60000000e-01  1.19987259e+00 -7.35355639e-09 
 1.80000000e-01  1.19975759e+00 -1.36240011e-08 
 2.00000000e-01  1.19954053e+00 -2.51146774e-08 
 2.20000000e-01  1.19913627e+00 -4.58481107e-08 
 2.40000000e-01  1.19840086e+00 -8.22885722e-08 
 2.60000000e-01  1.19711144e+00 -1.43782462e-07 
 2.80000000e-01  1.19496135e+00 -2.41948482e-07 
 3.00000000e-01  1.19157707e+00 -3.88818304e-07 
 3.20000000e-01  1.18653396e+00 -5.94939130e-07 
 3.40000000e-01  1.17933494e+00 -8.68840149e-07 
 3.60000000e-01  1.16933990e+00 -1.21754303e-06 
 3.80000000e-01  1.15563674e+00 -1.64690836e-06 
 4.00000000e-01  1.13677971e+00 -2.16127893e-06 
 4.20000000e-01  1.11010347e+00 -2.76221826e-06 
 4.40000000e-01  1.06904806e+00 -3.44438438e-06 
 4.60000000e-01  9.86643061e-01 -4.17112628e-06 
 4.80000000e-01  5.88604415e-01 -4.46800052e-06 
 5.00000000e-01  1.52396556e-01 -4.09751473e-06 
 5.20000000e-01  8.35588895e-02 -3.63312380e-06 
 5.40000000e-01  5.79768773e-02 -3.19008793e-06 
 5.60000000e-01  4.26868861e-02 -2.77636939e-06 
 5.80000000e-01  3.22004084e-02 -2.39333573e-06 
 6.00000000e-01  2.45436240e-02 -2.04141893e-06 
 6.20000000e-01  1.87580260e-02 -1.72069223e-06 
 6.40000000e-01  1.43034962e-02 -1.43100161e-06 
 6.60000000e-01  1.08348008e-02 -1.17200510e-06 
 6.80000000e-01  8.12187357e-03 -9.43178543e-07 
 7.00000000e-01  6.00171562e-03 -7.43809006e-07 
 7.20000000e-01  4.35417681e-03 -5.72977731e-07 
 7.40000000e-01  3.08763587e-03 -4.29531776e-07 
 7.60000000e-01  2.12998132e-03 -3.12039608e-07 
 7.80000000e-01  1.42259129e-03 -2.18724699e-07 
 8.00000000e-01  9.16119964e-04 -1.47377741e-07 
 8.20000000e-01  5.67570607e-04 -9.52736344e-08 
 8.40000000e-01  3.38645296e-04 -5.91690184e-08 
 8.60000000e-01  1.95581721e-04 -3.54886111e-08 
 8.80000000e-01  1.10219666e-04 -2.07260418e-08 
 9.00000000e-01  6.11328612e-05 -1.18893054e-08 
 9.20000000e-01  3.36105378e-05 -6.74702171e-09 
 9.40000000e-01  1.84105396e-05 -3.80647771e-09 
 9.60000000e-01  1.00826109e-05 -2.14154322e-09 
 9.80000000e-01  5.53636694e-06 -1.20373686e-09 
 1.00000000e+00  3.05770225e-06 -6.76779642e-10 
 1.02000000e+00  1.70664152e-06 -3.80931179e-10 
 1.04000000e+00  9.70428593e-07 -2.14825082e-10 
 1.06000000e+00  5.69871661e-07 -1.21510676e-10 
 1.08000000e+00  3.52951012e-07 -6.90431951e-11 
 1.10000000e+00  2.36809765e-07 -3.95115012e-11 
 1.12000000e+00  1.76221783e-07 -2.28701920e-11 
 1.14000000e+00  1.46462249e-07 -1.34815586e-11 
 1.16000000e+00  1.33995585e-07 -8.17876190e-12 
 1.18000000e+00  1.31405799e-07 -5.18111065e-12 
 1.20000000e+00  1.34631439e-07 -3.48627602e-12 
