 v-sweep         v(out)          i(VDD)         
 0.00000000e+00  1.19999772e+00 -1.53094724e-10 
 2.00000000e-02  1.19999575e+00 -2.77694115e-10 
 4.00000000e-02  1.19999202e+00 -5.08935680e-10 
 6.00000000e-02  1.19998495e+00 -9.38123646e-10 
 8.00000000e-02  1.19997150e+00 -1.73473380e-09 
 1.00000000e-01  1.19994592e+00 -3.21272931e-09 
 1.20000000e-01  1.19989729e+00 -5.95119948e-09 
 1.40000000e-01  1.19980500e+00 -1.10088674e-08 
 1.60000000e-01  1.19963071e+00 -2.02891529e-08 
 1.80000000e-01  1.19930496e+00 -3.71108837e-08 
 2.00000000e-01  1.19870753e+00 -6.69594269e-08 
 2.20000000e-01  1.19764518e+00 -1.18139492e-07 
 2.40000000e-01  1.19583860e+00 -2.01680270e-07 
 2.60000000e-01  1.19293068e+00 -3.29940125e-07 
 2.80000000e-01  1.18850675e+00 -5.14524208e-07 
 3.00000000e-01  1.18209157e+00 -7.65081506e-07 
 3.20000000e-01  1.17309925e+00 -1.08945351e-06 
 3.40000000e-01  1.16073038e+00 -1.49415409e-06 
 3.60000000e-01  1.14377649e+00 -1.98431569e-06 
 3.80000000e-01  1.12015687e+00 -2.56285248e-06 
 4.00000000e-01  1.08535604e+00 -3.22790775e-06 
 4.20000000e-01  1.02531061e+00 -3.96196327e-06 
 4.40000000e-01  8.15499095e-01 -4.57461564e-06 
 4.60000000e-01  2.54611220e-01 -4.35257564e-06 
 4.80000000e-01  1.00379326e-01 -3.89538711e-06 
 5.00000000e-01  6.65604856e-02 -3.43908142e-06 
 5.20000000e-01  4.83488753e-02 -3.01032027e-06 
 5.40000000e-01  3.63239095e-02 -2.61147608e-06 
 5.60000000e-01  2.76991505e-02 -2.24324141e-06 
 5.80000000e-01  2.12397042e-02 -1.90582944e-06 
 6.00000000e-01  1.62861780e-02 -1.59919946e-06 
 6.20000000e-01  1.24303889e-02 -1.32312214e-06 
 6.40000000e-01  9.40747035e-03 -1.07719467e-06 
 6.60000000e-01  7.03326186e-03 -8.60840490e-07 
 6.80000000e-01  5.17414120e-03 -6.73298100e-07 
 7.00000000e-01  3.72967338e-03 -5.13600708e-07 
 7.20000000e-01  2.62195251e-03 -3.80543429e-07 
 7.40000000e-01  1.78865332e-03 -2.72631839e-07 
 7.60000000e-01  1.17823439e-03 -1.88005426e-07 
 7.80000000e-01  7.46491553e-04 -1.24340213e-07 
 8.00000000e-01  4.54201520e-04 -7.87702139e-08 
 8.20000000e-01  2.66040033e-04 -4.79251362e-08 
 8.40000000e-01  1.51003386e-04 -2.81939781e-08 
 8.60000000e-01  8.38107887e-05 -1.61851617e-08 
 8.80000000e-01  4.58892414e-05 -9.14674355e-09 
 9.00000000e-01  2.49576835e-05 -5.12277816e-09 
 9.20000000e-01  1.35489978e-05 -2.85579700e-09 
 9.40000000e-01  7.37033812e-06 -1.58883313e-09 
 9.60000000e-01  4.03376358e-06 -8.83589639e-10 
 9.80000000e-01  2.23428930e-06 -4.91700846e-10 
 1.00000000e+00  1.26496462e-06 -2.74033872e-10 
 1.02000000e+00  7.44241582e-07 -1.53101549e-10 
 1.04000000e+00  4.66405150e-07 -8.58670328e-11 
 1.06000000e+00  3.20496825e-07 -4.84518709e-11 
 1.08000000e+00  2.46602530e-07 -2.76083381e-11 
 1.10000000e+00  2.12328931e-07 -1.59831849e-11 
 1.12000000e+00  2.00143534e-07 -9.49177184e-12 
 1.14000000e+00  2.00554113e-07 -5.86297324e-12 
 1.16000000e+00  2.08428168e-07 -3.83268961e-12 
 1.18000000e+00  2.21003061e-07 -2.69657774e-12 
 1.20000000e+00  2.36808015e-07 -2.06178490e-12 
