 v-sweep         v(out)          i(VDD)         
 0.00000000e+00  1.19999990e+00 -8.34835822e-12 
 2.00000000e-02  1.19999982e+00 -1.23221212e-11 
 4.00000000e-02  1.19999969e+00 -1.99518547e-11 
 6.00000000e-02  1.19999944e+00 -3.44693750e-11 
 8.00000000e-02  1.19999895e+00 -6.19831305e-11 
 1.00000000e-01  1.19999800e+00 -1.14047949e-10 
 1.20000000e-01  1.19999616e+00 -2.12536143e-10 
 1.40000000e-01  1.19999258e+00 -3.98870098e-10 
 1.60000000e-01  1.19998561e+00 -7.51505079e-10 
 1.80000000e-01  1.19997198e+00 -1.41895143e-09 
 2.00000000e-01  1.19994532e+00 -2.68180583e-09 
 2.20000000e-01  1.19989315e+00 -5.06797966e-09 
 2.40000000e-01  1.19979118e+00 -9.56207625e-09 
 2.60000000e-01  1.19959275e+00 -1.79697762e-08 
 2.80000000e-01  1.19921035e+00 -3.35001627e-08 
 3.00000000e-01  1.19848708e+00 -6.15456876e-08 
 3.20000000e-01  1.19716162e+00 -1.10354942e-07 
 3.40000000e-01  1.19484171e+00 -1.90858937e-07 
 3.60000000e-01  1.19100233e+00 -3.15035612e-07 
 3.80000000e-01  1.18498746e+00 -4.93619149e-07 
 4.00000000e-01  1.17594536e+00 -7.34983040e-07 
 4.20000000e-01  1.16261564e+00 -1.04544701e-06 
 4.40000000e-01  1.14278807e+00 -1.42945087e-06 
 4.60000000e-01  1.11137275e+00 -1.88777637e-06 
 4.80000000e-01  1.04936943e+00 -2.40636221e-06 
 5.00000000e-01  6.90721296e-01 -2.69749466e-06 
 5.20000000e-01  1.49047855e-01 -2.43825969e-06 
 5.40000000e-01  6.67247668e-02 -2.09598983e-06 
 5.60000000e-01  4.29055378e-02 -1.77531257e-06 
 5.80000000e-01  2.95897548e-02 -1.48353658e-06 
 6.00000000e-01  2.09143405e-02 -1.22124569e-06 
 6.20000000e-01  1.48877726e-02 -9.88268708e-07 
 6.40000000e-01  1.05652519e-02 -7.84108053e-07 
 6.60000000e-01  7.42206786e-03 -6.08022463e-07 
 6.80000000e-01  5.12676117e-03 -4.59036731e-07 
 7.00000000e-01  3.46030818e-03 -3.35916755e-07 
 7.20000000e-01  2.26806449e-03 -2.37116502e-07 
 7.40000000e-01  1.43546242e-03 -1.60693300e-07 
 7.60000000e-01  8.73634743e-04 -1.04203635e-07 
 7.80000000e-01  5.10822259e-04 -6.46378194e-08 
 8.00000000e-01  2.88004767e-04 -3.85137619e-08 
 8.20000000e-01  1.57809004e-04 -2.22259866e-08 
 8.40000000e-01  8.48418651e-05 -1.25461320e-08 
 8.60000000e-01  4.51305250e-05 -6.98731458e-09 
 8.80000000e-01  2.38934005e-05 -3.86286290e-09 
 9.00000000e-01  1.26367835e-05 -2.12791352e-09 
 9.20000000e-01  6.69170775e-06 -1.17063463e-09 
 9.40000000e-01  3.55381392e-06 -6.44037813e-10 
 9.60000000e-01  1.89604014e-06 -3.54693397e-10 
 9.80000000e-01  1.01879317e-06 -1.95729645e-10 
 1.00000000e+00  5.53765641e-07 -1.08356380e-10 
 1.02000000e+00  3.06931326e-07 -6.02945764e-11 
 1.04000000e+00  1.75902438e-07 -3.38310856e-11 
 1.06000000e+00  1.06529429e-07 -1.92439273e-11 
 1.08000000e+00  7.01050239e-08 -1.11938632e-11 
 1.10000000e+00  5.13729479e-08 -6.74612529e-12 
 1.12000000e+00  3.83842639e-08 -3.48664231e-12 
 1.14000000e+00  3.62567533e-08 -2.48213846e-12 
 1.16000000e+00  3.61058820e-08 -1.92522087e-12 
 1.18000000e+00  3.72223820e-08 -1.61718540e-12 
 1.20000000e+00  3.91313229e-08 -1.44810552e-12 
