 v-sweep         v(out)          i(VDD)         
 0.00000000e+00  1.19999435e+00 -4.36366238e-10 
 2.00000000e-02  1.19998954e+00 -7.85138083e-10 
 4.00000000e-02  1.19998048e+00 -1.43160433e-09 
 6.00000000e-02  1.19996341e+00 -2.62883545e-09 
 8.00000000e-02  1.19993121e+00 -4.84331593e-09 
 1.00000000e-01  1.19987061e+00 -8.92914272e-09 
 1.20000000e-01  1.19975698e+00 -1.64298430e-08 
 1.40000000e-01  1.19954570e+00 -3.00683889e-08 
 1.60000000e-01  1.19915889e+00 -5.44472052e-08 
 1.80000000e-01  1.19846915e+00 -9.68060828e-08 
 2.00000000e-01  1.19728734e+00 -1.67334493e-07 
 2.20000000e-01  1.19536604e+00 -2.78343971e-07 
 2.40000000e-01  1.19242028e+00 -4.42333409e-07 
 2.60000000e-01  1.18814534e+00 -6.70274767e-07 
 2.80000000e-01  1.18220980e+00 -9.71247861e-07 
 3.00000000e-01  1.17422548e+00 -1.35293812e-06 
 3.20000000e-01  1.16370297e+00 -1.82199451e-06 
 3.40000000e-01  1.14998443e+00 -2.38393576e-06 
 3.60000000e-01  1.13211712e+00 -3.04272186e-06 
 3.80000000e-01  1.10857102e+00 -3.79996751e-06 
 4.00000000e-01  1.07648516e+00 -4.65319249e-06 
 4.20000000e-01  1.02881228e+00 -5.58979544e-06 
 4.40000000e-01  9.38522694e-01 -6.55325873e-06 
 4.60000000e-01  5.91906966e-01 -7.00753514e-06 
 4.80000000e-01  1.86036055e-01 -6.55891753e-06 
 5.00000000e-01  1.08536839e-01 -5.95885288e-06 
 5.20000000e-01  7.87045595e-02 -5.37340922e-06 
 5.40000000e-01  6.05320257e-02 -4.81579157e-06 
 5.60000000e-01  4.77629354e-02 -4.28856784e-06 
 5.80000000e-01  3.81673604e-02 -3.79283503e-06 
 6.00000000e-01  3.06911781e-02 -3.32920178e-06 
 6.20000000e-01  2.47245836e-02 -2.89802949e-06 
 6.40000000e-01  1.98929266e-02 -2.49949991e-06 
 6.60000000e-01  1.59444144e-02 -2.13364283e-06 
 6.80000000e-01  1.27010545e-02 -1.80034183e-06 
 7.00000000e-01  1.00319932e-02 -1.49933084e-06 
 7.20000000e-01  7.83792205e-03 -1.23018561e-06 
 7.40000000e-01  6.04140856e-03 -9.92311189e-07 
 7.60000000e-01  4.58060123e-03 -7.84925432e-07 
 7.80000000e-01  3.40495610e-03 -6.07037163e-07 
 8.00000000e-01  2.47221353e-03 -4.57415711e-07 
 8.20000000e-01  1.74616047e-03 -3.34547104e-07 
 8.40000000e-01  1.19488973e-03 -2.36572051e-07 
 8.60000000e-01  7.89403617e-04 -1.61207715e-07 
 8.80000000e-01  5.02571923e-04 -1.05678173e-07 
 9.00000000e-01  3.08656916e-04 -6.67201943e-08 
 9.20000000e-01  1.83701588e-04 -4.07571572e-08 
 9.40000000e-01  1.06730609e-04 -2.42654891e-08 
 9.60000000e-01  6.10298899e-05 -1.41928142e-08 
 9.80000000e-01  3.45952412e-05 -8.21069896e-09 
 1.00000000e+00  1.95543584e-05 -4.72089362e-09 
 1.02000000e+00  1.10773413e-05 -2.70616141e-09 
 1.04000000e+00  6.32504193e-06 -1.54954105e-09 
 1.06000000e+00  3.66984279e-06 -8.87352585e-10 
 1.08000000e+00  2.19136414e-06 -5.08623992e-10 
 1.10000000e+00  1.37276229e-06 -2.92023169e-10 
 1.12000000e+00  9.24704658e-07 -1.68078014e-10 
 1.14000000e+00  6.85382234e-07 -9.70898326e-11 
 1.16000000e+00  5.64294975e-07 -5.63876582e-11 
 1.18000000e+00  5.10800139e-07 -3.30225659e-11 
 1.20000000e+00  4.96547810e-07 -1.95940026e-11 
