 v-sweep         v(out)          i(VDD)         
 0.00000000e+00  1.19999772e+00 -1.53094714e-10 
 2.00000000e-02  1.19999575e+00 -2.77694097e-10 
 4.00000000e-02  1.19999202e+00 -5.08935648e-10 
 6.00000000e-02  1.19998495e+00 -9.38123587e-10 
 8.00000000e-02  1.19997150e+00 -1.73473370e-09 
 1.00000000e-01  1.19994592e+00 -3.21272911e-09 
 1.20000000e-01  1.19989729e+00 -5.95119912e-09 
 1.40000000e-01  1.19980500e+00 -1.10088667e-08 
 1.60000000e-01  1.19963071e+00 -2.02891517e-08 
 1.80000000e-01  1.19930496e+00 -3.71108815e-08 
 2.00000000e-01  1.19870753e+00 -6.69594227e-08 
 2.20000000e-01  1.19764518e+00 -1.18139484e-07 
 2.40000000e-01  1.19583860e+00 -2.01680256e-07 
 2.60000000e-01  1.19293068e+00 -3.29940102e-07 
 2.80000000e-01  1.18850675e+00 -5.14524170e-07 
 3.00000000e-01  1.18209157e+00 -7.65081449e-07 
 3.20000000e-01  1.17309925e+00 -1.08945343e-06 
 3.40000000e-01  1.16073039e+00 -1.49415399e-06 
 3.60000000e-01  1.14377649e+00 -1.98431557e-06 
 3.80000000e-01  1.12015687e+00 -2.56285235e-06 
 4.00000000e-01  1.08535604e+00 -3.22790764e-06 
 4.20000000e-01  1.02531061e+00 -3.96196319e-06 
 4.40000000e-01  8.15499108e-01 -4.57461560e-06 
 4.60000000e-01  2.54611211e-01 -4.35257559e-06 
 4.80000000e-01  1.00379324e-01 -3.89538705e-06 
 5.00000000e-01  6.65604842e-02 -3.43908137e-06 
 5.20000000e-01  4.83488744e-02 -3.01032022e-06 
 5.40000000e-01  3.63239087e-02 -2.61147603e-06 
 5.60000000e-01  2.76991499e-02 -2.24324136e-06 
 5.80000000e-01  2.12397037e-02 -1.90582940e-06 
 6.00000000e-01  1.62861776e-02 -1.59919942e-06 
 6.20000000e-01  1.24303886e-02 -1.32312211e-06 
 6.40000000e-01  9.40747007e-03 -1.07719464e-06 
 6.60000000e-01  7.03326164e-03 -8.60840463e-07 
 6.80000000e-01  5.17414101e-03 -6.73298077e-07 
 7.00000000e-01  3.72967324e-03 -5.13600689e-07 
 7.20000000e-01  2.62195241e-03 -3.80543413e-07 
 7.40000000e-01  1.78865324e-03 -2.72631827e-07 
 7.60000000e-01  1.17823433e-03 -1.88005417e-07 
 7.80000000e-01  7.46491512e-04 -1.24340207e-07 
 8.00000000e-01  4.54201493e-04 -7.87702094e-08 
 8.20000000e-01  2.66040016e-04 -4.79251333e-08 
 8.40000000e-01  1.51003376e-04 -2.81939763e-08 
 8.60000000e-01  8.38107829e-05 -1.61851607e-08 
 8.80000000e-01  4.58892381e-05 -9.14674291e-09 
 9.00000000e-01  2.49576817e-05 -5.12277780e-09 
 9.20000000e-01  1.35489968e-05 -2.85579679e-09 
 9.40000000e-01  7.37033757e-06 -1.58883301e-09 
 9.60000000e-01  4.03376328e-06 -8.83589575e-10 
 9.80000000e-01  2.23428914e-06 -4.91700809e-10 
 1.00000000e+00  1.26496453e-06 -2.74033851e-10 
 1.02000000e+00  7.44241534e-07 -1.53101537e-10 
 1.04000000e+00  4.66405124e-07 -8.58670262e-11 
 1.06000000e+00  3.20496811e-07 -4.84518673e-11 
 1.08000000e+00  2.46602523e-07 -2.76083361e-11 
 1.10000000e+00  2.12328928e-07 -1.59831838e-11 
 1.12000000e+00  2.00143534e-07 -9.49177106e-12 
 1.14000000e+00  2.00554114e-07 -5.86297278e-12 
 1.16000000e+00  2.05307160e-07 -3.18669981e-12 
 1.18000000e+00  2.19030571e-07 -2.33494380e-12 
 1.20000000e+00  2.35396031e-07 -1.85881284e-12 
