 v-sweep         v(out)          i(VDD)         
 0.00000000e+00  1.19999917e+00 -6.06690919e-11 
 2.00000000e-02  1.19999850e+00 -1.04463711e-10 
 4.00000000e-02  1.19999723e+00 -1.86203093e-10 
 6.00000000e-02  1.19999482e+00 -3.38497666e-10 
 8.00000000e-02  1.19999023e+00 -6.22083279e-10 
 1.00000000e-01  1.19998150e+00 -1.15006236e-09 
 1.20000000e-01  1.19996485e+00 -2.13283136e-09 
 1.40000000e-01  1.19993310e+00 -3.96070373e-09 
 1.60000000e-01  1.19987259e+00 -7.35355594e-09 
 1.80000000e-01  1.19975759e+00 -1.36240003e-08 
 2.00000000e-01  1.19954053e+00 -2.51146759e-08 
 2.20000000e-01  1.19913627e+00 -4.58481079e-08 
 2.40000000e-01  1.19840086e+00 -8.22885670e-08 
 2.60000000e-01  1.19711144e+00 -1.43782452e-07 
 2.80000000e-01  1.19496135e+00 -2.41948466e-07 
 3.00000000e-01  1.19157707e+00 -3.88818276e-07 
 3.20000000e-01  1.18653396e+00 -5.94939087e-07 
 3.40000000e-01  1.17933494e+00 -8.68840085e-07 
 3.60000000e-01  1.16933990e+00 -1.21754294e-06 
 3.80000000e-01  1.15563675e+00 -1.64690825e-06 
 4.00000000e-01  1.13677971e+00 -2.16127881e-06 
 4.20000000e-01  1.11010347e+00 -2.76221814e-06 
 4.40000000e-01  1.06904806e+00 -3.44438428e-06 
 4.60000000e-01  9.86643069e-01 -4.17112621e-06 
 4.80000000e-01  5.88604419e-01 -4.46800049e-06 
 5.00000000e-01  1.52396551e-01 -4.09751468e-06 
 5.20000000e-01  8.35588877e-02 -3.63312375e-06 
 5.40000000e-01  5.79768761e-02 -3.19008788e-06 
 5.60000000e-01  4.26868852e-02 -2.77636934e-06 
 5.80000000e-01  3.22004077e-02 -2.39333568e-06 
 6.00000000e-01  2.45436234e-02 -2.04141888e-06 
 6.20000000e-01  1.87580255e-02 -1.72069219e-06 
 6.40000000e-01  1.43034958e-02 -1.43100157e-06 
 6.60000000e-01  1.08348005e-02 -1.17200507e-06 
 6.80000000e-01  8.12187331e-03 -9.43178514e-07 
 7.00000000e-01  6.00171541e-03 -7.43808981e-07 
 7.20000000e-01  4.35417665e-03 -5.72977710e-07 
 7.40000000e-01  3.08763574e-03 -4.29531759e-07 
 7.60000000e-01  2.12998123e-03 -3.12039594e-07 
 7.80000000e-01  1.42259122e-03 -2.18724688e-07 
 8.00000000e-01  9.16119916e-04 -1.47377733e-07 
 8.20000000e-01  5.67570575e-04 -9.52736290e-08 
 8.40000000e-01  3.38645276e-04 -5.91690148e-08 
 8.60000000e-01  1.95581708e-04 -3.54886088e-08 
 8.80000000e-01  1.10219659e-04 -2.07260404e-08 
 9.00000000e-01  6.11328570e-05 -1.18893046e-08 
 9.20000000e-01  3.36105354e-05 -6.74702124e-09 
 9.40000000e-01  1.84105382e-05 -3.80647744e-09 
 9.60000000e-01  1.00826102e-05 -2.14154307e-09 
 9.80000000e-01  5.53636653e-06 -1.20373678e-09 
 1.00000000e+00  3.05770203e-06 -6.76779592e-10 
 1.02000000e+00  1.70664140e-06 -3.80931150e-10 
 1.04000000e+00  9.70428524e-07 -2.14825066e-10 
 1.06000000e+00  5.69871622e-07 -1.21510667e-10 
 1.08000000e+00  3.52950991e-07 -6.90431899e-11 
 1.10000000e+00  2.36809754e-07 -3.95114982e-11 
 1.12000000e+00  1.76221777e-07 -2.28701903e-11 
 1.14000000e+00  1.46462246e-07 -1.34815575e-11 
 1.16000000e+00  1.33995584e-07 -8.17876131e-12 
 1.18000000e+00  1.27357876e-07 -4.24573178e-12 
 1.20000000e+00  1.32280418e-07 -2.95719900e-12 
