#           v(out)     i(tb.vdd_src) iter(0)   
 0.         1.1509    -10.077E-6  156.      
 0.02       1.15      -10.075E-6  4.        
 0.04       1.1489    -10.072E-6  4.        
 0.06       1.1478    -10.069E-6  4.        
 0.08       1.1466    -10.066E-6  4.        
 0.1        1.1454    -10.063E-6  4.        
 0.12       1.144     -10.06E-6   4.        
 0.14       1.1425    -10.057E-6  5.        
 0.16       1.1409    -10.056E-6  5.        
 0.18       1.139     -10.057E-6  5.        
 0.2        1.137     -10.062E-6  5.        
 0.22       1.1345    -10.075E-6  5.        
 0.24       1.1316    -10.102E-6  5.        
 0.26       1.1278    -10.15E-6   5.        
 0.28       1.1228    -10.231E-6  5.        
 0.3        1.116     -10.354E-6  5.        
 0.32       1.107     -10.527E-6  5.        
 0.34       1.0946    -10.757E-6  5.        
 0.36       1.0778    -11.045E-6  5.        
 0.38       1.0539    -11.389E-6  5.        
 0.4        1.0179    -11.774E-6  6.        
 0.42       0.95424   -12.142E-6  6.        
 0.44       0.8055    -12.252E-6  6.        
 0.46       0.54918   -11.925E-6  5.        
 0.48       0.29126   -11.477E-6  5.        
 0.5        0.1524    -4.0976E-6  12.       
 0.52       0.083559  -3.6332E-6  7.        
 0.54       0.057978  -3.1901E-6  6.        
 0.56       0.042687  -2.7764E-6  6.        
 0.58       0.0322    -2.3933E-6  5.        
 0.6        0.024544  -2.0414E-6  5.        
 0.62       0.01876   -1.7207E-6  5.        
 0.64       0.014304  -1.431E-6   5.        
 0.66       0.010835  -1.172E-6   5.        
 0.68       0.0081221 -943.2E-9   5.        
 0.7        0.0060018 -743.82E-9  5.        
 0.72       0.0043543 -573.E-9    5.        
 0.74       0.0030877 -429.54E-9  5.        
 0.76       0.00213   -312.04E-9  5.        
 0.78       0.0014226 -218.7E-9   5.        
 0.8        916.13E-6 -147.37E-9  5.        
 0.82       567.58E-6 -95.257E-9  5.        
 0.84       338.65E-6 -59.139E-9  5.        
 0.86       195.58E-6 -35.492E-9  5.        
 0.88       110.22E-6 -20.707E-9  5.        
 0.9        61.133E-6  0.         5.        
 0.92       33.611E-6  0.         5.        
 0.94       18.411E-6  0.         5.        
 0.96       10.083E-6  0.         5.        
 0.98       5.5364E-6  0.         5.        
 1.         3.0577E-6  0.         5.        
 1.02       1.7066E-6  0.         5.        
 1.04       970.43E-9  0.         5.        
 1.06       569.87E-9  0.         5.        
 1.08       352.95E-9  0.         5.        
 1.1        236.81E-9  0.         5.        
 1.12       176.22E-9  0.         5.        
 1.14       146.46E-9  0.         5.        
 1.16       134.E-9    0.         5.        
 1.18       131.41E-9  0.         5.        
 1.2        134.63E-9  0.         4.        
Gnucap   System status
iterations: op=0, dc=463, tran=0, fourier=0, total=463
transient timesteps: accepted=0, rejected=0, total=0
nodes: user=2, subckt=1, model=66, total=69
dctran density=33.4%, ac density=33.4%
