#           v(g)       i(tb.sd)   iter(0)   
 0.         0.2        3.733E-15  4.        
 0.02       0.2       -8.6675E-9  4.        
 0.04       0.2       -12.998E-9  4.        
 0.06       0.2       -15.211E-9  4.        
 0.08       0.2       -16.452E-9  4.        
 0.1        0.2       -17.28E-9   4.        
 0.12       0.2       -17.937E-9  4.        
 0.14       0.2       -18.528E-9  4.        
 0.16       0.2       -19.094E-9  4.        
 0.18       0.2       -19.649E-9  4.        
 0.2        0.2       -20.202E-9  4.        
 0.22       0.2       -20.751E-9  4.        
 0.24       0.2       -21.3E-9    4.        
 0.26       0.2       -21.842E-9  4.        
 0.28       0.2       -22.388E-9  4.        
 0.3        0.2       -22.934E-9  4.        
 0.32       0.2       -23.476E-9  4.        
 0.34       0.2       -24.025E-9  4.        
 0.36       0.2       -24.549E-9  4.        
 0.38       0.2       -25.08E-9   4.        
 0.4        0.2       -25.604E-9  4.        
 0.42       0.2       -26.135E-9  4.        
 0.44       0.2       -26.652E-9  4.        
 0.46       0.2       -27.161E-9  4.        
 0.48       0.2       -27.67E-9   4.        
 0.5        0.2       -28.173E-9  4.        
 0.52       0.2       -28.675E-9  4.        
 0.54       0.2       -29.162E-9  4.        
 0.56       0.2       -29.657E-9  4.        
 0.58       0.2       -30.137E-9  4.        
 0.6        0.2       -30.617E-9  4.        
 0.62       0.2       -31.097E-9  4.        
 0.64       0.2       -31.578E-9  4.        
 0.66       0.2       -32.043E-9  4.        
 0.68       0.2       -32.494E-9  4.        
 0.7        0.2       -32.96E-9   4.        
 0.72       0.2       -33.411E-9  4.        
 0.74       0.2       -33.877E-9  4.        
 0.76       0.2       -34.299E-9  4.        
 0.78       0.2       -34.75E-9   4.        
 0.8        0.2       -35.201E-9  4.        
 0.82       0.2       -35.623E-9  4.        
 0.84       0.2       -36.045E-9  4.        
 0.86       0.2       -36.482E-9  4.        
 0.88       0.2       -36.904E-9  4.        
 0.9        0.2       -37.326E-9  4.        
 0.92       0.2       -37.748E-9  4.        
 0.94       0.2       -38.17E-9   4.        
 0.96       0.2       -38.563E-9  4.        
 0.98       0.2       -38.97E-9   4.        
 1.         0.2       -39.363E-9  4.        
 1.02       0.2       -39.77E-9   4.        
 1.04       0.2       -40.192E-9  4.        
 1.06       0.2       -40.556E-9  4.        
 1.08       0.2       -40.964E-9  4.        
 1.1        0.2       -41.327E-9  4.        
 1.12       0.2       -41.706E-9  4.        
 1.14       0.2       -42.07E-9   4.        
 1.16       0.2       -42.448E-9  4.        
 1.18       0.2       -42.855E-9  4.        
 1.2        0.2       -43.205E-9  4.        
 0.         0.4        208.E-15   4.        
 0.02       0.4       -714.14E-9  4.        
 0.04       0.4       -1.2461E-6  4.        
 0.06       0.4       -1.6186E-6  4.        
 0.08       0.4       -1.8651E-6  4.        
 0.1        0.4       -2.024E-6   4.        
 0.12       0.4       -2.1291E-6  4.        
 0.14       0.4       -2.2039E-6  4.        
 0.16       0.4       -2.2624E-6  4.        
 0.18       0.4       -2.3121E-6  4.        
 0.2        0.4       -2.3571E-6  4.        
 0.22       0.4       -2.3992E-6  4.        
 0.24       0.4       -2.4395E-6  4.        
 0.26       0.4       -2.4785E-6  4.        
 0.28       0.4       -2.5167E-6  4.        
 0.3        0.4       -2.554E-6   4.        
 0.32       0.4       -2.5907E-6  4.        
 0.34       0.4       -2.6268E-6  4.        
 0.36       0.4       -2.6623E-6  4.        
 0.38       0.4       -2.6973E-6  4.        
 0.4        0.4       -2.7318E-6  4.        
 0.42       0.4       -2.7658E-6  4.        
 0.44       0.4       -2.7993E-6  4.        
 0.46       0.4       -2.8324E-6  4.        
 0.48       0.4       -2.865E-6   4.        
 0.5        0.4       -2.8972E-6  4.        
 0.52       0.4       -2.929E-6   4.        
 0.54       0.4       -2.9603E-6  4.        
 0.56       0.4       -2.9913E-6  4.        
 0.58       0.4       -3.0218E-6  4.        
 0.6        0.4       -3.052E-6   4.        
 0.62       0.4       -3.0818E-6  4.        
 0.64       0.4       -3.1112E-6  4.        
 0.66       0.4       -3.1403E-6  4.        
 0.68       0.4       -3.169E-6   4.        
 0.7        0.4       -3.1974E-6  4.        
 0.72       0.4       -3.2255E-6  4.        
 0.74       0.4       -3.2533E-6  4.        
 0.76       0.4       -3.2807E-6  4.        
 0.78       0.4       -3.3078E-6  4.        
 0.8        0.4       -3.3347E-6  4.        
 0.82       0.4       -3.3612E-6  4.        
 0.84       0.4       -3.3875E-6  4.        
 0.86       0.4       -3.4134E-6  4.        
 0.88       0.4       -3.4392E-6  4.        
 0.9        0.4       -3.4646E-6  4.        
 0.92       0.4       -3.4898E-6  4.        
 0.94       0.4       -3.5147E-6  4.        
 0.96       0.4       -3.5394E-6  4.        
 0.98       0.4       -3.5638E-6  4.        
 1.         0.4       -3.588E-6   4.        
 1.02       0.4       -3.612E-6   4.        
 1.04       0.4       -3.6357E-6  4.        
 1.06       0.4       -3.6592E-6  4.        
 1.08       0.4       -3.6825E-6  4.        
 1.1        0.4       -3.7056E-6  4.        
 1.12       0.4       -3.7285E-6  4.        
 1.14       0.4       -3.7512E-6  4.        
 1.16       0.4       -3.7736E-6  4.        
 1.18       0.4       -3.7959E-6  4.        
 1.2        0.4       -3.818E-6   4.        
 0.         0.6        1.53E-12   4.        
 0.02       0.6       -2.9096E-6  4.        
 0.04       0.6       -5.5223E-6  4.        
 0.06       0.6       -7.8316E-6  4.        
 0.08       0.6       -9.8342E-6  4.        
 0.1        0.6       -11.535E-6  4.        
 0.12       0.6       -12.948E-6  4.        
 0.14       0.6       -14.101E-6  4.        
 0.16       0.6       -15.027E-6  4.        
 0.18       0.6       -15.765E-6  4.        
 0.2        0.6       -16.353E-6  4.        
 0.22       0.6       -16.826E-6  4.        
 0.24       0.6       -17.214E-6  4.        
 0.26       0.6       -17.538E-6  4.        
 0.28       0.6       -17.817E-6  4.        
 0.3        0.6       -18.062E-6  4.        
 0.32       0.6       -18.283E-6  4.        
 0.34       0.6       -18.485E-6  4.        
 0.36       0.6       -18.675E-6  4.        
 0.38       0.6       -18.853E-6  4.        
 0.4        0.6       -19.024E-6  4.        
 0.42       0.6       -19.187E-6  4.        
 0.44       0.6       -19.345E-6  4.        
 0.46       0.6       -19.498E-6  4.        
 0.48       0.6       -19.646E-6  4.        
 0.5        0.6       -19.791E-6  4.        
 0.52       0.6       -19.932E-6  4.        
 0.54       0.6       -20.07E-6   4.        
 0.56       0.6       -20.206E-6  4.        
 0.58       0.6       -20.338E-6  4.        
 0.6        0.6       -20.468E-6  4.        
 0.62       0.6       -20.595E-6  4.        
 0.64       0.6       -20.72E-6   4.        
 0.66       0.6       -20.843E-6  4.        
 0.68       0.6       -20.964E-6  4.        
 0.7        0.6       -21.082E-6  4.        
 0.72       0.6       -21.199E-6  4.        
 0.74       0.6       -21.314E-6  4.        
 0.76       0.6       -21.427E-6  4.        
 0.78       0.6       -21.538E-6  4.        
 0.8        0.6       -21.648E-6  4.        
 0.82       0.6       -21.756E-6  4.        
 0.84       0.6       -21.862E-6  4.        
 0.86       0.6       -21.967E-6  4.        
 0.88       0.6       -22.07E-6   4.        
 0.9        0.6       -22.173E-6  4.        
 0.92       0.6       -22.273E-6  4.        
 0.94       0.6       -22.373E-6  4.        
 0.96       0.6       -22.471E-6  4.        
 0.98       0.6       -22.567E-6  4.        
 1.         0.6       -22.663E-6  4.        
 1.02       0.6       -22.757E-6  4.        
 1.04       0.6       -22.851E-6  4.        
 1.06       0.6       -22.943E-6  4.        
 1.08       0.6       -23.034E-6  4.        
 1.1        0.6       -23.124E-6  4.        
 1.12       0.6       -23.213E-6  4.        
 1.14       0.6       -23.3E-6    4.        
 1.16       0.6       -23.387E-6  4.        
 1.18       0.6       -23.473E-6  4.        
 1.2        0.6       -23.558E-6  4.        
 0.         0.8        6.397E-12  4.        
 0.02       0.8       -5.4089E-6  4.        
 0.04       0.8       -10.518E-6  4.        
 0.06       0.8       -15.313E-6  4.        
 0.08       0.8       -19.777E-6  4.        
 0.1        0.8       -23.895E-6  4.        
 0.12       0.8       -27.659E-6  4.        
 0.14       0.8       -31.064E-6  4.        
 0.16       0.8       -34.113E-6  4.        
 0.18       0.8       -36.819E-6  4.        
 0.2        0.8       -39.198E-6  4.        
 0.22       0.8       -41.275E-6  4.        
 0.24       0.8       -43.077E-6  4.        
 0.26       0.8       -44.635E-6  4.        
 0.28       0.8       -45.981E-6  4.        
 0.3        0.8       -47.144E-6  4.        
 0.32       0.8       -48.153E-6  4.        
 0.34       0.8       -49.034E-6  4.        
 0.36       0.8       -49.807E-6  4.        
 0.38       0.8       -50.493E-6  4.        
 0.4        0.8       -51.107E-6  4.        
 0.42       0.8       -51.663E-6  4.        
 0.44       0.8       -52.169E-6  4.        
 0.46       0.8       -52.637E-6  4.        
 0.48       0.8       -53.071E-6  4.        
 0.5        0.8       -53.478E-6  4.        
 0.52       0.8       -53.863E-6  4.        
 0.54       0.8       -54.227E-6  4.        
 0.56       0.8       -54.575E-6  4.        
 0.58       0.8       -54.909E-6  4.        
 0.6        0.8       -55.23E-6   4.        
 0.62       0.8       -55.54E-6   4.        
 0.64       0.8       -55.84E-6   4.        
 0.66       0.8       -56.131E-6  4.        
 0.68       0.8       -56.414E-6  4.        
 0.7        0.8       -56.69E-6   4.        
 0.72       0.8       -56.959E-6  4.        
 0.74       0.8       -57.221E-6  4.        
 0.76       0.8       -57.478E-6  4.        
 0.78       0.8       -57.728E-6  4.        
 0.8        0.8       -57.974E-6  4.        
 0.82       0.8       -58.215E-6  4.        
 0.84       0.8       -58.451E-6  4.        
 0.86       0.8       -58.683E-6  4.        
 0.88       0.8       -58.91E-6   4.        
 0.9        0.8       -59.134E-6  4.        
 0.92       0.8       -59.353E-6  4.        
 0.94       0.8       -59.569E-6  4.        
 0.96       0.8       -59.781E-6  4.        
 0.98       0.8       -59.99E-6   4.        
 1.         0.8       -60.196E-6  4.        
 1.02       0.8       -60.398E-6  4.        
 1.04       0.8       -60.597E-6  4.        
 1.06       0.8       -60.794E-6  4.        
 1.08       0.8       -60.987E-6  4.        
 1.1        0.8       -61.178E-6  4.        
 1.12       0.8       -61.366E-6  4.        
 1.14       0.8       -61.551E-6  4.        
 1.16       0.8       -61.734E-6  4.        
 1.18       0.8       -61.914E-6  4.        
 1.2        0.8       -62.092E-6  4.        
 0.         1.         21.32E-12  5.        
 0.02       1.        -7.6341E-6  4.        
 0.04       1.        -15.005E-6  4.        
 0.06       1.        -22.093E-6  4.        
 0.08       1.        -28.877E-6  4.        
 0.1        1.        -35.337E-6  4.        
 0.12       1.        -41.456E-6  4.        
 0.14       1.        -47.217E-6  4.        
 0.16       1.        -52.609E-6  4.        
 0.18       1.        -57.625E-6  4.        
 0.2        1.        -62.264E-6  4.        
 0.22       1.        -66.528E-6  4.        
 0.24       1.        -70.426E-6  4.        
 0.26       1.        -73.972E-6  4.        
 0.28       1.        -77.183E-6  4.        
 0.3        1.        -80.081E-6  4.        
 0.32       1.        -82.689E-6  4.        
 0.34       1.        -85.03E-6   4.        
 0.36       1.        -87.131E-6  4.        
 0.38       1.        -89.015E-6  4.        
 0.4        1.        -90.708E-6  4.        
 0.42       1.        -92.23E-6   4.        
 0.44       1.        -93.604E-6  4.        
 0.46       1.        -94.848E-6  4.        
 0.48       1.        -95.978E-6  4.        
 0.5        1.        -97.01E-6   4.        
 0.52       1.        -97.957E-6  4.        
 0.54       1.        -98.83E-6   4.        
 0.56       1.        -99.639E-6  4.        
 0.58       1.        -100.39E-6  4.        
 0.6        1.        -101.1E-6   4.        
 0.62       1.        -101.76E-6  4.        
 0.64       1.        -102.39E-6  4.        
 0.66       1.        -102.98E-6  4.        
 0.68       1.        -103.55E-6  4.        
 0.7        1.        -104.08E-6  4.        
 0.72       1.        -104.6E-6   4.        
 0.74       1.        -105.1E-6   4.        
 0.76       1.        -105.58E-6  4.        
 0.78       1.        -106.04E-6  4.        
 0.8        1.        -106.48E-6  4.        
 0.82       1.        -106.92E-6  4.        
 0.84       1.        -107.34E-6  4.        
 0.86       1.        -107.74E-6  4.        
 0.88       1.        -108.14E-6  4.        
 0.9        1.        -108.53E-6  4.        
 0.92       1.        -108.91E-6  4.        
 0.94       1.        -109.28E-6  4.        
 0.96       1.        -109.64E-6  4.        
 0.98       1.        -109.99E-6  4.        
 1.         1.        -110.33E-6  4.        
 1.02       1.        -110.67E-6  4.        
 1.04       1.        -111.E-6    4.        
 1.06       1.        -111.33E-6  4.        
 1.08       1.        -111.65E-6  4.        
 1.1        1.        -111.96E-6  4.        
 1.12       1.        -112.27E-6  4.        
 1.14       1.        -112.57E-6  4.        
 1.16       1.        -112.87E-6  4.        
 1.18       1.        -113.16E-6  4.        
 1.2        1.        -113.45E-6  4.        
 0.         1.2        61.08E-12  5.        
 0.02       1.2       -9.4347E-6  4.        
 0.04       1.2       -18.651E-6  4.        
 0.06       1.2       -27.627E-6  4.        
 0.08       1.2       -36.342E-6  4.        
 0.1        1.2       -44.774E-6  4.        
 0.12       1.2       -52.901E-6  4.        
 0.14       1.2       -60.705E-6  4.        
 0.16       1.2       -68.169E-6  4.        
 0.18       1.2       -75.276E-6  4.        
 0.2        1.2       -82.016E-6  4.        
 0.22       1.2       -88.382E-6  4.        
 0.24       1.2       -94.369E-6  4.        
 0.26       1.2       -99.977E-6  4.        
 0.28       1.2       -105.21E-6  4.        
 0.3        1.2       -110.08E-6  4.        
 0.32       1.2       -114.59E-6  4.        
 0.34       1.2       -118.76E-6  4.        
 0.36       1.2       -122.6E-6   4.        
 0.38       1.2       -126.13E-6  4.        
 0.4        1.2       -129.38E-6  4.        
 0.42       1.2       -132.36E-6  4.        
 0.44       1.2       -135.09E-6  4.        
 0.46       1.2       -137.59E-6  4.        
 0.48       1.2       -139.89E-6  4.        
 0.5        1.2       -141.99E-6  4.        
 0.52       1.2       -143.93E-6  4.        
 0.54       1.2       -145.71E-6  4.        
 0.56       1.2       -147.35E-6  4.        
 0.58       1.2       -148.87E-6  4.        
 0.6        1.2       -150.28E-6  4.        
 0.62       1.2       -151.59E-6  4.        
 0.64       1.2       -152.8E-6   4.        
 0.66       1.2       -153.94E-6  4.        
 0.68       1.2       -155.01E-6  4.        
 0.7        1.2       -156.01E-6  4.        
 0.72       1.2       -156.95E-6  4.        
 0.74       1.2       -157.85E-6  4.        
 0.76       1.2       -158.69E-6  4.        
 0.78       1.2       -159.5E-6   4.        
 0.8        1.2       -160.27E-6  4.        
 0.82       1.2       -161.E-6    4.        
 0.84       1.2       -161.7E-6   4.        
 0.86       1.2       -162.38E-6  4.        
 0.88       1.2       -163.03E-6  4.        
 0.9        1.2       -163.65E-6  4.        
 0.92       1.2       -164.25E-6  4.        
 0.94       1.2       -164.84E-6  4.        
 0.96       1.2       -165.4E-6   4.        
 0.98       1.2       -165.95E-6  4.        
 1.         1.2       -166.48E-6  4.        
 1.02       1.2       -167.E-6    4.        
 1.04       1.2       -167.5E-6   4.        
 1.06       1.2       -167.99E-6  4.        
 1.08       1.2       -168.47E-6  4.        
 1.1        1.2       -168.94E-6  4.        
 1.12       1.2       -169.39E-6  4.        
 1.14       1.2       -169.84E-6  4.        
 1.16       1.2       -170.27E-6  4.        
 1.18       1.2       -170.7E-6   4.        
 1.2        1.2       -171.12E-6  4.        
Gnucap   System status
iterations: op=0, dc=1466, tran=0, fourier=0, total=1466
transient timesteps: accepted=0, rejected=0, total=0
nodes: user=2, subckt=0, model=33, total=35
dctran density=60.1%, ac density=60.1%
