#           v(out)     i(tb.vdd_src) iter(0)   
 0.         1.1998    -40.629E-9  157.      
 0.02       1.1998    -41.007E-9  5.        
 0.04       1.1998    -41.648E-9  5.        
 0.06       1.1998    -42.841E-9  5.        
 0.08       1.1997    -45.067E-9  5.        
 0.1        1.1997    -49.156E-9  5.        
 0.12       1.1996    -56.665E-9  5.        
 0.14       1.1993    -70.271E-9  5.        
 0.16       1.199     -94.646E-9  5.        
 0.18       1.1983    -136.95E-9  5.        
 0.2        1.1971    -207.47E-9  5.        
 0.22       1.1951    -318.45E-9  5.        
 0.24       1.1922    -482.41E-9  5.        
 0.26       1.1879    -710.22E-9  5.        
 0.28       1.182     -1.0111E-6  5.        
 0.3        1.174     -1.3927E-6  5.        
 0.32       1.1634    -1.8616E-6  5.        
 0.34       1.1497    -2.4233E-6  5.        
 0.36       1.1318    -3.0819E-6  5.        
 0.38       1.1082    -3.8388E-6  5.        
 0.4        1.076     -4.6915E-6  5.        
 0.42       1.0283    -5.6274E-6  6.        
 0.44       0.93758   -6.5889E-6  6.        
 0.46       0.58991   -7.036E-6   7.        
 0.48       0.18604   -6.5589E-6  8.        
 0.5        0.10854   -5.9588E-6  7.        
 0.52       0.078706  -5.3734E-6  6.        
 0.54       0.060532  -4.8158E-6  5.        
 0.56       0.047763  -4.2886E-6  5.        
 0.58       0.038172  -3.7929E-6  5.        
 0.6        0.030693  -3.3292E-6  5.        
 0.62       0.024726  -2.898E-6   5.        
 0.64       0.019893  -2.4995E-6  5.        
 0.66       0.015945  -2.1337E-6  5.        
 0.68       0.012701  -1.8003E-6  5.        
 0.7        0.010032  -1.4994E-6  5.        
 0.72       0.007838  -1.2302E-6  5.        
 0.74       0.0060415 -992.31E-9  5.        
 0.76       0.0045806 -784.94E-9  5.        
 0.78       0.003405  -607.06E-9  5.        
 0.8        0.0024722 -457.41E-9  5.        
 0.82       0.0017462 -334.52E-9  5.        
 0.84       0.0011949 -236.56E-9  5.        
 0.86       789.41E-6 -161.19E-9  5.        
 0.88       502.57E-6 -105.69E-9  5.        
 0.9        308.66E-6 -66.735E-9  5.        
 0.92       183.7E-6  -40.789E-9  5.        
 0.94       106.73E-6 -24.258E-9  5.        
 0.96       61.03E-6  -14.203E-9  5.        
 0.98       34.595E-6  0.         5.        
 1.         19.554E-6  0.         5.        
 1.02       11.077E-6  0.         5.        
 1.04       6.325E-6   0.         5.        
 1.06       3.6698E-6  0.         5.        
 1.08       2.1914E-6  0.         5.        
 1.1        1.3728E-6  0.         5.        
 1.12       924.7E-9   0.         5.        
 1.14       685.38E-9  0.         5.        
 1.16       564.3E-9   0.         5.        
 1.18       510.8E-9   0.         5.        
 1.2        496.55E-9  0.         5.        
Gnucap   System status
iterations: op=0, dc=467, tran=0, fourier=0, total=467
transient timesteps: accepted=0, rejected=0, total=0
nodes: user=2, subckt=1, model=30, total=33
dctran density=26.8%, ac density=26.8%
