#           v(out)     i(tb.vdd_src) iter(0)   
 0.         1.1998    -40.294E-9  157.      
 0.02       1.1998    -40.338E-9  5.        
 0.04       1.1998    -40.382E-9  5.        
 0.06       1.1998    -40.542E-9  5.        
 0.08       1.1998    -40.833E-9  5.        
 0.1        1.1998    -41.357E-9  5.        
 0.12       1.1997    -42.361E-9  5.        
 0.14       1.1997    -44.18E-9   5.        
 0.16       1.1996    -47.57E-9   5.        
 0.18       1.1995    -53.886E-9  5.        
 0.2        1.1993    -65.367E-9  5.        
 0.22       1.1989    -86.118E-9  5.        
 0.24       1.1981    -122.54E-9  5.        
 0.26       1.1968    -183.98E-9  5.        
 0.28       1.1947    -282.07E-9  5.        
 0.3        1.1913    -428.84E-9  5.        
 0.32       1.1862    -634.89E-9  5.        
 0.34       1.179     -908.67E-9  5.        
 0.36       1.169     -1.2572E-6  5.        
 0.38       1.1553    -1.6863E-6  5.        
 0.4        1.1364    -2.2004E-6  5.        
 0.42       1.1096    -2.8009E-6  5.        
 0.44       1.0684    -3.4825E-6  6.        
 0.46       0.98537   -4.2074E-6  6.        
 0.48       0.5857    -4.4961E-6  6.        
 0.5        0.1524    -4.0975E-6  10.       
 0.52       0.083559  -3.6331E-6  7.        
 0.54       0.057978  -3.1901E-6  6.        
 0.56       0.042687  -2.7763E-6  6.        
 0.58       0.0322    -2.3933E-6  5.        
 0.6        0.024544  -2.0414E-6  5.        
 0.62       0.01876   -1.7207E-6  5.        
 0.64       0.014304  -1.431E-6   5.        
 0.66       0.010835  -1.172E-6   5.        
 0.68       0.0081221 -943.17E-9  5.        
 0.7        0.0060018 -743.79E-9  5.        
 0.72       0.0043543 -572.95E-9  5.        
 0.74       0.0030877 -429.51E-9  5.        
 0.76       0.00213   -312.01E-9  5.        
 0.78       0.0014226 -218.66E-9  5.        
 0.8        916.13E-6 -147.32E-9  5.        
 0.82       567.58E-6 -95.199E-9  5.        
 0.84       338.65E-6 -59.124E-9  5.        
 0.86       195.58E-6 -35.448E-9  5.        
 0.88       110.22E-6 -20.664E-9  5.        
 0.9        61.133E-6  0.         5.        
 0.92       33.611E-6  0.         5.        
 0.94       18.411E-6  0.         5.        
 0.96       10.083E-6  0.         5.        
 0.98       5.5364E-6  0.         5.        
 1.         3.0577E-6  0.         5.        
 1.02       1.7066E-6  0.         5.        
 1.04       970.43E-9  0.         5.        
 1.06       569.87E-9  0.         5.        
 1.08       352.95E-9  0.         5.        
 1.1        236.81E-9  0.         5.        
 1.12       176.22E-9  0.         5.        
 1.14       146.46E-9  0.         5.        
 1.16       134.E-9    0.         5.        
 1.18       131.41E-9  0.         5.        
 1.2        134.63E-9  0.         4.        
Gnucap   System status
iterations: op=0, dc=468, tran=0, fourier=0, total=468
transient timesteps: accepted=0, rejected=0, total=0
nodes: user=2, subckt=1, model=30, total=33
dctran density=26.8%, ac density=26.8%
