#           v(vgs1)    v(vgs2)    v(vgs3)    v(vgs4)   
 1.         0.43666    0.43008   -0.70905   -0.70426   
 2.         0.4313     0.43503   -0.71007   -0.70992   
 3.         0.43057    0.43075   -0.71131   -0.70603   
 4.         0.43776    0.42974   -0.70936   -0.70705   
 5.         0.43301    0.4334    -0.71279   -0.70646   
 6.         0.43836    0.43596   -0.70775   -0.70802   
 7.         0.43085    0.44069   -0.71201   -0.71064   
 8.         0.43817    0.42997   -0.70465   -0.70469   
 9.         0.42518    0.43503   -0.70048   -0.71207   
 10.        0.42193    0.4321    -0.70473   -0.71214   
 11.        0.42279    0.43782   -0.71535   -0.7093    
 12.        0.43957    0.4402    -0.71036   -0.71047   
 13.        0.43686    0.43654   -0.71081   -0.70783   
 14.        0.43658    0.43976   -0.70907   -0.71004   
 15.        0.43087    0.43847   -0.71367   -0.71079   
 16.        0.44015    0.42728   -0.70882   -0.70695   
 17.        0.43115    0.43175   -0.70967   -0.70778   
 18.        0.43336    0.43506   -0.7084    -0.70934   
 19.        0.42864    0.43338   -0.71323   -0.70218   
 20.        0.43932    0.42623   -0.70314   -0.71074   
 21.        0.42281    0.42687   -0.71445   -0.70928   
 22.        0.4415     0.43197   -0.70607   -0.71628   
 23.        0.4249     0.42964   -0.7101    -0.71574   
 24.        0.43746    0.43149   -0.71059   -0.70822   
 25.        0.43481    0.42495   -0.71128   -0.71508   
 26.        0.43462    0.43424   -0.70806   -0.71005   
 27.        0.43235    0.43232   -0.7164    -0.70924   
 28.        0.44315    0.43049   -0.70994   -0.70901   
 29.        0.4321     0.43447   -0.70626   -0.71169   
 30.        0.42896    0.43769   -0.70757   -0.70455   
 31.        0.42809    0.43157   -0.71419   -0.70682   
 32.        0.43976    0.4419    -0.70354   -0.71684   
 33.        0.42297    0.42459   -0.71422   -0.70936   
 34.        0.44141    0.42491   -0.70633   -0.708     
 35.        0.42623    0.42343   -0.7122    -0.71484   
 36.        0.43789    0.43335   -0.70915   -0.70875   
 37.        0.43174    0.43677   -0.70781   -0.70727   
 38.        0.43024    0.43597   -0.71566   -0.70531   
 39.        0.44319    0.42743   -0.71239   -0.71202   
 40.        0.4355     0.42919   -0.70706   -0.71395   
 41.        0.42896    0.44129   -0.70962   -0.70417   
 42.        0.43085    0.42982   -0.70372   -0.71317   
 43.        0.42537    0.42742   -0.70771   -0.70934   
 44.        0.43228    0.4423    -0.70601   -0.7099    
 45.        0.42529    0.4347    -0.71277   -0.71219   
 46.        0.43947    0.43493   -0.70635   -0.70301   
 47.        0.42927    0.4313    -0.71178   -0.70997   
 48.        0.43635    0.43153   -0.70637   -0.70641   
 49.        0.42687    0.42357   -0.71356   -0.71444   
 50.        0.43879    0.43321   -0.71121   -0.70954   
 51.        0.43311    0.42997   -0.71195   -0.70717   
 52.        0.43736    0.43972   -0.70759   -0.71176   
 53.        0.4301     0.43585   -0.71618   -0.70952   
 54.        0.44289    0.43067   -0.70434   -0.713     
 55.        0.42367    0.43576   -0.7092    -0.71257   
 56.        0.43258    0.43224   -0.70777   -0.70704   
 57.        0.42653    0.42556   -0.71262   -0.70267   
 58.        0.43862    0.4356    -0.70373   -0.7127    
 59.        0.42486    0.43102   -0.71323   -0.70541   
 60.        0.4392     0.4389    -0.71242   -0.71084   
 61.        0.43661    0.43592   -0.71116   -0.70975   
 62.        0.43477    0.43204   -0.7117    -0.71412   
 63.        0.43876    0.43245   -0.70871   -0.70951   
 64.        0.43161    0.43629   -0.70624   -0.71043   
 65.        0.42778    0.42368   -0.71769   -0.70814   
 66.        0.44383    0.4338    -0.70887   -0.70906   
 67.        0.43261    0.4291    -0.71637   -0.70818   
 68.        0.44568    0.43508   -0.70572   -0.70338   
 69.        0.42735    0.43283   -0.71178   -0.71843   
 70.        0.43877    0.4381    -0.70739   -0.70982   
 71.        0.4276     0.44216   -0.71159   -0.71251   
 72.        0.43627    0.44133   -0.70976   -0.71278   
 73.        0.43339    0.44699   -0.71034   -0.71718   
 74.        0.43311    0.44666   -0.70718   -0.71144   
 75.        0.42918    0.43336   -0.70625   -0.71095   
 76.        0.42624    0.43268   -0.70642   -0.708     
 77.        0.42727    0.43675   -0.70872   -0.70737   
 78.        0.43203    0.42783   -0.70584   -0.70266   
 79.        0.42729    0.42748   -0.71508   -0.71341   
 80.        0.44059    0.43549   -0.70784   -0.70961   
 81.        0.43011    0.4405    -0.71453   -0.70547   
 82.        0.44182    0.43653   -0.70936   -0.71053   
 83.        0.4376     0.43048   -0.7057    -0.70786   
 84.        0.42934    0.42635   -0.70575   -0.70357   
 85.        0.42505    0.42674   -0.71126   -0.7051    
 86.        0.43668    0.43781   -0.70595   -0.7102    
 87.        0.42836    0.42847   -0.71452   -0.71265   
 88.        0.44281    0.44265   -0.69942   -0.7064    
 89.        0.4162     0.43034   -0.70926   -0.71377   
 90.        0.43479    0.44036   -0.70605   -0.70957   
 91.        0.42868    0.43429   -0.71216   -0.71681   
 92.        0.43691    0.4267    -0.71225   -0.70841   
 93.        0.43812    0.4379    -0.70999   -0.71196   
 94.        0.43506    0.43597   -0.71138   -0.70919   
 95.        0.43789    0.42841   -0.70954   -0.70561   
 96.        0.43407    0.43565   -0.71104   -0.71316   
 97.        0.43622    0.43724   -0.71515   -0.70865   
 98.        0.43789    0.43215   -0.71058   -0.70899   
 99.        0.4364     0.43595   -0.71752   -0.70711   
 100.       0.44752    0.42811   -0.70726   -0.71075   
 101.       0.42816    0.42874   -0.71162   -0.71707   
 102.       0.43914    0.43879   -0.70727   -0.70757   
 103.       0.43022    0.43096   -0.70932   -0.70251   
 104.       0.43264    0.42998   -0.71168   -0.71257   
 105.       0.43575    0.43428   -0.71072   -0.70537   
 106.       0.43384    0.43136   -0.71165   -0.7106    
 107.       0.43756    0.4305    -0.71216   -0.70953   
 108.       0.43547    0.43534   -0.70947   -0.71528   
 109.       0.43259    0.43028   -0.71278   -0.71211   
 110.       0.43856    0.42973   -0.71335   -0.70683   
 111.       0.4401     0.4374    -0.71853   -0.71538   
 112.       0.44856    0.43407   -0.70713   -0.70789   
 113.       0.42992    0.43598   -0.71353   -0.70996   
 114.       0.43849    0.43302   -0.7056    -0.71268   
 115.       0.42669    0.43786   -0.70539   -0.71003   
 116.       0.42965    0.43718   -0.70659   -0.71168   
 117.       0.43025    0.43405   -0.70793   -0.70531   
 118.       0.43265    0.43969   -0.71017   -0.71008   
 119.       0.43461    0.43386   -0.70661   -0.71041   
 120.       0.42771    0.43984   -0.70915   -0.70892   
 121.       0.43157    0.43311   -0.71333   -0.70809   
 122.       0.44       0.42961   -0.71036   -0.71049   
 123.       0.43093    0.43267   -0.71196   -0.71015   
 124.       0.43873    0.42557   -0.70902   -0.7071    
 125.       0.43134    0.43068   -0.7104    -0.70852   
 126.       0.43595    0.4326    -0.71065   -0.70835   
 127.       0.4343     0.42138   -0.7055    -0.7065    
 128.       0.42699    0.42232   -0.71179   -0.71343   
 129.       0.4356     0.43874   -0.7093    -0.7069    
 130.       0.43358    0.43708   -0.70911   -0.70078   
 131.       0.43384    0.44226   -0.7127    -0.70494   
 132.       0.43784    0.44397   -0.70736   -0.70691   
 133.       0.42815    0.43713   -0.71223   -0.71087   
 134.       0.43891    0.43351   -0.70643   -0.7141    
 135.       0.42746    0.43897   -0.71002   -0.71287   
 136.       0.43407    0.43015   -0.70855   -0.71138   
 137.       0.43008    0.4399    -0.70986   -0.70814   
 138.       0.43275    0.43061   -0.70621   -0.70877   
 139.       0.42959    0.43982   -0.7083    -0.71567   
 140.       0.43073    0.43247   -0.71284   -0.70861   
 141.       0.43682    0.43428   -0.70438   -0.71182   
 142.       0.42428    0.44293   -0.71252   -0.71132   
 143.       0.43849    0.42713   -0.71093   -0.70656   
 144.       0.43667    0.43143   -0.70301   -0.71468   
 145.       0.42493    0.43216   -0.71126   -0.7034    
 146.       0.43606    0.44474   -0.71137   -0.71707   
 147.       0.43433    0.44303   -0.70212   -0.70766   
 148.       0.42326    0.43516   -0.71281   -0.71147   
 149.       0.4384     0.43113   -0.7083    -0.71302   
 150.       0.42935    0.44315   -0.71381   -0.7105    
 151.       0.44005    0.43151   -0.7092    -0.70959   
 152.       0.43368    0.42461   -0.70867   -0.70659   
 153.       0.43275    0.43568   -0.71221   -0.70962   
 154.       0.43735    0.43657   -0.71228   -0.70431   
 155.       0.43617    0.43367   -0.70913   -0.70457   
 156.       0.43119    0.4383    -0.71576   -0.71134   
 157.       0.44124    0.42992   -0.70579   -0.70469   
 158.       0.42691    0.44399   -0.70899   -0.71763   
 159.       0.43602    0.43979   -0.70895   -0.70823   
 160.       0.43207    0.44052   -0.70863   -0.71263   
 161.       0.43065    0.4334    -0.70551   -0.70967   
 162.       0.42887    0.43429   -0.71053   -0.71229   
 163.       0.4335     0.44135   -0.70816   -0.7119    
 164.       0.43163    0.43433   -0.71172   -0.70918   
 165.       0.43587    0.43524   -0.70765   -0.71212   
 166.       0.4293     0.42927   -0.71314   -0.70856   
 167.       0.43819    0.43275   -0.71988   -0.70723   
 168.       0.45119    0.42462   -0.71572   -0.71611   
 169.       0.43975    0.4281    -0.70795   -0.70895   
 170.       0.42938    0.42846   -0.71435   -0.71192   
 171.       0.44168    0.43197   -0.71076   -0.70663   
 172.       0.43319    0.42503   -0.71075   -0.7115    
 173.       0.43342    0.43771   -0.7088    -0.71418   
 174.       0.43191    0.43689   -0.70501   -0.70736   
 175.       0.42475    0.44128   -0.71048   -0.70163   
 176.       0.43381    0.4345    -0.71219   -0.70875   
 177.       0.43697    0.43552   -0.70582   -0.71836   
 178.       0.42468    0.44472   -0.71225   -0.70799   
 179.       0.43866    0.43023   -0.7031    -0.71104   
 180.       0.42324    0.44302   -0.71225   -0.71616   
 181.       0.43866    0.42664   -0.70812   -0.70737   
 182.       0.4297     0.4283    -0.71282   -0.70694   
 183.       0.43911    0.42968   -0.70944   -0.7113    
 184.       0.43286    0.42845   -0.70857   -0.71341   
 185.       0.42943    0.43863   -0.71132   -0.70658   
 186.       0.43369    0.43591   -0.70941   -0.70705   
 187.       0.43472    0.4319    -0.71485   -0.70601   
 188.       0.44406    0.43465   -0.71488   -0.71067   
 189.       0.43935    0.43455   -0.70249   -0.70737   
 190.       0.42034    0.43634   -0.71383   -0.71153   
 191.       0.43972    0.44076   -0.7061    -0.70557   
 192.       0.42673    0.4351    -0.7124    -0.70965   
 193.       0.43744    0.42344   -0.70837   -0.7063    
 194.       0.43055    0.43147   -0.71135   -0.71062   
 195.       0.4346     0.42611   -0.71187   -0.71448   
 196.       0.43883    0.42997   -0.70845   -0.71159   
 197.       0.4324     0.43378   -0.71035   -0.7168    
 198.       0.43164    0.43753   -0.71135   -0.70604   
 199.       0.4382     0.43288   -0.71038   -0.70986   
 200.       0.43526    0.44015   -0.71187   -0.71356   
 201.       0.43538    0.43695   -0.70188   -0.70783   
 202.       0.42238    0.43565   -0.71273   -0.70906   
 203.       0.44056    0.44025   -0.70606   -0.70641   
 204.       0.42727    0.43873   -0.71062   -0.71501   
 205.       0.43553    0.43057   -0.70995   -0.70916   
 206.       0.43163    0.43705   -0.70698   -0.7141    
 207.       0.42745    0.42979   -0.71302   -0.71034   
 208.       0.43969    0.42121   -0.70953   -0.71404   
 209.       0.43619    0.44007   -0.70936   -0.7079    
 210.       0.43258    0.43296   -0.71071   -0.71109   
 211.       0.43362    0.42567   -0.70709   -0.70488   
 212.       0.42884    0.44591   -0.7166    -0.71266   
 213.       0.44267    0.42624   -0.70488   -0.7059    
 214.       0.42521    0.43118   -0.71414   -0.70926   
 215.       0.43836    0.43957   -0.70869   -0.70613   
 216.       0.43091    0.43037   -0.70527   -0.70712   
 217.       0.42773    0.41949   -0.71368   -0.70911   
 218.       0.43885    0.43883   -0.70779   -0.71011   
 219.       0.42928    0.42999   -0.71309   -0.71534   
 220.       0.43838    0.43882   -0.70891   -0.70782   
 221.       0.42977    0.43821   -0.70848   -0.70921   
 222.       0.43232    0.43339   -0.71067   -0.70732   
 223.       0.43485    0.43295   -0.70472   -0.7032    
 224.       0.42488    0.4356    -0.71406   -0.71243   
 225.       0.44188    0.4221    -0.70853   -0.71183   
 226.       0.43155    0.43464   -0.71271   -0.71185   
 227.       0.43815    0.42478   -0.70853   -0.70941   
 228.       0.43284    0.43806   -0.71061   -0.70959   
 229.       0.43403    0.43742   -0.70961   -0.70912   
 230.       0.43137    0.433     -0.70685   -0.71734   
 231.       0.42858    0.42719   -0.70833   -0.7098    
 232.       0.43059    0.43447   -0.7117    -0.70636   
 233.       0.43611    0.43107   -0.70175   -0.70792   
 234.       0.4207     0.42913   -0.71695   -0.71263   
 235.       0.44379    0.43757   -0.71006   -0.70333   
 236.       0.43228    0.4317    -0.71491   -0.71626   
 237.       0.44101    0.43448   -0.70714   -0.71258   
 238.       0.42943    0.43435   -0.7118    -0.7088    
 239.       0.43685    0.43152   -0.7117    -0.71464   
 240.       0.43664    0.42628   -0.70848   -0.70716   
 241.       0.42896    0.4237    -0.71114   -0.71628   
 242.       0.4347     0.43288   -0.70984   -0.71777   
 243.       0.43658    0.43338   -0.70381   -0.71272   
 244.       0.42358    0.44694   -0.71432   -0.71049   
 245.       0.4408     0.43851   -0.70434   -0.70776   
 246.       0.42557    0.44109   -0.71674   -0.71809   
 247.       0.4441     0.42871   -0.70855   -0.71445   
 248.       0.43035    0.43627   -0.71346   -0.71238   
 249.       0.43894    0.4296    -0.70844   -0.71424   
 250.       0.43061    0.44376   -0.71104   -0.70534   
 251.       0.43463    0.43405   -0.70747   -0.71036   
 252.       0.42963    0.4405    -0.71166   -0.70949   
 253.       0.43489    0.43009   -0.71071   -0.70827   
 254.       0.43213    0.43115   -0.71288   -0.71091   
 255.       0.43737    0.42887   -0.70833   -0.70901   
 256.       0.42849    0.42905   -0.71497   -0.71611   
 257.       0.44375    0.42668   -0.7085    -0.7097    
 258.       0.42825    0.42528   -0.71304   -0.71048   
 259.       0.44087    0.43221   -0.71177   -0.71204   
 260.       0.43792    0.42734   -0.71301   -0.70732   
 261.       0.43663    0.42998   -0.70715   -0.71025   
 262.       0.43062    0.43023   -0.70695   -0.70528   
 263.       0.42934    0.43263   -0.70558   -0.7119    
 264.       0.42676    0.43571   -0.70693   -0.71073   
 265.       0.42581    0.43258   -0.70905   -0.707     
 266.       0.43105    0.44058   -0.71447   -0.71676   
 267.       0.43958    0.42791   -0.70564   -0.71002   
 268.       0.42767    0.44183   -0.71767   -0.70977   
 269.       0.44707    0.43538   -0.70761   -0.71099   
 270.       0.42884    0.43572   -0.71381   -0.70839   
 271.       0.44036    0.42641   -0.70473   -0.71055   
 272.       0.42595    0.43156   -0.71216   -0.70636   
 273.       0.43605    0.43366   -0.71397   -0.71361   
 274.       0.4392     0.42976   -0.70966   -0.7152    
 275.       0.43434    0.43636   -0.70791   -0.70905   
 276.       0.42933    0.42957   -0.71374   -0.71939   
 277.       0.43965    0.43455   -0.70858   -0.70996   
 278.       0.43056    0.42543   -0.71523   -0.71047   
 279.       0.44064    0.43572   -0.70756   -0.71274   
 280.       0.42986    0.44119   -0.71609   -0.71      
 281.       0.44572    0.43472   -0.7107    -0.70781   
 282.       0.43288    0.43371   -0.70595   -0.70969   
 283.       0.42996    0.43646   -0.71255   -0.70747   
 284.       0.43583    0.43757   -0.7106    -0.7061    
 285.       0.4342     0.42817   -0.71148   -0.71513   
 286.       0.43691    0.43953   -0.71403   -0.71422   
 287.       0.43965    0.42998   -0.70915   -0.71823   
 288.       0.43196    0.43205   -0.71063   -0.71098   
 289.       0.43635    0.43999   -0.70918   -0.70553   
 290.       0.43075    0.432     -0.71647   -0.70978   
 291.       0.44363    0.43879   -0.71027   -0.7084    
 292.       0.43438    0.43697   -0.71274   -0.70279   
 293.       0.43923    0.43616   -0.71138   -0.70635   
 294.       0.43748    0.43412   -0.7111    -0.71622   
 295.       0.43597    0.43198   -0.71274   -0.70561   
 296.       0.43699    0.44722   -0.71164   -0.71084   
 297.       0.43579    0.43814   -0.70885   -0.71111   
 298.       0.43261    0.43816   -0.71522   -0.71389   
 299.       0.43835    0.4316    -0.7101    -0.70431   
 300.       0.43373    0.42849   -0.71267   -0.71093   
 301.       0.43774    0.42354   -0.71149   -0.70416   
 302.       0.43621    0.43122   -0.70101   -0.70908   
 303.       0.42085    0.42937   -0.7086    -0.7112    
 304.       0.43223    0.43241   -0.70701   -0.70494   
 305.       0.42899    0.42983   -0.70491   -0.71649   
 306.       0.42925    0.42444   -0.71101   -0.70725   
 307.       0.43371    0.43965   -0.71455   -0.71105   
 308.       0.44071    0.43744   -0.71014   -0.71196   
 309.       0.43392    0.43804   -0.71172   -0.70476   
 310.       0.43706    0.43619   -0.71029   -0.71083   
 311.       0.43343    0.43355   -0.70447   -0.70364   
 312.       0.42565    0.42813   -0.71112   -0.7002    
 313.       0.43441    0.43772   -0.71201   -0.71022   
 314.       0.43488    0.42501   -0.70819   -0.7126    
 315.       0.43181    0.44344   -0.70935   -0.70776   
 316.       0.43281    0.4376    -0.70969   -0.7076    
 317.       0.43287    0.43119   -0.7105    -0.7104    
 318.       0.43433    0.4342    -0.70637   -0.71031   
 319.       0.42827    0.43728   -0.70757   -0.70959   
 320.       0.42973    0.42453   -0.70978   -0.711     
 321.       0.43337    0.42523   -0.7088    -0.71109   
 322.       0.43128    0.43264   -0.70969   -0.7107    
 323.       0.43138    0.42531   -0.71002   -0.70803   
 324.       0.43597    0.43351   -0.70274   -0.70978   
 325.       0.42124    0.43587   -0.71213   -0.71427   
 326.       0.43657    0.43298   -0.70851   -0.71031   
 327.       0.43353    0.4337    -0.7154    -0.71097   
 328.       0.44269    0.43901   -0.70971   -0.70825   
 329.       0.43614    0.43495   -0.70597   -0.70966   
 330.       0.42883    0.42658   -0.70791   -0.71561   
 331.       0.42878    0.43085   -0.70842   -0.71564   
 332.       0.43299    0.4351    -0.7101    -0.7163    
 333.       0.43194    0.44452   -0.70896   -0.70253   
 334.       0.43263    0.43196   -0.70843   -0.71103   
 335.       0.43067    0.42973   -0.71251   -0.71513   
 336.       0.43724    0.43613   -0.70359   -0.70185   
 337.       0.42354    0.43622   -0.7114    -0.71051   
 338.       0.43726    0.43368   -0.70815   -0.71693   
 339.       0.43073    0.4411    -0.70813   -0.70792   
 340.       0.42927    0.42578   -0.70991   -0.70981   
 341.       0.43295    0.43237   -0.70702   -0.70573   
 342.       0.42824    0.42563   -0.70943   -0.71427   
 343.       0.43379    0.4268    -0.70683   -0.70331   
 344.       0.42922    0.4326    -0.70896   -0.70865   
 345.       0.43129    0.43073   -0.71095   -0.71463   
 346.       0.43711    0.42834   -0.70581   -0.70875   
 347.       0.42378    0.43442   -0.71209   -0.71182   
 348.       0.43808    0.43678   -0.70708   -0.70374   
 349.       0.42854    0.42824   -0.7128    -0.7097    
 350.       0.43724    0.43644   -0.70908   -0.70895   
 351.       0.43022    0.4415    -0.70626   -0.71099   
 352.       0.4257     0.4288    -0.70992   -0.71501   
 353.       0.43346    0.44386   -0.70986   -0.70985   
 354.       0.43301    0.43621   -0.70807   -0.70916   
 355.       0.43168    0.43439   -0.70768   -0.70637   
 356.       0.42876    0.43512   -0.70677   -0.70916   
