#           v(out)     i(tb.vdd_src) iter(0)   
 0.         1.1998    -40.265E-9  157.      
 0.02       1.1998    -40.251E-9  4.        
 0.04       1.1998    -40.251E-9  4.        
 0.06       1.1998    -40.294E-9  4.        
 0.08       1.1998    -40.338E-9  5.        
 0.1        1.1998    -40.367E-9  5.        
 0.12       1.1998    -40.469E-9  5.        
 0.14       1.1997    -40.6E-9    5.        
 0.16       1.1997    -40.935E-9  5.        
 0.18       1.1997    -41.575E-9  5.        
 0.2        1.1997    -42.87E-9   5.        
 0.22       1.1996    -45.271E-9  5.        
 0.24       1.1995    -49.782E-9  5.        
 0.26       1.1993    -58.164E-9  5.        
 0.28       1.1989    -73.691E-9  5.        
 0.3        1.1982    -101.76E-9  5.        
 0.32       1.1968    -150.51E-9  5.        
 0.34       1.1945    -230.98E-9  5.        
 0.36       1.1906    -355.07E-9  5.        
 0.38       1.1846    -533.55E-9  5.        
 0.4        1.1755    -774.77E-9  5.        
 0.42       1.1621    -1.085E-6   5.        
 0.44       1.1422    -1.4687E-6  5.        
 0.46       1.1106    -1.9265E-6  6.        
 0.48       1.048     -2.4438E-6  6.        
 0.5        0.68553   -2.7261E-6  7.        
 0.52       0.14905   -2.4382E-6  9.        
 0.54       0.066731  -2.096E-6   8.        
 0.56       0.042907  -1.7753E-6  6.        
 0.58       0.02959   -1.4835E-6  6.        
 0.6        0.020914  -1.2213E-6  5.        
 0.62       0.014888  -988.25E-9  5.        
 0.64       0.010567  -784.1E-9   5.        
 0.66       0.0074228 -608.04E-9  5.        
 0.68       0.0051271 -459.03E-9  5.        
 0.7        0.0034605 -335.93E-9  5.        
 0.72       0.0022682 -237.11E-9  5.        
 0.74       0.0014355 -160.68E-9  5.        
 0.76       873.66E-6 -104.22E-9  5.        
 0.78       510.84E-6 -64.669E-9  5.        
 0.8        288.01E-6 -38.563E-9  5.        
 0.82       157.81E-6 -22.235E-9  5.        
 0.84       84.843E-6 -12.587E-9  5.        
 0.86       45.131E-6  0.         5.        
 0.88       23.893E-6  0.         5.        
 0.9        12.637E-6  0.         5.        
 0.92       6.6917E-6  0.         5.        
 0.94       3.5538E-6  0.         5.        
 0.96       1.896E-6   0.         5.        
 0.98       1.0188E-6  0.         5.        
 1.         553.77E-9  0.         5.        
 1.02       306.93E-9  0.         5.        
 1.04       175.9E-9   0.         5.        
 1.06       106.53E-9  0.         5.        
 1.08       70.105E-9  0.         5.        
 1.1        51.373E-9  0.         5.        
 1.12       42.207E-9  0.         5.        
 1.14       38.269E-9  0.         4.        
 1.16       37.242E-9  0.         4.        
 1.18       37.888E-9  0.         4.        
 1.2        39.546E-9  0.         4.        
Gnucap   System status
iterations: op=0, dc=463, tran=0, fourier=0, total=463
transient timesteps: accepted=0, rejected=0, total=0
nodes: user=2, subckt=1, model=30, total=33
dctran density=26.8%, ac density=26.8%
