#           v(out)     i(tb.vdd_src) iter(0)   
 0.         1.2        0.         15.       
did not converge
 0.02       1.2        0.         226.      
 0.04       1.2        0.         10.       
did not converge
 0.06       1.2        0.         207.      
 0.08       1.2        0.         10.       
 0.1        1.1999     0.         6.        
 0.12       1.1999     0.         5.        
 0.14       1.1998     0.         5.        
 0.16       1.1996    -20.314E-9  5.        
 0.18       1.1993    -37.122E-9  5.        
 0.2        1.1987    -66.924E-9  5.        
 0.22       1.1976    -118.12E-9  5.        
 0.24       1.1958    -201.67E-9  5.        
 0.26       1.1929    -329.91E-9  5.        
 0.28       1.1885    -514.47E-9  5.        
 0.3        1.1821    -765.01E-9  5.        
 0.32       1.1731    -1.0894E-6  5.        
 0.34       1.1607    -1.4941E-6  5.        
 0.36       1.1438    -1.9842E-6  5.        
 0.38       1.1201    -2.5627E-6  5.        
 0.4        1.0854    -3.2279E-6  6.        
 0.42       1.0253    -3.962E-6   6.        
 0.44       0.81549   -4.5746E-6  7.        
 0.46       0.25461   -4.3526E-6  6.        
 0.48       0.10038   -3.8954E-6  9.        
 0.5        0.066561  -3.4391E-6  6.        
 0.52       0.048349  -3.0103E-6  6.        
 0.54       0.036324  -2.6115E-6  5.        
 0.56       0.027699  -2.2433E-6  5.        
 0.58       0.021242  -1.9058E-6  5.        
 0.6        0.016287  -1.5992E-6  5.        
 0.62       0.012431  -1.3231E-6  5.        
 0.64       0.0094078 -1.0772E-6  5.        
 0.66       0.0070334 -860.86E-9  5.        
 0.68       0.0051742 -673.27E-9  5.        
 0.7        0.0037297 -513.61E-9  5.        
 0.72       0.002622  -380.53E-9  5.        
 0.74       0.0017887 -272.6E-9   5.        
 0.76       0.0011782 -187.98E-9  5.        
 0.78       746.5E-6  -124.32E-9  5.        
 0.8        454.21E-6 -78.726E-9  5.        
 0.82       266.04E-6 -47.905E-9  5.        
 0.84       151.E-6   -28.173E-9  5.        
 0.86       83.811E-6 -16.153E-9  5.        
 0.88       45.889E-6  0.         5.        
 0.9        24.958E-6  0.         5.        
 0.92       13.549E-6  0.         5.        
 0.94       7.3703E-6  0.         5.        
 0.96       4.0338E-6  0.         5.        
 0.98       2.2343E-6  0.         5.        
 1.         1.265E-6   0.         5.        
 1.02       744.24E-9  0.         5.        
 1.04       466.41E-9  0.         5.        
 1.06       320.5E-9   0.         5.        
 1.08       246.6E-9   0.         5.        
 1.1        212.33E-9  0.         5.        
 1.12       200.14E-9  0.         5.        
 1.14       200.55E-9  0.         5.        
 1.16       208.43E-9  0.         4.        
 1.18       221.E-9    0.         4.        
 1.2        236.81E-9  0.         4.        
Gnucap   System status
iterations: op=0, dc=757, tran=0, fourier=0, total=757
transient timesteps: accepted=0, rejected=0, total=0
nodes: user=2, subckt=1, model=66, total=69
dctran density=33.4%, ac density=33.4%
