#           v(out)     i(tb.vdd_src) iter(0)   
 0.         1.1553    -10.09E-6   156.      
 0.02       1.1546    -10.089E-6  4.        
 0.04       1.1538    -10.087E-6  4.        
 0.06       1.1529    -10.086E-6  4.        
 0.08       1.1519    -10.085E-6  4.        
 0.1        1.1509    -10.086E-6  4.        
 0.12       1.1497    -10.09E-6   5.        
 0.14       1.1484    -10.1E-6    5.        
 0.16       1.1468    -10.119E-6  5.        
 0.18       1.1449    -10.155E-6  5.        
 0.2        1.1423    -10.216E-6  5.        
 0.22       1.1388    -10.314E-6  5.        
 0.24       1.1342    -10.461E-6  5.        
 0.26       1.1279    -10.666E-6  5.        
 0.28       1.1197    -10.937E-6  5.        
 0.3        1.109     -11.279E-6  5.        
 0.32       1.095     -11.698E-6  5.        
 0.34       1.0766    -12.194E-6  5.        
 0.36       1.0522    -12.765E-6  5.        
 0.38       1.0181    -13.4E-6    5.        
 0.4        0.96567   -14.059E-6  6.        
 0.42       0.86508   -14.599E-6  6.        
 0.44       0.63632   -14.579E-6  6.        
 0.46       0.34808   -14.098E-6  5.        
 0.48       0.16102   -13.51E-6   7.        
 0.5        0.10854   -5.9588E-6  7.        
 0.52       0.078706  -5.3734E-6  6.        
 0.54       0.060532  -4.8158E-6  5.        
 0.56       0.047763  -4.2886E-6  5.        
 0.58       0.038172  -3.7929E-6  5.        
 0.6        0.030693  -3.3292E-6  5.        
 0.62       0.024726  -2.8981E-6  5.        
 0.64       0.019893  -2.4996E-6  5.        
 0.66       0.015945  -2.1337E-6  5.        
 0.68       0.012701  -1.8004E-6  5.        
 0.7        0.010032  -1.4994E-6  5.        
 0.72       0.007838  -1.2302E-6  5.        
 0.74       0.0060415 -992.35E-9  5.        
 0.76       0.0045806 -784.99E-9  5.        
 0.78       0.003405  -607.09E-9  5.        
 0.8        0.0024722 -457.45E-9  5.        
 0.82       0.0017462 -334.55E-9  5.        
 0.84       0.0011949 -236.59E-9  5.        
 0.86       789.41E-6 -161.24E-9  5.        
 0.88       502.57E-6 -105.73E-9  5.        
 0.9        308.66E-6 -66.764E-9  5.        
 0.92       183.7E-6  -40.804E-9  5.        
 0.94       106.73E-6 -24.302E-9  5.        
 0.96       61.03E-6  -14.232E-9  5.        
 0.98       34.595E-6  0.         5.        
 1.         19.554E-6  0.         5.        
 1.02       11.077E-6  0.         5.        
 1.04       6.325E-6   0.         5.        
 1.06       3.6698E-6  0.         5.        
 1.08       2.1914E-6  0.         5.        
 1.1        1.3728E-6  0.         5.        
 1.12       924.71E-9  0.         5.        
 1.14       685.38E-9  0.         5.        
 1.16       564.3E-9   0.         5.        
 1.18       510.8E-9   0.         5.        
 1.2        496.55E-9  0.         5.        
Gnucap   System status
iterations: op=0, dc=459, tran=0, fourier=0, total=459
transient timesteps: accepted=0, rejected=0, total=0
nodes: user=2, subckt=1, model=66, total=69
dctran density=33.4%, ac density=33.4%
