#           v(g)       i(tb.sd)   iter(0)   
 0.         0.2        7.538E-15  4.        
 0.02       0.2       -17.335E-9  4.        
 0.04       0.2       -25.996E-9  4.        
 0.06       0.2       -30.419E-9  4.        
 0.08       0.2       -32.902E-9  4.        
 0.1        0.2       -34.557E-9  4.        
 0.12       0.2       -35.874E-9  4.        
 0.14       0.2       -37.056E-9  4.        
 0.16       0.2       -38.184E-9  4.        
 0.18       0.2       -39.294E-9  4.        
 0.2        0.2       -40.396E-9  4.        
 0.22       0.2       -41.495E-9  4.        
 0.24       0.2       -42.593E-9  4.        
 0.26       0.2       -43.692E-9  4.        
 0.28       0.2       -44.784E-9  4.        
 0.3        0.2       -45.868E-9  4.        
 0.32       0.2       -46.952E-9  4.        
 0.34       0.2       -48.029E-9  4.        
 0.36       0.2       -49.091E-9  4.        
 0.38       0.2       -50.153E-9  4.        
 0.4        0.2       -51.215E-9  4.        
 0.42       0.2       -52.256E-9  4.        
 0.44       0.2       -53.296E-9  4.        
 0.46       0.2       -54.33E-9   4.        
 0.48       0.2       -55.348E-9  4.        
 0.5        0.2       -56.352E-9  4.        
 0.52       0.2       -57.349E-9  4.        
 0.54       0.2       -58.339E-9  4.        
 0.56       0.2       -59.321E-9  4.        
 0.58       0.2       -60.281E-9  4.        
 0.6        0.2       -61.256E-9  4.        
 0.62       0.2       -62.195E-9  4.        
 0.64       0.2       -63.148E-9  4.        
 0.66       0.2       -64.101E-9  4.        
 0.68       0.2       -65.003E-9  4.        
 0.7        0.2       -65.92E-9   4.        
 0.72       0.2       -66.851E-9  4.        
 0.74       0.2       -67.725E-9  4.        
 0.76       0.2       -68.641E-9  4.        
 0.78       0.2       -69.529E-9  4.        
 0.8        0.2       -70.402E-9  4.        
 0.82       0.2       -71.261E-9  4.        
 0.84       0.2       -72.119E-9  4.        
 0.86       0.2       -72.992E-9  4.        
 0.88       0.2       -73.836E-9  4.        
 0.9        0.2       -74.666E-9  4.        
 0.92       0.2       -75.495E-9  4.        
 0.94       0.2       -76.31E-9   4.        
 0.96       0.2       -77.125E-9  4.        
 0.98       0.2       -77.926E-9  4.        
 1.         0.2       -78.74E-9   4.        
 1.02       0.2       -79.541E-9  4.        
 1.04       0.2       -80.312E-9  4.        
 1.06       0.2       -81.112E-9  4.        
 1.08       0.2       -81.884E-9  4.        
 1.1        0.2       -82.655E-9  4.        
 1.12       0.2       -83.426E-9  4.        
 1.14       0.2       -84.168E-9  4.        
 1.16       0.2       -84.925E-9  4.        
 1.18       0.2       -85.682E-9  4.        
 1.2        0.2       -86.409E-9  4.        
 0.         0.4        423.2E-15  4.        
 0.02       0.4       -1.4283E-6  4.        
 0.04       0.4       -2.4921E-6  4.        
 0.06       0.4       -3.2372E-6  4.        
 0.08       0.4       -3.7302E-6  4.        
 0.1        0.4       -4.048E-6   4.        
 0.12       0.4       -4.2581E-6  4.        
 0.14       0.4       -4.4077E-6  4.        
 0.16       0.4       -4.5247E-6  4.        
 0.18       0.4       -4.6242E-6  4.        
 0.2        0.4       -4.7141E-6  4.        
 0.22       0.4       -4.7983E-6  4.        
 0.24       0.4       -4.8789E-6  4.        
 0.26       0.4       -4.957E-6   4.        
 0.28       0.4       -5.0333E-6  4.        
 0.3        0.4       -5.108E-6   4.        
 0.32       0.4       -5.1814E-6  4.        
 0.34       0.4       -5.2536E-6  4.        
 0.36       0.4       -5.3246E-6  4.        
 0.38       0.4       -5.3946E-6  4.        
 0.4        0.4       -5.4636E-6  4.        
 0.42       0.4       -5.5316E-6  4.        
 0.44       0.4       -5.5986E-6  4.        
 0.46       0.4       -5.6648E-6  4.        
 0.48       0.4       -5.73E-6    4.        
 0.5        0.4       -5.7944E-6  4.        
 0.52       0.4       -5.8579E-6  4.        
 0.54       0.4       -5.9206E-6  4.        
 0.56       0.4       -5.9825E-6  4.        
 0.58       0.4       -6.0436E-6  4.        
 0.6        0.4       -6.1039E-6  4.        
 0.62       0.4       -6.1635E-6  4.        
 0.64       0.4       -6.2224E-6  4.        
 0.66       0.4       -6.2806E-6  4.        
 0.68       0.4       -6.3381E-6  4.        
 0.7        0.4       -6.3949E-6  4.        
 0.72       0.4       -6.451E-6   4.        
 0.74       0.4       -6.5065E-6  4.        
 0.76       0.4       -6.5614E-6  4.        
 0.78       0.4       -6.6157E-6  4.        
 0.8        0.4       -6.6693E-6  4.        
 0.82       0.4       -6.7224E-6  4.        
 0.84       0.4       -6.7749E-6  4.        
 0.86       0.4       -6.8269E-6  4.        
 0.88       0.4       -6.8783E-6  4.        
 0.9        0.4       -6.9292E-6  4.        
 0.92       0.4       -6.9796E-6  4.        
 0.94       0.4       -7.0295E-6  4.        
 0.96       0.4       -7.0788E-6  4.        
 0.98       0.4       -7.1277E-6  4.        
 1.         0.4       -7.1761E-6  4.        
 1.02       0.4       -7.224E-6   4.        
 1.04       0.4       -7.2715E-6  4.        
 1.06       0.4       -7.3186E-6  4.        
 1.08       0.4       -7.3652E-6  4.        
 1.1        0.4       -7.4114E-6  4.        
 1.12       0.4       -7.4571E-6  4.        
 1.14       0.4       -7.5025E-6  4.        
 1.16       0.4       -7.5475E-6  4.        
 1.18       0.4       -7.592E-6   4.        
 1.2        0.4       -7.6361E-6  4.        
 0.         0.6        3.115E-12  4.        
 0.02       0.6       -5.8192E-6  4.        
 0.04       0.6       -11.045E-6  4.        
 0.06       0.6       -15.663E-6  4.        
 0.08       0.6       -19.668E-6  4.        
 0.1        0.6       -23.069E-6  4.        
 0.12       0.6       -25.896E-6  4.        
 0.14       0.6       -28.201E-6  4.        
 0.16       0.6       -30.053E-6  4.        
 0.18       0.6       -31.529E-6  4.        
 0.2        0.6       -32.706E-6  4.        
 0.22       0.6       -33.653E-6  4.        
 0.24       0.6       -34.428E-6  4.        
 0.26       0.6       -35.076E-6  4.        
 0.28       0.6       -35.633E-6  4.        
 0.3        0.6       -36.124E-6  4.        
 0.32       0.6       -36.565E-6  4.        
 0.34       0.6       -36.971E-6  4.        
 0.36       0.6       -37.349E-6  4.        
 0.38       0.6       -37.707E-6  4.        
 0.4        0.6       -38.047E-6  4.        
 0.42       0.6       -38.374E-6  4.        
 0.44       0.6       -38.69E-6   4.        
 0.46       0.6       -38.996E-6  4.        
 0.48       0.6       -39.293E-6  4.        
 0.5        0.6       -39.582E-6  4.        
 0.52       0.6       -39.865E-6  4.        
 0.54       0.6       -40.141E-6  4.        
 0.56       0.6       -40.411E-6  4.        
 0.58       0.6       -40.676E-6  4.        
 0.6        0.6       -40.936E-6  4.        
 0.62       0.6       -41.19E-6   4.        
 0.64       0.6       -41.44E-6   4.        
 0.66       0.6       -41.686E-6  4.        
 0.68       0.6       -41.927E-6  4.        
 0.7        0.6       -42.164E-6  4.        
 0.72       0.6       -42.398E-6  4.        
 0.74       0.6       -42.627E-6  4.        
 0.76       0.6       -42.854E-6  4.        
 0.78       0.6       -43.076E-6  4.        
 0.8        0.6       -43.295E-6  4.        
 0.82       0.6       -43.511E-6  4.        
 0.84       0.6       -43.724E-6  4.        
 0.86       0.6       -43.934E-6  4.        
 0.88       0.6       -44.141E-6  4.        
 0.9        0.6       -44.345E-6  4.        
 0.92       0.6       -44.547E-6  4.        
 0.94       0.6       -44.745E-6  4.        
 0.96       0.6       -44.941E-6  4.        
 0.98       0.6       -45.135E-6  4.        
 1.         0.6       -45.326E-6  4.        
 1.02       0.6       -45.515E-6  4.        
 1.04       0.6       -45.701E-6  4.        
 1.06       0.6       -45.886E-6  4.        
 1.08       0.6       -46.068E-6  4.        
 1.1        0.6       -46.248E-6  4.        
 1.12       0.6       -46.425E-6  4.        
 1.14       0.6       -46.601E-6  4.        
 1.16       0.6       -46.775E-6  4.        
 1.18       0.6       -46.947E-6  4.        
 1.2        0.6       -47.117E-6  4.        
 0.         0.8        13.02E-12  5.        
 0.02       0.8       -10.818E-6  4.        
 0.04       0.8       -21.037E-6  4.        
 0.06       0.8       -30.626E-6  4.        
 0.08       0.8       -39.553E-6  4.        
 0.1        0.8       -47.79E-6   4.        
 0.12       0.8       -55.317E-6  4.        
 0.14       0.8       -62.127E-6  4.        
 0.16       0.8       -68.227E-6  4.        
 0.18       0.8       -73.638E-6  4.        
 0.2        0.8       -78.396E-6  4.        
 0.22       0.8       -82.549E-6  4.        
 0.24       0.8       -86.154E-6  4.        
 0.26       0.8       -89.27E-6   4.        
 0.28       0.8       -91.962E-6  4.        
 0.3        0.8       -94.288E-6  4.        
 0.32       0.8       -96.307E-6  4.        
 0.34       0.8       -98.067E-6  4.        
 0.36       0.8       -99.615E-6  4.        
 0.38       0.8       -100.99E-6  4.        
 0.4        0.8       -102.21E-6  4.        
 0.42       0.8       -103.33E-6  4.        
 0.44       0.8       -104.34E-6  4.        
 0.46       0.8       -105.27E-6  4.        
 0.48       0.8       -106.14E-6  4.        
 0.5        0.8       -106.96E-6  4.        
 0.52       0.8       -107.73E-6  4.        
 0.54       0.8       -108.45E-6  4.        
 0.56       0.8       -109.15E-6  4.        
 0.58       0.8       -109.82E-6  4.        
 0.6        0.8       -110.46E-6  4.        
 0.62       0.8       -111.08E-6  4.        
 0.64       0.8       -111.68E-6  4.        
 0.66       0.8       -112.26E-6  4.        
 0.68       0.8       -112.83E-6  4.        
 0.7        0.8       -113.38E-6  4.        
 0.72       0.8       -113.92E-6  4.        
 0.74       0.8       -114.44E-6  4.        
 0.76       0.8       -114.96E-6  4.        
 0.78       0.8       -115.46E-6  4.        
 0.8        0.8       -115.95E-6  4.        
 0.82       0.8       -116.43E-6  4.        
 0.84       0.8       -116.9E-6   4.        
 0.86       0.8       -117.37E-6  4.        
 0.88       0.8       -117.82E-6  4.        
 0.9        0.8       -118.27E-6  4.        
 0.92       0.8       -118.71E-6  4.        
 0.94       0.8       -119.14E-6  4.        
 0.96       0.8       -119.56E-6  4.        
 0.98       0.8       -119.98E-6  4.        
 1.         0.8       -120.39E-6  4.        
 1.02       0.8       -120.8E-6   4.        
 1.04       0.8       -121.19E-6  4.        
 1.06       0.8       -121.59E-6  4.        
 1.08       0.8       -121.97E-6  4.        
 1.1        0.8       -122.36E-6  4.        
 1.12       0.8       -122.73E-6  4.        
 1.14       0.8       -123.1E-6   4.        
 1.16       0.8       -123.47E-6  4.        
 1.18       0.8       -123.83E-6  4.        
 1.2        0.8       -124.18E-6  4.        
 0.         1.         43.41E-12  5.        
 0.02       1.        -15.268E-6  4.        
 0.04       1.        -30.01E-6   4.        
 0.06       1.        -44.185E-6  4.        
 0.08       1.        -57.754E-6  4.        
 0.1        1.        -70.675E-6  4.        
 0.12       1.        -82.912E-6  4.        
 0.14       1.        -94.434E-6  4.        
 0.16       1.        -105.22E-6  4.        
 0.18       1.        -115.25E-6  4.        
 0.2        1.        -124.53E-6  4.        
 0.22       1.        -133.06E-6  4.        
 0.24       1.        -140.85E-6  4.        
 0.26       1.        -147.94E-6  4.        
 0.28       1.        -154.37E-6  4.        
 0.3        1.        -160.16E-6  4.        
 0.32       1.        -165.38E-6  4.        
 0.34       1.        -170.06E-6  4.        
 0.36       1.        -174.26E-6  4.        
 0.38       1.        -178.03E-6  4.        
 0.4        1.        -181.42E-6  4.        
 0.42       1.        -184.46E-6  4.        
 0.44       1.        -187.21E-6  4.        
 0.46       1.        -189.7E-6   4.        
 0.48       1.        -191.96E-6  4.        
 0.5        1.        -194.02E-6  4.        
 0.52       1.        -195.91E-6  4.        
 0.54       1.        -197.66E-6  4.        
 0.56       1.        -199.28E-6  4.        
 0.58       1.        -200.79E-6  4.        
 0.6        1.        -202.2E-6   4.        
 0.62       1.        -203.52E-6  4.        
 0.64       1.        -204.77E-6  4.        
 0.66       1.        -205.96E-6  4.        
 0.68       1.        -207.09E-6  4.        
 0.7        1.        -208.17E-6  4.        
 0.72       1.        -209.2E-6   4.        
 0.74       1.        -210.2E-6   4.        
 0.76       1.        -211.15E-6  4.        
 0.78       1.        -212.07E-6  4.        
 0.8        1.        -212.97E-6  4.        
 0.82       1.        -213.83E-6  4.        
 0.84       1.        -214.67E-6  4.        
 0.86       1.        -215.49E-6  4.        
 0.88       1.        -216.28E-6  4.        
 0.9        1.        -217.06E-6  4.        
 0.92       1.        -217.81E-6  4.        
 0.94       1.        -218.55E-6  4.        
 0.96       1.        -219.27E-6  4.        
 0.98       1.        -219.98E-6  4.        
 1.         1.        -220.67E-6  4.        
 1.02       1.        -221.35E-6  4.        
 1.04       1.        -222.01E-6  4.        
 1.06       1.        -222.66E-6  4.        
 1.08       1.        -223.3E-6   4.        
 1.1        1.        -223.93E-6  4.        
 1.12       1.        -224.54E-6  4.        
 1.14       1.        -225.15E-6  4.        
 1.16       1.        -225.74E-6  4.        
 1.18       1.        -226.33E-6  4.        
 1.2        1.        -226.91E-6  4.        
 0.         1.2        124.4E-12  5.        
 0.02       1.2       -18.869E-6  4.        
 0.04       1.2       -37.302E-6  4.        
 0.06       1.2       -55.254E-6  4.        
 0.08       1.2       -72.684E-6  4.        
 0.1        1.2       -89.547E-6  4.        
 0.12       1.2       -105.8E-6   4.        
 0.14       1.2       -121.41E-6  4.        
 0.16       1.2       -136.34E-6  4.        
 0.18       1.2       -150.55E-6  4.        
 0.2        1.2       -164.03E-6  4.        
 0.22       1.2       -176.76E-6  4.        
 0.24       1.2       -188.74E-6  4.        
 0.26       1.2       -199.95E-6  4.        
 0.28       1.2       -210.42E-6  4.        
 0.3        1.2       -220.16E-6  4.        
 0.32       1.2       -229.18E-6  4.        
 0.34       1.2       -237.51E-6  4.        
 0.36       1.2       -245.2E-6   4.        
 0.38       1.2       -252.27E-6  4.        
 0.4        1.2       -258.76E-6  4.        
 0.42       1.2       -264.72E-6  4.        
 0.44       1.2       -270.18E-6  4.        
 0.46       1.2       -275.19E-6  4.        
 0.48       1.2       -279.78E-6  4.        
 0.5        1.2       -283.99E-6  4.        
 0.52       1.2       -287.86E-6  4.        
 0.54       1.2       -291.42E-6  4.        
 0.56       1.2       -294.71E-6  4.        
 0.58       1.2       -297.74E-6  4.        
 0.6        1.2       -300.56E-6  4.        
 0.62       1.2       -303.17E-6  4.        
 0.64       1.2       -305.61E-6  4.        
 0.66       1.2       -307.88E-6  4.        
 0.68       1.2       -310.01E-6  4.        
 0.7        1.2       -312.02E-6  4.        
 0.72       1.2       -313.91E-6  4.        
 0.74       1.2       -315.7E-6   4.        
 0.76       1.2       -317.39E-6  4.        
 0.78       1.2       -319.E-6    4.        
 0.8        1.2       -320.54E-6  4.        
 0.82       1.2       -322.E-6    4.        
 0.84       1.2       -323.41E-6  4.        
 0.86       1.2       -324.76E-6  4.        
 0.88       1.2       -326.05E-6  4.        
 0.9        1.2       -327.3E-6   4.        
 0.92       1.2       -328.51E-6  4.        
 0.94       1.2       -329.68E-6  4.        
 0.96       1.2       -330.8E-6   4.        
 0.98       1.2       -331.9E-6   4.        
 1.         1.2       -332.96E-6  4.        
 1.02       1.2       -334.E-6    4.        
 1.04       1.2       -335.E-6    4.        
 1.06       1.2       -335.98E-6  4.        
 1.08       1.2       -336.94E-6  4.        
 1.1        1.2       -337.87E-6  4.        
 1.12       1.2       -338.78E-6  4.        
 1.14       1.2       -339.67E-6  4.        
 1.16       1.2       -340.54E-6  4.        
 1.18       1.2       -341.4E-6   4.        
 1.2        1.2       -342.23E-6  4.        
Gnucap   System status
iterations: op=0, dc=1467, tran=0, fourier=0, total=1467
transient timesteps: accepted=0, rejected=0, total=0
nodes: user=2, subckt=0, model=33, total=35
dctran density=60.1%, ac density=60.1%
