#           v(out)     i(tb.vdd_src) iter(0)   
 0.         1.1469    -10.066E-6  155.      
 0.02       1.1457    -10.062E-6  4.        
 0.04       1.1444    -10.059E-6  4.        
 0.06       1.143     -10.055E-6  4.        
 0.08       1.1415    -10.051E-6  4.        
 0.1        1.1399    -10.046E-6  5.        
 0.12       1.1382    -10.041E-6  5.        
 0.14       1.1363    -10.036E-6  5.        
 0.16       1.1343    -10.03E-6   5.        
 0.18       1.132     -10.025E-6  5.        
 0.2        1.1295    -10.019E-6  5.        
 0.22       1.1268    -10.013E-6  5.        
 0.24       1.1237    -10.009E-6  5.        
 0.26       1.1202    -10.007E-6  5.        
 0.28       1.116     -10.01E-6   5.        
 0.3        1.111     -10.022E-6  5.        
 0.32       1.1045    -10.05E-6   5.        
 0.34       1.096     -10.102E-6  5.        
 0.36       1.0842    -10.186E-6  5.        
 0.38       1.0672    -10.306E-6  5.        
 0.4        1.0413    -10.458E-6  5.        
 0.42       0.99615   -10.613E-6  6.        
 0.44       0.89686   -10.65E-6   6.        
 0.46       0.70329   -10.402E-6  6.        
 0.48       0.4793    -10.044E-6  5.        
 0.5        0.26326   -9.6745E-6  5.        
 0.52       0.10857   -9.3098E-6  7.        
 0.54       0.066731  -2.096E-6   7.        
 0.56       0.042907  -1.7753E-6  6.        
 0.58       0.02959   -1.4836E-6  6.        
 0.6        0.020914  -1.2213E-6  5.        
 0.62       0.014888  -988.26E-9  5.        
 0.64       0.010567  -784.12E-9  5.        
 0.66       0.0074228 -608.08E-9  5.        
 0.68       0.0051271 -459.05E-9  5.        
 0.7        0.0034605 -335.97E-9  5.        
 0.72       0.0022682 -237.14E-9  5.        
 0.74       0.0014355 -160.73E-9  5.        
 0.76       873.66E-6 -104.26E-9  5.        
 0.78       510.84E-6 -64.698E-9  5.        
 0.8        288.01E-6 -38.577E-9  5.        
 0.82       157.81E-6 -22.279E-9  5.        
 0.84       84.843E-6 -12.602E-9  5.        
 0.86       45.131E-6  0.         5.        
 0.88       23.893E-6  0.         5.        
 0.9        12.637E-6  0.         5.        
 0.92       6.6917E-6  0.         5.        
 0.94       3.5538E-6  0.         5.        
 0.96       1.896E-6   0.         5.        
 0.98       1.0188E-6  0.         5.        
 1.         553.77E-9  0.         5.        
 1.02       306.93E-9  0.         5.        
 1.04       175.9E-9   0.         5.        
 1.06       106.53E-9  0.         5.        
 1.08       70.105E-9  0.         5.        
 1.1        51.373E-9  0.         5.        
 1.12       42.207E-9  0.         5.        
 1.14       38.269E-9  0.         4.        
 1.16       37.242E-9  0.         4.        
 1.18       37.888E-9  0.         4.        
 1.2        39.546E-9  0.         4.        
Gnucap   System status
iterations: op=0, dc=456, tran=0, fourier=0, total=456
transient timesteps: accepted=0, rejected=0, total=0
nodes: user=2, subckt=1, model=66, total=69
dctran density=33.4%, ac density=33.4%
