#           v(vgs1)    v(vgs2)   
 1.         0.46904   -0.66471   
 2.         0.49547   -0.68792   
 3.         0.43101   -0.69305   
 4.         0.47511   -0.66207   
 5.         0.45652   -0.69478   
 6.         0.42019   -0.68762   
 7.         0.49934   -0.66756   
 8.         0.46263   -0.70615   
 9.         0.40985   -0.69547   
 10.        0.46004   -0.68019   
 11.        0.528     -0.68851   
 12.        0.421     -0.70845   
 13.        0.48395   -0.67144   
 14.        0.45541   -0.68049   
 15.        0.51493   -0.67511   
 16.        0.4639    -0.69813   
 17.        0.42943   -0.67066   
 18.        0.43776   -0.67155   
 19.        0.49443   -0.68977   
 20.        0.42324   -0.6967    
 21.        0.44998   -0.67628   
 22.        0.52421   -0.68773   
 23.        0.36758   -0.68718   
 24.        0.46136   -0.67745   
 25.        0.50605   -0.71403   
 26.        0.41211   -0.68629   
 27.        0.41432   -0.67247   
 28.        0.56807   -0.68262   
 29.        0.42511   -0.67991   
 30.        0.47465   -0.67885   
 31.        0.46511   -0.68477   
 32.        0.4488    -0.68937   
 33.        0.47826   -0.67595   
 34.        0.44193   -0.69407   
 35.        0.42091   -0.69284   
 36.        0.51638   -0.69176   
 37.        0.44518   -0.70466   
 38.        0.43535   -0.66271   
 39.        0.50067   -0.67795   
 40.        0.36519   -0.69037   
 41.        0.48822   -0.69711   
 42.        0.50426   -0.67613   
 43.        0.42758   -0.67118   
 44.        0.48486   -0.67602   
 45.        0.4993    -0.69197   
 46.        0.43883   -0.68411   
 47.        0.44554   -0.6723    
 48.        0.48018   -0.69144   
 49.        0.41984   -0.69358   
 50.        0.4454    -0.67341   
 51.        0.48263   -0.69746   
 52.        0.40679   -0.67203   
 53.        0.54748   -0.68712   
 54.        0.46446   -0.69756   
 55.        0.42239   -0.68798   
 56.        0.46285   -0.6618    
 57.        0.50529   -0.68235   
 58.        0.44802   -0.68904   
 59.        0.48112   -0.68259   
 60.        0.44439   -0.68499   
 61.        0.44168   -0.67525   
 62.        0.49316   -0.68821   
 63.        0.43883   -0.69512   
 64.        0.43299   -0.69118   
 65.        0.52393   -0.68685   
 66.        0.40627   -0.6841    
 67.        0.49979   -0.68022   
 68.        0.46246   -0.67874   
 69.        0.40907   -0.68349   
 70.        0.47912   -0.67779   
 71.        0.5212    -0.69534   
 72.        0.42204   -0.65994   
 73.        0.46541   -0.66324   
 74.        0.49347   -0.68701   
 75.        0.43765   -0.68516   
 76.        0.48131   -0.67296   
 77.        0.44949   -0.69566   
 78.        0.41955   -0.69322   
 79.        0.48432   -0.66972   
 80.        0.47089   -0.70649   
 81.        0.45644   -0.69811   
 82.        0.48877   -0.68294   
 83.        0.47869   -0.69017   
 84.        0.44194   -0.69019   
 85.        0.48506   -0.66634   
 86.        0.43873   -0.66205   
 87.        0.50162   -0.67693   
 88.        0.47618   -0.68978   
 89.        0.42637   -0.67488   
 90.        0.45951   -0.66539   
 91.        0.48089   -0.68678   
 92.        0.42771   -0.69458   
 93.        0.45939   -0.6937    
 94.        0.51288   -0.68199   
 95.        0.37172   -0.6853    
 96.        0.4571    -0.689     
 97.        0.50983   -0.71626   
 98.        0.41629   -0.68251   
 99.        0.47255   -0.67024   
 100.       0.53966   -0.68487   
 101.       0.46849   -0.67397   
 102.       0.4524    -0.68919   
 103.       0.45713   -0.67929   
 104.       0.4407    -0.67485   
 105.       0.4841    -0.67432   
 106.       0.43398   -0.69922   
 107.       0.42147   -0.69446   
 108.       0.47598   -0.68211   
 109.       0.46203   -0.69941   
 110.       0.43802   -0.68916   
 111.       0.47568   -0.69444   
 112.       0.39015   -0.68758   
 113.       0.49812   -0.68347   
 114.       0.504     -0.68346   
 115.       0.4231    -0.67365   
 116.       0.50178   -0.67176   
 117.       0.43958   -0.68893   
 118.       0.46132   -0.68613   
 119.       0.48237   -0.67245   
 120.       0.45405   -0.68906   
 121.       0.41646   -0.69064   
 122.       0.45879   -0.68961   
 123.       0.48144   -0.70103   
 124.       0.40257   -0.68084   
 125.       0.47288   -0.68314   
 126.       0.46532   -0.70263   
 127.       0.45037   -0.68628   
 128.       0.48114   -0.66336   
 129.       0.47133   -0.68224   
 130.       0.46926   -0.68904   
 131.       0.48746   -0.68437   
 132.       0.43631   -0.67428   
 133.       0.44145   -0.67524   
 134.       0.49569   -0.68936   
 135.       0.4361    -0.69443   
 136.       0.43674   -0.68749   
 137.       0.47203   -0.6877    
 138.       0.42122   -0.68061   
 139.       0.48332   -0.68242   
 140.       0.47809   -0.70413   
 141.       0.40897   -0.6781    
 142.       0.48915   -0.67421   
 143.       0.52618   -0.68783   
 144.       0.41987   -0.67446   
 145.       0.46486   -0.66028   
 146.       0.48723   -0.68547   
 147.       0.43923   -0.6855    
 148.       0.47907   -0.6749    
 149.       0.44624   -0.69339   
 150.       0.42206   -0.69216   
 151.       0.48864   -0.68548   
 152.       0.46358   -0.70484   
 153.       0.45638   -0.69765   
 154.       0.47995   -0.68062   
 155.       0.41224   -0.69457   
 156.       0.49656   -0.69021   
 157.       0.48084   -0.6686    
 158.       0.42894   -0.66413   
 159.       0.49226   -0.67508   
 160.       0.49536   -0.69206   
 161.       0.4226    -0.67614   
 162.       0.45692   -0.67217   
 163.       0.4804    -0.68677   
 164.       0.42576   -0.69307   
 165.       0.45663   -0.69641   
 166.       0.47362   -0.68606   
 167.       0.3986    -0.68385   
 168.       0.45631   -0.68795   
 169.       0.50924   -0.71357   
 170.       0.41849   -0.6685    
 171.       0.47519   -0.67332   
 172.       0.53383   -0.68555   
 173.       0.463     -0.67228   
 174.       0.46249   -0.6815    
 175.       0.44874   -0.67939   
 176.       0.44425   -0.68035   
 177.       0.48806   -0.67665   
 178.       0.43733   -0.69757   
 179.       0.42583   -0.6823    
 180.       0.47251   -0.68387   
 181.       0.45467   -0.69771   
 182.       0.44972   -0.69645   
 183.       0.47607   -0.69036   
 184.       0.39599   -0.68556   
 185.       0.53515   -0.68064   
 186.       0.48541   -0.68439   
 187.       0.42274   -0.67131   
 188.       0.51383   -0.66891   
 189.       0.43236   -0.68784   
 190.       0.45263   -0.68753   
 191.       0.47128   -0.67276   
 192.       0.45857   -0.68613   
 193.       0.41664   -0.68787   
 194.       0.49159   -0.70925   
 195.       0.46123   -0.70323   
 196.       0.40999   -0.68292   
 197.       0.45875   -0.67878   
 198.       0.47306   -0.70856   
 199.       0.45006   -0.68686   
 200.       0.48392   -0.66241   
 201.       0.45078   -0.68133   
 202.       0.48023   -0.68484   
 203.       0.48893   -0.68515   
 204.       0.43046   -0.66685   
 205.       0.44399   -0.67431   
 206.       0.49643   -0.68859   
 207.       0.43627   -0.69352   
 208.       0.43981   -0.68509   
 209.       0.41764   -0.68812   
 210.       0.44403   -0.67548   
 211.       0.4817    -0.68852   
 212.       0.48237   -0.72103   
 213.       0.40956   -0.67788   
 214.       0.49578   -0.66971   
 215.       0.53422   -0.68854   
 216.       0.41702   -0.68406   
 217.       0.47406   -0.66037   
 218.       0.47361   -0.69008   
 219.       0.44095   -0.68568   
 220.       0.47788   -0.67711   
 221.       0.44262   -0.69027   
 222.       0.4237    -0.69364   
 223.       0.48986   -0.68611   
 224.       0.45656   -0.70264   
 225.       0.45797   -0.69542   
 226.       0.45742   -0.68196   
 227.       0.37508   -0.69213   
 228.       0.52471   -0.68971   
 229.       0.48451   -0.67603   
 230.       0.42122   -0.66726   
 231.       0.48773   -0.67391   
 232.       0.50924   -0.69241   
 233.       0.40547   -0.67901   
 234.       0.46566   -0.68083   
 235.       0.478     -0.68731   
 236.       0.4247    -0.69143   
 237.       0.4545    -0.69724   
 238.       0.47698   -0.69067   
 239.       0.40296   -0.68163   
 240.       0.46046   -0.69064   
 241.       0.50351   -0.71103   
 242.       0.42346   -0.65179   
 243.       0.47204   -0.67082   
 244.       0.51116   -0.68621   
 245.       0.46434   -0.67524   
 246.       0.47341   -0.67343   
 247.       0.4418    -0.67743   
 248.       0.44743   -0.67963   
 249.       0.4927    -0.67832   
 250.       0.44189   -0.69626   
 251.       0.43126   -0.68137   
 252.       0.47017   -0.68374   
 253.       0.44521   -0.69596   
 254.       0.46597   -0.70198   
 255.       0.47314   -0.68959   
 256.       0.40411   -0.68068   
 257.       0.58134   -0.67997   
 258.       0.46225   -0.70273   
 259.       0.41893   -0.6709    
 260.       0.51592   -0.66518   
 261.       0.43281   -0.68698   
 262.       0.44809   -0.68982   
 263.       0.47546   -0.67501   
 264.       0.45321   -0.69163   
 265.       0.4175    -0.68237   
 266.       0.495     -0.67514   
 267.       0.45679   -0.70356   
 268.       0.41519   -0.68675   
 269.       0.44553   -0.68328   
 270.       0.48163   -0.69566   
 271.       0.46227   -0.68616   
 272.       0.48035   -0.65868   
 273.       0.43731   -0.67963   
 274.       0.5002    -0.69174   
 275.       0.49214   -0.68715   
 276.       0.42442   -0.6663    
 277.       0.44768   -0.67087   
 278.       0.49448   -0.69159   
 279.       0.43934   -0.69265   
 280.       0.46256   -0.68948   
 281.       0.4887    -0.68951   
 282.       0.38973   -0.67641   
 283.       0.47988   -0.69129   
 284.       0.4847    -0.71642   
 285.       0.41308   -0.67933   
 286.       0.48595   -0.67376   
 287.       0.54131   -0.69114   
 288.       0.41269   -0.67294   
 289.       0.45397   -0.66218   
 290.       0.47697   -0.68583   
 291.       0.44393   -0.68759   
 292.       0.48111   -0.68334   
 293.       0.43866   -0.68529   
 294.       0.42999   -0.67917   
 295.       0.48948   -0.6856    
 296.       0.45304   -0.70337   
 297.       0.46228   -0.69389   
 298.       0.44934   -0.67982   
 299.       0.38402   -0.688     
 300.       0.51674   -0.68793   
 301.       0.49033   -0.69299   
 302.       0.42146   -0.67847   
 303.       0.51984   -0.66711   
 304.       0.49282   -0.68986   
 305.       0.41285   -0.68456   
 306.       0.46137   -0.68185   
 307.       0.4567    -0.68778   
 308.       0.43218   -0.69165   
 309.       0.48029   -0.69351   
 310.       0.45699   -0.68715   
 311.       0.40806   -0.69254   
 312.       0.47014   -0.68984   
 313.       0.49384   -0.70958   
 314.       0.42632   -0.65365   
 315.       0.469     -0.67296   
 316.       0.46048   -0.6876    
 317.       0.47306   -0.67603   
 318.       0.49266   -0.66227   
 319.       0.43181   -0.6743    
 320.       0.44992   -0.67693   
 321.       0.49928   -0.68315   
 322.       0.44064   -0.68977   
 323.       0.43775   -0.68121   
 324.       0.47229   -0.68385   
 325.       0.46132   -0.69265   
 326.       0.42946   -0.7069    
 327.       0.49138   -0.69865   
 328.       0.40741   -0.68066   
 329.       0.56194   -0.67604   
 330.       0.47371   -0.70292   
 331.       0.42048   -0.67476   
 332.       0.512     -0.66435   
 333.       0.46845   -0.68567   
 334.       0.42563   -0.68786   
 335.       0.4799    -0.67718   
 336.       0.44695   -0.69543   
 337.       0.42131   -0.68251   
 338.       0.49127   -0.6801    
 339.       0.4532    -0.70209   
 340.       0.42117   -0.6884    
 341.       0.42911   -0.68372   
 342.       0.46333   -0.6972    
 343.       0.47376   -0.68339   
 344.       0.48492   -0.65585   
 345.       0.42649   -0.68222   
 346.       0.50283   -0.69066   
 347.       0.50097   -0.68898   
 348.       0.42226   -0.66584   
 349.       0.45322   -0.66878   
 350.       0.48867   -0.69197   
 351.       0.42963   -0.69172   
 352.       0.46572   -0.68427   
 353.       0.47227   -0.69106   
 354.       0.39885   -0.6839    
 355.       0.47908   -0.69361   
 356.       0.48516   -0.71151   
 357.       0.41819   -0.68425   
 358.       0.49375   -0.67338   
 359.       0.54361   -0.69202   
 360.       0.39917   -0.68313   
 361.       0.45606   -0.66803   
 362.       0.46992   -0.68128   
 363.       0.44741   -0.67834   
 364.       0.48368   -0.69103   
 365.       0.43622   -0.68696   
 366.       0.43453   -0.68404   
 367.       0.48787   -0.68442   
 368.       0.44143   -0.70108   
 369.       0.45088   -0.6915    
 370.       0.45742   -0.68434   
 371.       0.39512   -0.68688   
 372.       0.49662   -0.68537   
 373.       0.50294   -0.69313   
 374.       0.41917   -0.6646    
 375.       0.49002   -0.67107   
 376.       0.50828   -0.68913   
 377.       0.42461   -0.68742   
 378.       0.47583   -0.6745    
 379.       0.44249   -0.68972   
 380.       0.43769   -0.69012   
 381.       0.4866    -0.68853   
 382.       0.45744   -0.6864    
 383.       0.4118    -0.67976   
 384.       0.47625   -0.68873   
 385.       0.47949   -0.70674   
 386.       0.43642   -0.66306   
 387.       0.4822    -0.66367   
 388.       0.45222   -0.68556   
 389.       0.51447   -0.6868    
 390.       0.47463   -0.66688   
 391.       0.43014   -0.66924   
 392.       0.45231   -0.67215   
 393.       0.49861   -0.68835   
 394.       0.43123   -0.68955   
 395.       0.44577   -0.68024   
 396.       0.47488   -0.68423   
 397.       0.45475   -0.68913   
 398.       0.46655   -0.7094    
 399.       0.4706    -0.7093    
 400.       0.41063   -0.68149   
 401.       0.54186   -0.67194   
 402.       0.49123   -0.70258   
 403.       0.41129   -0.68158   
 404.       0.47787   -0.66265   
 405.       0.47733   -0.68375   
 406.       0.43105   -0.69493   
 407.       0.48127   -0.68115   
 408.       0.44092   -0.69256   
 409.       0.42865   -0.68041   
 410.       0.49239   -0.68654   
 411.       0.44842   -0.70079   
 412.       0.42771   -0.68693   
 413.       0.40903   -0.6852    
 414.       0.43979   -0.69625   
 415.       0.49007   -0.67952   
 416.       0.48908   -0.66155   
 417.       0.41905   -0.68448   
 418.       0.49971   -0.69241   
 419.       0.51338   -0.68832   
 420.       0.41992   -0.66847   
 421.       0.43363   -0.66678   
 422.       0.49647   -0.69277   
 423.       0.43065   -0.6906    
 424.       0.4631    -0.69115   
 425.       0.46128   -0.69252   
 426.       0.40991   -0.68248   
 427.       0.48216   -0.69322   
 428.       0.47995   -0.70879   
 429.       0.42472   -0.69142   
 430.       0.50184   -0.67423   
 431.       0.51941   -0.69224   
 432.       0.40178   -0.66649   
 433.       0.45871   -0.67384   
 434.       0.46569   -0.67687   
 435.       0.45024   -0.67931   
 436.       0.48834   -0.68599   
 437.       0.43337   -0.68868   
 438.       0.43987   -0.67721   
 439.       0.48502   -0.68538   
 440.       0.43916   -0.6982    
 441.       0.46353   -0.69019   
 442.       0.45267   -0.68902   
 443.       0.40284   -0.68546   
 444.       0.47678   -0.68224   
 445.       0.51619   -0.69121   
 446.       0.4194    -0.68076   
 447.       0.5308    -0.67075   
 448.       0.47761   -0.68854   
 449.       0.43792   -0.68323   
 450.       0.47675   -0.67954   
 451.       0.43915   -0.69115   
 452.       0.43157   -0.68776   
 453.       0.49119   -0.6898    
 454.       0.44938   -0.68525   
 455.       0.4179    -0.67706   
 456.       0.4793    -0.68744   
 457.       0.46115   -0.70556   
 458.       0.45028   -0.66885   
 459.       0.48373   -0.66      
 460.       0.4469    -0.68345   
 461.       0.47717   -0.68332   
 462.       0.50367   -0.67105   
 463.       0.42627   -0.66694   
 464.       0.45808   -0.67054   
 465.       0.49286   -0.6828    
 466.       0.43447   -0.68936   
 467.       0.45628   -0.67738   
 468.       0.46893   -0.68501   
 469.       0.45555   -0.68645   
 470.       0.47689   -0.7193    
 471.       0.46448   -0.71052   
 472.       0.41389   -0.68195   
 473.       0.5276    -0.67997   
 474.       0.5064    -0.70413   
 475.       0.40891   -0.6917    
 476.       0.48229   -0.66376   
 477.       0.46293   -0.68597   
 478.       0.43713   -0.6804    
 479.       0.48339   -0.68761   
 480.       0.43676   -0.68343   
 481.       0.42727   -0.68286   
 482.       0.49227   -0.6841    
 483.       0.44146   -0.69972   
 484.       0.43504   -0.68124   
 485.       0.39161   -0.68781   
 486.       0.43967   -0.69125   
 487.       0.49413   -0.67594   
 488.       0.45928   -0.68535   
 489.       0.43307   -0.68497   
 490.       0.47981   -0.69494   
 491.       0.5316    -0.68223   
 492.       0.42383   -0.68636   
 493.       0.4715    -0.67009   
 494.       0.47103   -0.694     
 495.       0.43513   -0.68885   
 496.       0.45609   -0.68525   
 497.       0.45689   -0.69403   
 498.       0.41198   -0.6791    
 499.       0.49467   -0.6952    
 500.       0.46683   -0.68474   
 501.       0.43311   -0.68782   
 502.       0.50668   -0.66752   
 503.       0.44296   -0.69547   
 504.       0.44119   -0.68123   
 505.       0.45863   -0.6758    
 506.       0.46633   -0.67387   
 507.       0.45061   -0.67543   
 508.       0.50482   -0.69415   
 509.       0.43405   -0.68067   
 510.       0.44618   -0.6751    
 511.       0.48071   -0.68711   
 512.       0.42788   -0.6969    
 513.       0.48691   -0.68466   
 514.       0.4446    -0.69567   
 515.       0.46704   -0.68298   
 516.       0.46483   -0.68231   
 517.       0.50886   -0.68908   
 518.       0.41242   -0.68933   
 519.       0.4742    -0.66439   
 520.       0.49333   -0.68794   
 521.       0.43872   -0.68515   
 522.       0.48105   -0.68293   
 523.       0.43674   -0.69239   
 524.       0.46474   -0.68051   
 525.       0.47979   -0.69044   
 526.       0.44495   -0.68397   
 527.       0.42464   -0.68718   
 528.       0.47958   -0.67839   
 529.       0.43512   -0.70434   
 530.       0.47      -0.67177   
 531.       0.48241   -0.65961   
 532.       0.44569   -0.67982   
 533.       0.46264   -0.68082   
 534.       0.52022   -0.68555   
 535.       0.41858   -0.66557   
 536.       0.45108   -0.68653   
 537.       0.49339   -0.68123   
 538.       0.43617   -0.68977   
 539.       0.47828   -0.67277   
 540.       0.45612   -0.6987    
 541.       0.45677   -0.69422   
 542.       0.45549   -0.69002   
 543.       0.47623   -0.70857   
 544.       0.41113   -0.68386   
 545.       0.51561   -0.6873    
 546.       0.52211   -0.69222   
 547.       0.41194   -0.70111   
 548.       0.48381   -0.66879   
 549.       0.45089   -0.66129   
 550.       0.45018   -0.67579   
 551.       0.43861   -0.68887   
 552.       0.4613    -0.68374   
 553.       0.42939   -0.67271   
 554.       0.49065   -0.6861    
 555.       0.43365   -0.69763   
 556.       0.45668   -0.66643   
 557.       0.47537   -0.68886   
 558.       0.39277   -0.68807   
 559.       0.49362   -0.6857    
 560.       0.45489   -0.69377   
 561.       0.43648   -0.6896    
 562.       0.45439   -0.69177   
 563.       0.54466   -0.68379   
 564.       0.49084   -0.69766   
 565.       0.44345   -0.67293   
 566.       0.46068   -0.6944    
 567.       0.43571   -0.68535   
 568.       0.45503   -0.69056   
 569.       0.44235   -0.69442   
 570.       0.41896   -0.67669   
 571.       0.52338   -0.6948    
 572.       0.43844   -0.6863    
 573.       0.44099   -0.68681   
 574.       0.4801    -0.66648   
 575.       0.419     -0.69324   
 576.       0.44699   -0.67897   
 577.       0.46666   -0.68053   
 578.       0.46062   -0.67096   
 579.       0.43516   -0.68094   
 580.       0.52113   -0.69184   
 581.       0.43495   -0.68368   
 582.       0.45372   -0.67463   
 583.       0.47499   -0.68937   
 584.       0.4278    -0.69343   
 585.       0.49719   -0.68864   
 586.       0.44083   -0.70248   
 587.       0.4633    -0.6647    
