#           v(g)       i(tb.sd)   iter(0)   
 0.        -0.2       -66.11E-15  4.        
-0.02      -0.2        1.0173E-9  4.        
-0.04      -0.2        1.5243E-9  4.        
-0.06      -0.2        1.7717E-9  4.        
-0.08      -0.2        1.889E-9   4.        
-0.1       -0.2        1.9463E-9  4.        
-0.12      -0.2        1.9791E-9  4.        
-0.14      -0.2        1.9954E-9  4.        
-0.16      -0.2        2.01E-9    4.        
-0.18      -0.2        2.0191E-9  4.        
-0.2       -0.2        2.0264E-9  4.        
-0.22      -0.2        0.         4.        
-0.24      -0.2        0.         4.        
-0.26      -0.2        0.         4.        
-0.28      -0.2        0.         4.        
-0.3       -0.2        0.         4.        
-0.32      -0.2        0.         4.        
-0.34      -0.2        0.         4.        
-0.36      -0.2        0.         4.        
-0.38      -0.2        0.         4.        
-0.4       -0.2        0.         4.        
-0.42      -0.2        0.         4.        
-0.44      -0.2        0.         4.        
-0.46      -0.2        0.         4.        
-0.48      -0.2        0.         4.        
-0.5       -0.2        0.         4.        
-0.52      -0.2        0.         4.        
-0.54      -0.2        0.         4.        
-0.56      -0.2        0.         4.        
-0.58      -0.2        0.         4.        
-0.6       -0.2        0.         4.        
-0.62      -0.2        0.         4.        
-0.64      -0.2        0.         4.        
-0.66      -0.2        0.         4.        
-0.68      -0.2        0.         4.        
-0.7       -0.2        0.         4.        
-0.72      -0.2        0.         4.        
-0.74      -0.2        0.         4.        
-0.76      -0.2        0.         4.        
-0.78      -0.2        0.         4.        
-0.8       -0.2        0.         4.        
-0.82      -0.2        0.         4.        
-0.84      -0.2        0.         4.        
-0.86      -0.2        0.         4.        
-0.88      -0.2        0.         4.        
-0.9       -0.2        0.         4.        
-0.92      -0.2        0.         4.        
-0.94      -0.2        0.         4.        
-0.96      -0.2        0.         4.        
-0.98      -0.2        0.         4.        
-1.        -0.2        0.         4.        
-1.02      -0.2        0.         4.        
-1.04      -0.2        0.         4.        
-1.06      -0.2        0.         4.        
-1.08      -0.2        0.         4.        
-1.1       -0.2        0.         4.        
-1.12      -0.2        0.         4.        
-1.14      -0.2        0.         4.        
-1.16      -0.2        0.         4.        
-1.18      -0.2        0.         4.        
-1.2       -0.2        0.         4.        
 0.        -0.4       -206.4E-15  4.        
-0.02      -0.4        166.08E-9  4.        
-0.04      -0.4        272.68E-9  4.        
-0.06      -0.4        335.61E-9  4.        
-0.08      -0.4        370.45E-9  4.        
-0.1       -0.4        389.52E-9  4.        
-0.12      -0.4        400.55E-9  4.        
-0.14      -0.4        407.59E-9  4.        
-0.16      -0.4        412.58E-9  4.        
-0.18      -0.4        416.44E-9  4.        
-0.2       -0.4        419.64E-9  4.        
-0.22      -0.4        422.41E-9  4.        
-0.24      -0.4        424.89E-9  4.        
-0.26      -0.4        427.14E-9  4.        
-0.28      -0.4        429.21E-9  4.        
-0.3       -0.4        431.14E-9  4.        
-0.32      -0.4        432.97E-9  4.        
-0.34      -0.4        434.7E-9   4.        
-0.36      -0.4        436.35E-9  4.        
-0.38      -0.4        437.94E-9  4.        
-0.4       -0.4        439.44E-9  4.        
-0.42      -0.4        440.92E-9  4.        
-0.44      -0.4        442.33E-9  4.        
-0.46      -0.4        443.7E-9   4.        
-0.48      -0.4        445.03E-9  4.        
-0.5       -0.4        446.32E-9  4.        
-0.52      -0.4        447.57E-9  4.        
-0.54      -0.4        448.8E-9   4.        
-0.56      -0.4        450.01E-9  4.        
-0.58      -0.4        451.2E-9   4.        
-0.6       -0.4        452.35E-9  4.        
-0.62      -0.4        453.47E-9  4.        
-0.64      -0.4        454.59E-9  4.        
-0.66      -0.4        455.69E-9  4.        
-0.68      -0.4        456.76E-9  4.        
-0.7       -0.4        457.82E-9  4.        
-0.72      -0.4        458.87E-9  4.        
-0.74      -0.4        459.88E-9  4.        
-0.76      -0.4        460.89E-9  4.        
-0.78      -0.4        461.89E-9  4.        
-0.8       -0.4        462.85E-9  4.        
-0.82      -0.4        463.83E-9  4.        
-0.84      -0.4        464.82E-9  4.        
-0.86      -0.4        465.75E-9  4.        
-0.88      -0.4        466.69E-9  4.        
-0.9       -0.4        467.63E-9  4.        
-0.92      -0.4        468.54E-9  4.        
-0.94      -0.4        469.44E-9  4.        
-0.96      -0.4        470.35E-9  4.        
-0.98      -0.4        471.25E-9  4.        
-1.        -0.4        472.15E-9  4.        
-1.02      -0.4        473.02E-9  4.        
-1.04      -0.4        473.91E-9  4.        
-1.06      -0.4        474.77E-9  4.        
-1.08      -0.4        475.63E-9  4.        
-1.1       -0.4        476.49E-9  4.        
-1.12      -0.4        477.33E-9  4.        
-1.14      -0.4        478.18E-9  4.        
-1.16      -0.4        479.01E-9  4.        
-1.18      -0.4        479.83E-9  4.        
-1.2       -0.4        480.65E-9  4.        
 0.        -0.6       -757.2E-15  4.        
-0.02      -0.6        1.1362E-6  4.        
-0.04      -0.6        2.1279E-6  4.        
-0.06      -0.6        2.9758E-6  4.        
-0.08      -0.6        3.6821E-6  4.        
-0.1       -0.6        4.253E-6   4.        
-0.12      -0.6        4.7002E-6  4.        
-0.14      -0.6        5.0405E-6  4.        
-0.16      -0.6        5.2939E-6  4.        
-0.18      -0.6        5.4806E-6  4.        
-0.2       -0.6        5.6185E-6  4.        
-0.22      -0.6        5.7219E-6  4.        
-0.24      -0.6        5.8014E-6  4.        
-0.26      -0.6        5.8643E-6  4.        
-0.28      -0.6        5.9156E-6  4.        
-0.3       -0.6        5.9586E-6  4.        
-0.32      -0.6        5.9957E-6  4.        
-0.34      -0.6        6.0283E-6  4.        
-0.36      -0.6        6.0574E-6  4.        
-0.38      -0.6        6.0839E-6  4.        
-0.4       -0.6        6.1082E-6  4.        
-0.42      -0.6        6.1307E-6  4.        
-0.44      -0.6        6.1517E-6  4.        
-0.46      -0.6        6.1714E-6  4.        
-0.48      -0.6        6.1901E-6  4.        
-0.5       -0.6        6.2078E-6  4.        
-0.52      -0.6        6.2246E-6  4.        
-0.54      -0.6        6.2407E-6  4.        
-0.56      -0.6        6.2562E-6  4.        
-0.58      -0.6        6.271E-6   4.        
-0.6       -0.6        6.2853E-6  4.        
-0.62      -0.6        6.2992E-6  4.        
-0.64      -0.6        6.3125E-6  4.        
-0.66      -0.6        6.3255E-6  4.        
-0.68      -0.6        6.3381E-6  4.        
-0.7       -0.6        6.3503E-6  4.        
-0.72      -0.6        6.3622E-6  4.        
-0.74      -0.6        6.3738E-6  4.        
-0.76      -0.6        6.3851E-6  4.        
-0.78      -0.6        6.3961E-6  4.        
-0.8       -0.6        6.4069E-6  4.        
-0.82      -0.6        6.4175E-6  4.        
-0.84      -0.6        6.4278E-6  4.        
-0.86      -0.6        6.4379E-6  4.        
-0.88      -0.6        6.4478E-6  4.        
-0.9       -0.6        6.4576E-6  4.        
-0.92      -0.6        6.4671E-6  4.        
-0.94      -0.6        6.4765E-6  4.        
-0.96      -0.6        6.4857E-6  4.        
-0.98      -0.6        6.4948E-6  4.        
-1.        -0.6        6.5037E-6  4.        
-1.02      -0.6        6.5125E-6  4.        
-1.04      -0.6        6.5212E-6  4.        
-1.06      -0.6        6.5297E-6  4.        
-1.08      -0.6        6.5381E-6  4.        
-1.1       -0.6        6.5464E-6  4.        
-1.12      -0.6        6.5546E-6  4.        
-1.14      -0.6        6.5627E-6  4.        
-1.16      -0.6        6.5706E-6  4.        
-1.18      -0.6        6.5785E-6  4.        
-1.2       -0.6        6.5863E-6  4.        
 0.        -0.8       -2.205E-12  4.        
-0.02      -0.8        2.3406E-6  4.        
-0.04      -0.8        4.5341E-6  4.        
-0.06      -0.8        6.5777E-6  4.        
-0.08      -0.8        8.4676E-6  4.        
-0.1       -0.8        10.2E-6    4.        
-0.12      -0.8        11.774E-6  4.        
-0.14      -0.8        13.186E-6  4.        
-0.16      -0.8        14.44E-6   4.        
-0.18      -0.8        15.539E-6  4.        
-0.2       -0.8        16.491E-6  4.        
-0.22      -0.8        17.306E-6  4.        
-0.24      -0.8        17.996E-6  4.        
-0.26      -0.8        18.577E-6  4.        
-0.28      -0.8        19.062E-6  4.        
-0.3       -0.8        19.466E-6  4.        
-0.32      -0.8        19.801E-6  4.        
-0.34      -0.8        20.081E-6  4.        
-0.36      -0.8        20.316E-6  4.        
-0.38      -0.8        20.513E-6  4.        
-0.4       -0.8        20.681E-6  4.        
-0.42      -0.8        20.824E-6  4.        
-0.44      -0.8        20.948E-6  4.        
-0.46      -0.8        21.057E-6  4.        
-0.48      -0.8        21.153E-6  4.        
-0.5       -0.8        21.238E-6  4.        
-0.52      -0.8        21.314E-6  4.        
-0.54      -0.8        21.384E-6  4.        
-0.56      -0.8        21.447E-6  4.        
-0.58      -0.8        21.506E-6  4.        
-0.6       -0.8        21.56E-6   4.        
-0.62      -0.8        21.61E-6   4.        
-0.64      -0.8        21.657E-6  4.        
-0.66      -0.8        21.701E-6  4.        
-0.68      -0.8        21.743E-6  4.        
-0.7       -0.8        21.783E-6  4.        
-0.72      -0.8        21.82E-6   4.        
-0.74      -0.8        21.856E-6  4.        
-0.76      -0.8        21.891E-6  4.        
-0.78      -0.8        21.924E-6  4.        
-0.8       -0.8        21.956E-6  4.        
-0.82      -0.8        21.986E-6  4.        
-0.84      -0.8        22.016E-6  4.        
-0.86      -0.8        22.044E-6  4.        
-0.88      -0.8        22.072E-6  4.        
-0.9       -0.8        22.099E-6  4.        
-0.92      -0.8        22.125E-6  4.        
-0.94      -0.8        22.15E-6   4.        
-0.96      -0.8        22.175E-6  4.        
-0.98      -0.8        22.199E-6  4.        
-1.        -0.8        22.223E-6  4.        
-1.02      -0.8        22.246E-6  4.        
-1.04      -0.8        22.268E-6  4.        
-1.06      -0.8        22.29E-6   4.        
-1.08      -0.8        22.312E-6  4.        
-1.1       -0.8        22.333E-6  4.        
-1.12      -0.8        22.353E-6  4.        
-1.14      -0.8        22.374E-6  4.        
-1.16      -0.8        22.394E-6  4.        
-1.18      -0.8        22.413E-6  4.        
-1.2       -0.8        22.432E-6  4.        
 0.        -1.        -5.234E-12  4.        
-0.02      -1.         3.4172E-6  4.        
-0.04      -1.         6.7046E-6  4.        
-0.06      -1.         9.8587E-6  4.        
-0.08      -1.         12.876E-6  4.        
-0.1       -1.         15.752E-6  4.        
-0.12      -1.         18.484E-6  4.        
-0.14      -1.         21.067E-6  4.        
-0.16      -1.         23.498E-6  4.        
-0.18      -1.         25.773E-6  4.        
-0.2       -1.         27.891E-6  4.        
-0.22      -1.         29.852E-6  4.        
-0.24      -1.         31.655E-6  4.        
-0.26      -1.         33.304E-6  4.        
-0.28      -1.         34.802E-6  4.        
-0.3       -1.         36.155E-6  4.        
-0.32      -1.         37.37E-6   4.        
-0.34      -1.         38.457E-6  4.        
-0.36      -1.         39.423E-6  4.        
-0.38      -1.         40.279E-6  4.        
-0.4       -1.         41.036E-6  4.        
-0.42      -1.         41.704E-6  4.        
-0.44      -1.         42.292E-6  4.        
-0.46      -1.         42.809E-6  4.        
-0.48      -1.         43.265E-6  4.        
-0.5       -1.         43.667E-6  4.        
-0.52      -1.         44.022E-6  4.        
-0.54      -1.         44.337E-6  4.        
-0.56      -1.         44.617E-6  4.        
-0.58      -1.         44.866E-6  4.        
-0.6       -1.         45.089E-6  4.        
-0.62      -1.         45.289E-6  4.        
-0.64      -1.         45.47E-6   4.        
-0.66      -1.         45.634E-6  4.        
-0.68      -1.         45.783E-6  4.        
-0.7       -1.         45.919E-6  4.        
-0.72      -1.         46.044E-6  4.        
-0.74      -1.         46.159E-6  4.        
-0.76      -1.         46.266E-6  4.        
-0.78      -1.         46.365E-6  4.        
-0.8       -1.         46.457E-6  4.        
-0.82      -1.         46.543E-6  4.        
-0.84      -1.         46.624E-6  4.        
-0.86      -1.         46.701E-6  4.        
-0.88      -1.         46.773E-6  4.        
-0.9       -1.         46.841E-6  4.        
-0.92      -1.         46.906E-6  4.        
-0.94      -1.         46.968E-6  4.        
-0.96      -1.         47.026E-6  4.        
-0.98      -1.         47.083E-6  4.        
-1.        -1.         47.137E-6  4.        
-1.02      -1.         47.188E-6  4.        
-1.04      -1.         47.238E-6  4.        
-1.06      -1.         47.286E-6  4.        
-1.08      -1.         47.333E-6  4.        
-1.1       -1.         47.377E-6  4.        
-1.12      -1.         47.421E-6  4.        
-1.14      -1.         47.463E-6  4.        
-1.16      -1.         47.504E-6  4.        
-1.18      -1.         47.543E-6  4.        
-1.2       -1.         47.582E-6  4.        
 0.        -1.2       -10.76E-12  4.        
-0.02      -1.2        4.3155E-6  4.        
-0.04      -1.2        8.5193E-6  4.        
-0.06      -1.2        12.608E-6  4.        
-0.08      -1.2        16.579E-6  4.        
-0.1       -1.2        20.429E-6  4.        
-0.12      -1.2        24.154E-6  4.        
-0.14      -1.2        27.751E-6  4.        
-0.16      -1.2        31.217E-6  4.        
-0.18      -1.2        34.547E-6  4.        
-0.2       -1.2        37.74E-6   4.        
-0.22      -1.2        40.79E-6   4.        
-0.24      -1.2        43.696E-6  4.        
-0.26      -1.2        46.456E-6  4.        
-0.28      -1.2        49.067E-6  4.        
-0.3       -1.2        51.529E-6  4.        
-0.32      -1.2        53.843E-6  4.        
-0.34      -1.2        56.009E-6  4.        
-0.36      -1.2        58.029E-6  4.        
-0.38      -1.2        59.906E-6  4.        
-0.4       -1.2        61.645E-6  4.        
-0.42      -1.2        63.251E-6  4.        
-0.44      -1.2        64.729E-6  4.        
-0.46      -1.2        66.085E-6  4.        
-0.48      -1.2        67.327E-6  4.        
-0.5       -1.2        68.463E-6  4.        
-0.52      -1.2        69.498E-6  4.        
-0.54      -1.2        70.441E-6  4.        
-0.56      -1.2        71.299E-6  4.        
-0.58      -1.2        72.079E-6  4.        
-0.6       -1.2        72.787E-6  4.        
-0.62      -1.2        73.432E-6  4.        
-0.64      -1.2        74.017E-6  4.        
-0.66      -1.2        74.55E-6   4.        
-0.68      -1.2        75.035E-6  4.        
-0.7       -1.2        75.478E-6  4.        
-0.72      -1.2        75.881E-6  4.        
-0.74      -1.2        76.25E-6   4.        
-0.76      -1.2        76.588E-6  4.        
-0.78      -1.2        76.899E-6  4.        
-0.8       -1.2        77.184E-6  4.        
-0.82      -1.2        77.446E-6  4.        
-0.84      -1.2        77.689E-6  4.        
-0.86      -1.2        77.913E-6  4.        
-0.88      -1.2        78.122E-6  4.        
-0.9       -1.2        78.315E-6  4.        
-0.92      -1.2        78.495E-6  4.        
-0.94      -1.2        78.664E-6  4.        
-0.96      -1.2        78.821E-6  4.        
-0.98      -1.2        78.969E-6  4.        
-1.        -1.2        79.108E-6  4.        
-1.02      -1.2        79.238E-6  4.        
-1.04      -1.2        79.362E-6  4.        
-1.06      -1.2        79.479E-6  4.        
-1.08      -1.2        79.589E-6  4.        
-1.1       -1.2        79.694E-6  4.        
-1.12      -1.2        79.794E-6  4.        
-1.14      -1.2        79.889E-6  4.        
-1.16      -1.2        79.98E-6   4.        
-1.18      -1.2        80.066E-6  4.        
-1.2       -1.2        80.149E-6  4.        
Gnucap   System status
iterations: op=0, dc=1464, tran=0, fourier=0, total=1464
transient timesteps: accepted=0, rejected=0, total=0
nodes: user=2, subckt=0, model=15, total=17
dctran density=40.8%, ac density=40.8%
