#           v(g)       i(tb.sd)   iter(0)   
 0.         0.2        5.635E-15  4.        
 0.02       0.2       -13.E-9     4.        
 0.04       0.2       -19.497E-9  4.        
 0.06       0.2       -22.815E-9  4.        
 0.08       0.2       -24.677E-9  4.        
 0.1        0.2       -25.919E-9  4.        
 0.12       0.2       -26.905E-9  4.        
 0.14       0.2       -27.792E-9  4.        
 0.16       0.2       -28.638E-9  4.        
 0.18       0.2       -29.475E-9  4.        
 0.2        0.2       -30.301E-9  4.        
 0.22       0.2       -31.123E-9  4.        
 0.24       0.2       -31.949E-9  4.        
 0.26       0.2       -32.767E-9  4.        
 0.28       0.2       -33.589E-9  4.        
 0.3        0.2       -34.404E-9  4.        
 0.32       0.2       -35.216E-9  4.        
 0.34       0.2       -36.023E-9  4.        
 0.36       0.2       -36.831E-9  4.        
 0.38       0.2       -37.631E-9  4.        
 0.4        0.2       -38.41E-9   4.        
 0.42       0.2       -39.203E-9  4.        
 0.44       0.2       -39.981E-9  4.        
 0.46       0.2       -40.745E-9  4.        
 0.48       0.2       -41.509E-9  4.        
 0.5        0.2       -42.259E-9  4.        
 0.52       0.2       -43.008E-9  4.        
 0.54       0.2       -43.75E-9   4.        
 0.56       0.2       -44.492E-9  4.        
 0.58       0.2       -45.22E-9   4.        
 0.6        0.2       -45.94E-9   4.        
 0.62       0.2       -46.653E-9  4.        
 0.64       0.2       -47.359E-9  4.        
 0.66       0.2       -48.05E-9   4.        
 0.68       0.2       -48.763E-9  4.        
 0.7        0.2       -49.447E-9  4.        
 0.72       0.2       -50.131E-9  4.        
 0.74       0.2       -50.815E-9  4.        
 0.76       0.2       -51.485E-9  4.        
 0.78       0.2       -52.154E-9  4.        
 0.8        0.2       -52.794E-9  4.        
 0.82       0.2       -53.464E-9  4.        
 0.84       0.2       -54.104E-9  4.        
 0.86       0.2       -54.73E-9   4.        
 0.88       0.2       -55.37E-9   4.        
 0.9        0.2       -55.996E-9  4.        
 0.92       0.2       -56.622E-9  4.        
 0.94       0.2       -57.233E-9  4.        
 0.96       0.2       -57.844E-9  4.        
 0.98       0.2       -58.455E-9  4.        
 1.         0.2       -59.066E-9  4.        
 1.02       0.2       -59.677E-9  4.        
 1.04       0.2       -60.259E-9  4.        
 1.06       0.2       -60.842E-9  4.        
 1.08       0.2       -61.409E-9  4.        
 1.1        0.2       -62.02E-9   4.        
 1.12       0.2       -62.573E-9  4.        
 1.14       0.2       -63.126E-9  4.        
 1.16       0.2       -63.694E-9  4.        
 1.18       0.2       -64.276E-9  4.        
 1.2        0.2       -64.829E-9  4.        
 0.         0.4        315.6E-15  4.        
 0.02       0.4       -1.0712E-6  4.        
 0.04       0.4       -1.8691E-6  4.        
 0.06       0.4       -2.4279E-6  4.        
 0.08       0.4       -2.7976E-6  4.        
 0.1        0.4       -3.036E-6   4.        
 0.12       0.4       -3.1936E-6  4.        
 0.14       0.4       -3.3058E-6  4.        
 0.16       0.4       -3.3936E-6  4.        
 0.18       0.4       -3.4682E-6  4.        
 0.2        0.4       -3.5356E-6  4.        
 0.22       0.4       -3.5987E-6  4.        
 0.24       0.4       -3.6592E-6  4.        
 0.26       0.4       -3.7178E-6  4.        
 0.28       0.4       -3.775E-6   4.        
 0.3        0.4       -3.831E-6   4.        
 0.32       0.4       -3.8861E-6  4.        
 0.34       0.4       -3.9402E-6  4.        
 0.36       0.4       -3.9935E-6  4.        
 0.38       0.4       -4.046E-6   4.        
 0.4        0.4       -4.0977E-6  4.        
 0.42       0.4       -4.1487E-6  4.        
 0.44       0.4       -4.199E-6   4.        
 0.46       0.4       -4.2486E-6  4.        
 0.48       0.4       -4.2975E-6  4.        
 0.5        0.4       -4.3458E-6  4.        
 0.52       0.4       -4.3934E-6  4.        
 0.54       0.4       -4.4405E-6  4.        
 0.56       0.4       -4.4869E-6  4.        
 0.58       0.4       -4.5327E-6  4.        
 0.6        0.4       -4.578E-6   4.        
 0.62       0.4       -4.6227E-6  4.        
 0.64       0.4       -4.6668E-6  4.        
 0.66       0.4       -4.7105E-6  4.        
 0.68       0.4       -4.7536E-6  4.        
 0.7        0.4       -4.7962E-6  4.        
 0.72       0.4       -4.8383E-6  4.        
 0.74       0.4       -4.8799E-6  4.        
 0.76       0.4       -4.9211E-6  4.        
 0.78       0.4       -4.9618E-6  4.        
 0.8        0.4       -5.002E-6   4.        
 0.82       0.4       -5.0418E-6  4.        
 0.84       0.4       -5.0812E-6  4.        
 0.86       0.4       -5.1202E-6  4.        
 0.88       0.4       -5.1588E-6  4.        
 0.9        0.4       -5.197E-6   4.        
 0.92       0.4       -5.2347E-6  4.        
 0.94       0.4       -5.2721E-6  4.        
 0.96       0.4       -5.3092E-6  4.        
 0.98       0.4       -5.3458E-6  4.        
 1.         0.4       -5.3821E-6  4.        
 1.02       0.4       -5.4181E-6  4.        
 1.04       0.4       -5.4537E-6  4.        
 1.06       0.4       -5.489E-6   4.        
 1.08       0.4       -5.5239E-6  4.        
 1.1        0.4       -5.5586E-6  4.        
 1.12       0.4       -5.5929E-6  4.        
 1.14       0.4       -5.6269E-6  4.        
 1.16       0.4       -5.6606E-6  4.        
 1.18       0.4       -5.694E-6   4.        
 1.2        0.4       -5.7271E-6  4.        
 0.         0.6        2.323E-12  4.        
 0.02       0.6       -4.3644E-6  4.        
 0.04       0.6       -8.2834E-6  4.        
 0.06       0.6       -11.747E-6  4.        
 0.08       0.6       -14.751E-6  4.        
 0.1        0.6       -17.302E-6  4.        
 0.12       0.6       -19.422E-6  4.        
 0.14       0.6       -21.151E-6  4.        
 0.16       0.6       -22.54E-6   4.        
 0.18       0.6       -23.647E-6  4.        
 0.2        0.6       -24.53E-6   4.        
 0.22       0.6       -25.24E-6   4.        
 0.24       0.6       -25.821E-6  4.        
 0.26       0.6       -26.307E-6  4.        
 0.28       0.6       -26.725E-6  4.        
 0.3        0.6       -27.093E-6  4.        
 0.32       0.6       -27.424E-6  4.        
 0.34       0.6       -27.728E-6  4.        
 0.36       0.6       -28.012E-6  4.        
 0.38       0.6       -28.28E-6   4.        
 0.4        0.6       -28.536E-6  4.        
 0.42       0.6       -28.781E-6  4.        
 0.44       0.6       -29.018E-6  4.        
 0.46       0.6       -29.247E-6  4.        
 0.48       0.6       -29.47E-6   4.        
 0.5        0.6       -29.687E-6  4.        
 0.52       0.6       -29.899E-6  4.        
 0.54       0.6       -30.106E-6  4.        
 0.56       0.6       -30.309E-6  4.        
 0.58       0.6       -30.507E-6  4.        
 0.6        0.6       -30.702E-6  4.        
 0.62       0.6       -30.893E-6  4.        
 0.64       0.6       -31.08E-6   4.        
 0.66       0.6       -31.264E-6  4.        
 0.68       0.6       -31.445E-6  4.        
 0.7        0.6       -31.623E-6  4.        
 0.72       0.6       -31.798E-6  4.        
 0.74       0.6       -31.971E-6  4.        
 0.76       0.6       -32.14E-6   4.        
 0.78       0.6       -32.307E-6  4.        
 0.8        0.6       -32.472E-6  4.        
 0.82       0.6       -32.634E-6  4.        
 0.84       0.6       -32.793E-6  4.        
 0.86       0.6       -32.951E-6  4.        
 0.88       0.6       -33.106E-6  4.        
 0.9        0.6       -33.259E-6  4.        
 0.92       0.6       -33.41E-6   4.        
 0.94       0.6       -33.559E-6  4.        
 0.96       0.6       -33.706E-6  4.        
 0.98       0.6       -33.851E-6  4.        
 1.         0.6       -33.995E-6  4.        
 1.02       0.6       -34.136E-6  4.        
 1.04       0.6       -34.276E-6  4.        
 1.06       0.6       -34.414E-6  4.        
 1.08       0.6       -34.551E-6  4.        
 1.1        0.6       -34.686E-6  4.        
 1.12       0.6       -34.819E-6  4.        
 1.14       0.6       -34.951E-6  4.        
 1.16       0.6       -35.081E-6  4.        
 1.18       0.6       -35.21E-6   4.        
 1.2        0.6       -35.338E-6  4.        
 0.         0.8        9.711E-12  5.        
 0.02       0.8       -8.1133E-6  4.        
 0.04       0.8       -15.778E-6  4.        
 0.06       0.8       -22.97E-6   4.        
 0.08       0.8       -29.665E-6  4.        
 0.1        0.8       -35.843E-6  4.        
 0.12       0.8       -41.488E-6  4.        
 0.14       0.8       -46.595E-6  4.        
 0.16       0.8       -51.17E-6   4.        
 0.18       0.8       -55.228E-6  4.        
 0.2        0.8       -58.797E-6  4.        
 0.22       0.8       -61.912E-6  4.        
 0.24       0.8       -64.615E-6  4.        
 0.26       0.8       -66.953E-6  4.        
 0.28       0.8       -68.971E-6  4.        
 0.3        0.8       -70.716E-6  4.        
 0.32       0.8       -72.23E-6   4.        
 0.34       0.8       -73.551E-6  4.        
 0.36       0.8       -74.711E-6  4.        
 0.38       0.8       -75.74E-6   4.        
 0.4        0.8       -76.661E-6  4.        
 0.42       0.8       -77.494E-6  4.        
 0.44       0.8       -78.254E-6  4.        
 0.46       0.8       -78.955E-6  4.        
 0.48       0.8       -79.607E-6  4.        
 0.5        0.8       -80.218E-6  4.        
 0.52       0.8       -80.794E-6  4.        
 0.54       0.8       -81.341E-6  4.        
 0.56       0.8       -81.863E-6  4.        
 0.58       0.8       -82.364E-6  4.        
 0.6        0.8       -82.845E-6  4.        
 0.62       0.8       -83.31E-6   4.        
 0.64       0.8       -83.76E-6   4.        
 0.66       0.8       -84.197E-6  4.        
 0.68       0.8       -84.622E-6  4.        
 0.7        0.8       -85.035E-6  4.        
 0.72       0.8       -85.438E-6  4.        
 0.74       0.8       -85.832E-6  4.        
 0.76       0.8       -86.216E-6  4.        
 0.78       0.8       -86.593E-6  4.        
 0.8        0.8       -86.961E-6  4.        
 0.82       0.8       -87.323E-6  4.        
 0.84       0.8       -87.677E-6  4.        
 0.86       0.8       -88.024E-6  4.        
 0.88       0.8       -88.365E-6  4.        
 0.9        0.8       -88.7E-6    4.        
 0.92       0.8       -89.03E-6   4.        
 0.94       0.8       -89.353E-6  4.        
 0.96       0.8       -89.672E-6  4.        
 0.98       0.8       -89.985E-6  4.        
 1.         0.8       -90.293E-6  4.        
 1.02       0.8       -90.597E-6  4.        
 1.04       0.8       -90.896E-6  4.        
 1.06       0.8       -91.19E-6   4.        
 1.08       0.8       -91.481E-6  4.        
 1.1        0.8       -91.767E-6  4.        
 1.12       0.8       -92.049E-6  4.        
 1.14       0.8       -92.327E-6  4.        
 1.16       0.8       -92.601E-6  4.        
 1.18       0.8       -92.872E-6  4.        
 1.2        0.8       -93.139E-6  4.        
 0.         1.         32.36E-12  5.        
 0.02       1.        -11.451E-6  4.        
 0.04       1.        -22.507E-6  4.        
 0.06       1.        -33.139E-6  4.        
 0.08       1.        -43.315E-6  4.        
 0.1        1.        -53.006E-6  4.        
 0.12       1.        -62.184E-6  4.        
 0.14       1.        -70.826E-6  4.        
 0.16       1.        -78.914E-6  4.        
 0.18       1.        -86.438E-6  4.        
 0.2        1.        -93.396E-6  4.        
 0.22       1.        -99.791E-6  4.        
 0.24       1.        -105.64E-6  4.        
 0.26       1.        -110.96E-6  4.        
 0.28       1.        -115.78E-6  4.        
 0.3        1.        -120.12E-6  4.        
 0.32       1.        -124.03E-6  4.        
 0.34       1.        -127.54E-6  4.        
 0.36       1.        -130.7E-6   4.        
 0.38       1.        -133.52E-6  4.        
 0.4        1.        -136.06E-6  4.        
 0.42       1.        -138.35E-6  4.        
 0.44       1.        -140.41E-6  4.        
 0.46       1.        -142.27E-6  4.        
 0.48       1.        -143.97E-6  4.        
 0.5        1.        -145.52E-6  4.        
 0.52       1.        -146.94E-6  4.        
 0.54       1.        -148.25E-6  4.        
 0.56       1.        -149.46E-6  4.        
 0.58       1.        -150.59E-6  4.        
 0.6        1.        -151.65E-6  4.        
 0.62       1.        -152.64E-6  4.        
 0.64       1.        -153.58E-6  4.        
 0.66       1.        -154.47E-6  4.        
 0.68       1.        -155.32E-6  4.        
 0.7        1.        -156.13E-6  4.        
 0.72       1.        -156.9E-6   4.        
 0.74       1.        -157.65E-6  4.        
 0.76       1.        -158.36E-6  4.        
 0.78       1.        -159.06E-6  4.        
 0.8        1.        -159.73E-6  4.        
 0.82       1.        -160.37E-6  4.        
 0.84       1.        -161.E-6    4.        
 0.86       1.        -161.62E-6  4.        
 0.88       1.        -162.21E-6  4.        
 0.9        1.        -162.79E-6  4.        
 0.92       1.        -163.36E-6  4.        
 0.94       1.        -163.91E-6  4.        
 0.96       1.        -164.45E-6  4.        
 0.98       1.        -164.98E-6  4.        
 1.         1.        -165.5E-6   4.        
 1.02       1.        -166.01E-6  4.        
 1.04       1.        -166.51E-6  4.        
 1.06       1.        -167.E-6    4.        
 1.08       1.        -167.47E-6  4.        
 1.1        1.        -167.94E-6  4.        
 1.12       1.        -168.41E-6  4.        
 1.14       1.        -168.86E-6  4.        
 1.16       1.        -169.31E-6  4.        
 1.18       1.        -169.75E-6  4.        
 1.2        1.        -170.18E-6  4.        
 0.         1.2        92.73E-12  5.        
 0.02       1.2       -14.152E-6  4.        
 0.04       1.2       -27.976E-6  4.        
 0.06       1.2       -41.441E-6  4.        
 0.08       1.2       -54.513E-6  4.        
 0.1        1.2       -67.161E-6  4.        
 0.12       1.2       -79.352E-6  4.        
 0.14       1.2       -91.058E-6  4.        
 0.16       1.2       -102.25E-6  4.        
 0.18       1.2       -112.91E-6  4.        
 0.2        1.2       -123.02E-6  4.        
 0.22       1.2       -132.57E-6  4.        
 0.24       1.2       -141.55E-6  4.        
 0.26       1.2       -149.97E-6  4.        
 0.28       1.2       -157.82E-6  4.        
 0.3        1.2       -165.12E-6  4.        
 0.32       1.2       -171.88E-6  4.        
 0.34       1.2       -178.14E-6  4.        
 0.36       1.2       -183.9E-6   4.        
 0.38       1.2       -189.2E-6   4.        
 0.4        1.2       -194.07E-6  4.        
 0.42       1.2       -198.54E-6  4.        
 0.44       1.2       -202.63E-6  4.        
 0.46       1.2       -206.39E-6  4.        
 0.48       1.2       -209.83E-6  4.        
 0.5        1.2       -212.99E-6  4.        
 0.52       1.2       -215.9E-6   4.        
 0.54       1.2       -218.57E-6  4.        
 0.56       1.2       -221.03E-6  4.        
 0.58       1.2       -223.31E-6  4.        
 0.6        1.2       -225.42E-6  4.        
 0.62       1.2       -227.38E-6  4.        
 0.64       1.2       -229.2E-6   4.        
 0.66       1.2       -230.91E-6  4.        
 0.68       1.2       -232.51E-6  4.        
 0.7        1.2       -234.01E-6  4.        
 0.72       1.2       -235.43E-6  4.        
 0.74       1.2       -236.77E-6  4.        
 0.76       1.2       -238.04E-6  4.        
 0.78       1.2       -239.25E-6  4.        
 0.8        1.2       -240.4E-6   4.        
 0.82       1.2       -241.5E-6   4.        
 0.84       1.2       -242.56E-6  4.        
 0.86       1.2       -243.57E-6  4.        
 0.88       1.2       -244.54E-6  4.        
 0.9        1.2       -245.48E-6  4.        
 0.92       1.2       -246.38E-6  4.        
 0.94       1.2       -247.26E-6  4.        
 0.96       1.2       -248.1E-6   4.        
 0.98       1.2       -248.93E-6  4.        
 1.         1.2       -249.72E-6  4.        
 1.02       1.2       -250.5E-6   4.        
 1.04       1.2       -251.25E-6  4.        
 1.06       1.2       -251.99E-6  4.        
 1.08       1.2       -252.7E-6   4.        
 1.1        1.2       -253.4E-6   4.        
 1.12       1.2       -254.09E-6  4.        
 1.14       1.2       -254.75E-6  4.        
 1.16       1.2       -255.41E-6  4.        
 1.18       1.2       -256.05E-6  4.        
 1.2        1.2       -256.67E-6  4.        
Gnucap   System status
iterations: op=0, dc=1467, tran=0, fourier=0, total=1467
transient timesteps: accepted=0, rejected=0, total=0
nodes: user=2, subckt=0, model=33, total=35
dctran density=60.1%, ac density=60.1%
