#           v(g)       i(tb.sd)   iter(0)   
 0.        -0.2       -88.14E-15  4.        
-0.02      -0.2        1.3563E-9  4.        
-0.04      -0.2        2.0332E-9  4.        
-0.06      -0.2        2.361E-9   4.        
-0.08      -0.2        2.5202E-9  4.        
-0.1       -0.2        2.5975E-9  4.        
-0.12      -0.2        2.6394E-9  4.        
-0.14      -0.2        2.6648E-9  4.        
-0.16      -0.2        2.6794E-9  4.        
-0.18      -0.2        2.6921E-9  4.        
-0.2       -0.2        2.6994E-9  4.        
-0.22      -0.2        2.7067E-9  4.        
-0.24      -0.2        2.7139E-9  4.        
-0.26      -0.2        2.7176E-9  4.        
-0.28      -0.2        0.         4.        
-0.3       -0.2        0.         4.        
-0.32      -0.2        0.         4.        
-0.34      -0.2        0.         4.        
-0.36      -0.2        0.         4.        
-0.38      -0.2        0.         4.        
-0.4       -0.2        0.         4.        
-0.42      -0.2        0.         4.        
-0.44      -0.2        0.         4.        
-0.46      -0.2        0.         4.        
-0.48      -0.2        0.         4.        
-0.5       -0.2        0.         4.        
-0.52      -0.2        0.         4.        
-0.54      -0.2        0.         4.        
-0.56      -0.2        0.         4.        
-0.58      -0.2        0.         4.        
-0.6       -0.2        0.         4.        
-0.62      -0.2        0.         4.        
-0.64      -0.2        0.         4.        
-0.66      -0.2        0.         4.        
-0.68      -0.2        0.         4.        
-0.7       -0.2        0.         4.        
-0.72      -0.2        0.         4.        
-0.74      -0.2        0.         4.        
-0.76      -0.2        0.         4.        
-0.78      -0.2        0.         4.        
-0.8       -0.2        0.         4.        
-0.82      -0.2        0.         4.        
-0.84      -0.2        0.         4.        
-0.86      -0.2        0.         4.        
-0.88      -0.2        0.         4.        
-0.9       -0.2        0.         4.        
-0.92      -0.2        0.         4.        
-0.94      -0.2        0.         4.        
-0.96      -0.2        0.         4.        
-0.98      -0.2        0.         4.        
-1.        -0.2        0.         4.        
-1.02      -0.2        0.         4.        
-1.04      -0.2        0.         4.        
-1.06      -0.2        0.         4.        
-1.08      -0.2        0.         4.        
-1.1       -0.2        0.         4.        
-1.12      -0.2        0.         4.        
-1.14      -0.2        0.         4.        
-1.16      -0.2        0.         4.        
-1.18      -0.2        0.         4.        
-1.2       -0.2        0.         4.        
 0.        -0.4       -274.6E-15  4.        
-0.02      -0.4        221.44E-9  4.        
-0.04      -0.4        363.58E-9  4.        
-0.06      -0.4        447.48E-9  4.        
-0.08      -0.4        493.93E-9  4.        
-0.1       -0.4        519.37E-9  4.        
-0.12      -0.4        534.07E-9  4.        
-0.14      -0.4        543.45E-9  4.        
-0.16      -0.4        550.1E-9   4.        
-0.18      -0.4        555.25E-9  4.        
-0.2       -0.4        559.52E-9  4.        
-0.22      -0.4        563.22E-9  4.        
-0.24      -0.4        566.51E-9  4.        
-0.26      -0.4        569.5E-9   4.        
-0.28      -0.4        572.27E-9  4.        
-0.3       -0.4        574.86E-9  4.        
-0.32      -0.4        577.28E-9  4.        
-0.34      -0.4        579.59E-9  4.        
-0.36      -0.4        581.79E-9  4.        
-0.38      -0.4        583.9E-9   4.        
-0.4       -0.4        585.92E-9  4.        
-0.42      -0.4        587.88E-9  4.        
-0.44      -0.4        589.76E-9  4.        
-0.46      -0.4        591.58E-9  4.        
-0.48      -0.4        593.36E-9  4.        
-0.5       -0.4        595.09E-9  4.        
-0.52      -0.4        596.77E-9  4.        
-0.54      -0.4        598.4E-9   4.        
-0.56      -0.4        600.03E-9  4.        
-0.58      -0.4        601.58E-9  4.        
-0.6       -0.4        603.11E-9  4.        
-0.62      -0.4        604.62E-9  4.        
-0.64      -0.4        606.1E-9   4.        
-0.66      -0.4        607.56E-9  4.        
-0.68      -0.4        608.98E-9  4.        
-0.7       -0.4        610.39E-9  4.        
-0.72      -0.4        611.79E-9  4.        
-0.74      -0.4        613.14E-9  4.        
-0.76      -0.4        614.5E-9   4.        
-0.78      -0.4        615.82E-9  4.        
-0.8       -0.4        617.13E-9  4.        
-0.82      -0.4        618.43E-9  4.        
-0.84      -0.4        619.71E-9  4.        
-0.86      -0.4        620.99E-9  4.        
-0.88      -0.4        622.24E-9  4.        
-0.9       -0.4        623.46E-9  4.        
-0.92      -0.4        624.7E-9   4.        
-0.94      -0.4        625.92E-9  4.        
-0.96      -0.4        627.1E-9   4.        
-0.98      -0.4        628.31E-9  4.        
-1.        -0.4        629.49E-9  4.        
-1.02      -0.4        630.65E-9  4.        
-1.04      -0.4        631.83E-9  4.        
-1.06      -0.4        632.98E-9  4.        
-1.08      -0.4        634.11E-9  4.        
-1.1       -0.4        635.25E-9  4.        
-1.12      -0.4        636.37E-9  4.        
-1.14      -0.4        637.5E-9   4.        
-1.16      -0.4        638.63E-9  4.        
-1.18      -0.4        639.75E-9  4.        
-1.2       -0.4        640.81E-9  4.        
 0.        -0.6       -1.003E-12  4.        
-0.02      -0.6        1.5149E-6  4.        
-0.04      -0.6        2.8372E-6  4.        
-0.06      -0.6        3.9677E-6  4.        
-0.08      -0.6        4.9095E-6  4.        
-0.1       -0.6        5.6707E-6  4.        
-0.12      -0.6        6.2669E-6  4.        
-0.14      -0.6        6.7206E-6  4.        
-0.16      -0.6        7.0585E-6  4.        
-0.18      -0.6        7.3074E-6  4.        
-0.2       -0.6        7.4913E-6  4.        
-0.22      -0.6        7.6292E-6  4.        
-0.24      -0.6        7.7352E-6  4.        
-0.26      -0.6        7.819E-6   4.        
-0.28      -0.6        7.8874E-6  4.        
-0.3       -0.6        7.9448E-6  4.        
-0.32      -0.6        7.9943E-6  4.        
-0.34      -0.6        8.0377E-6  4.        
-0.36      -0.6        8.0766E-6  4.        
-0.38      -0.6        8.1119E-6  4.        
-0.4       -0.6        8.1442E-6  4.        
-0.42      -0.6        8.1742E-6  4.        
-0.44      -0.6        8.2022E-6  4.        
-0.46      -0.6        8.2285E-6  4.        
-0.48      -0.6        8.2534E-6  4.        
-0.5       -0.6        8.277E-6   4.        
-0.52      -0.6        8.2994E-6  4.        
-0.54      -0.6        8.3209E-6  4.        
-0.56      -0.6        8.3415E-6  4.        
-0.58      -0.6        8.3613E-6  4.        
-0.6       -0.6        8.3804E-6  4.        
-0.62      -0.6        8.3989E-6  4.        
-0.64      -0.6        8.4167E-6  4.        
-0.66      -0.6        8.434E-6   4.        
-0.68      -0.6        8.4507E-6  4.        
-0.7       -0.6        8.467E-6   4.        
-0.72      -0.6        8.4829E-6  4.        
-0.74      -0.6        8.4983E-6  4.        
-0.76      -0.6        8.5134E-6  4.        
-0.78      -0.6        8.5281E-6  4.        
-0.8       -0.6        8.5425E-6  4.        
-0.82      -0.6        8.5566E-6  4.        
-0.84      -0.6        8.5703E-6  4.        
-0.86      -0.6        8.5838E-6  4.        
-0.88      -0.6        8.597E-6   4.        
-0.9       -0.6        8.61E-6    4.        
-0.92      -0.6        8.6228E-6  4.        
-0.94      -0.6        8.6353E-6  4.        
-0.96      -0.6        8.6476E-6  4.        
-0.98      -0.6        8.6597E-6  4.        
-1.        -0.6        8.6716E-6  4.        
-1.02      -0.6        8.6833E-6  4.        
-1.04      -0.6        8.6949E-6  4.        
-1.06      -0.6        8.7062E-6  4.        
-1.08      -0.6        8.7174E-6  4.        
-1.1       -0.6        8.7285E-6  4.        
-1.12      -0.6        8.7394E-6  4.        
-1.14      -0.6        8.7502E-6  4.        
-1.16      -0.6        8.7608E-6  4.        
-1.18      -0.6        8.7713E-6  4.        
-1.2       -0.6        8.7817E-6  4.        
 0.        -0.8       -2.914E-12  4.        
-0.02      -0.8        3.1207E-6  4.        
-0.04      -0.8        6.0455E-6  4.        
-0.06      -0.8        8.7703E-6  4.        
-0.08      -0.8        11.29E-6   4.        
-0.1       -0.8        13.601E-6  4.        
-0.12      -0.8        15.698E-6  4.        
-0.14      -0.8        17.582E-6  4.        
-0.16      -0.8        19.253E-6  4.        
-0.18      -0.8        20.718E-6  4.        
-0.2       -0.8        21.987E-6  4.        
-0.22      -0.8        23.074E-6  4.        
-0.24      -0.8        23.995E-6  4.        
-0.26      -0.8        24.769E-6  4.        
-0.28      -0.8        25.416E-6  4.        
-0.3       -0.8        25.954E-6  4.        
-0.32      -0.8        26.402E-6  4.        
-0.34      -0.8        26.775E-6  4.        
-0.36      -0.8        27.088E-6  4.        
-0.38      -0.8        27.351E-6  4.        
-0.4       -0.8        27.574E-6  4.        
-0.42      -0.8        27.766E-6  4.        
-0.44      -0.8        27.931E-6  4.        
-0.46      -0.8        28.076E-6  4.        
-0.48      -0.8        28.203E-6  4.        
-0.5       -0.8        28.317E-6  4.        
-0.52      -0.8        28.419E-6  4.        
-0.54      -0.8        28.512E-6  4.        
-0.56      -0.8        28.596E-6  4.        
-0.58      -0.8        28.674E-6  4.        
-0.6       -0.8        28.746E-6  4.        
-0.62      -0.8        28.813E-6  4.        
-0.64      -0.8        28.876E-6  4.        
-0.66      -0.8        28.935E-6  4.        
-0.68      -0.8        28.991E-6  4.        
-0.7       -0.8        29.044E-6  4.        
-0.72      -0.8        29.094E-6  4.        
-0.74      -0.8        29.142E-6  4.        
-0.76      -0.8        29.188E-6  4.        
-0.78      -0.8        29.232E-6  4.        
-0.8       -0.8        29.274E-6  4.        
-0.82      -0.8        29.315E-6  4.        
-0.84      -0.8        29.354E-6  4.        
-0.86      -0.8        29.393E-6  4.        
-0.88      -0.8        29.429E-6  4.        
-0.9       -0.8        29.465E-6  4.        
-0.92      -0.8        29.5E-6    4.        
-0.94      -0.8        29.534E-6  4.        
-0.96      -0.8        29.567E-6  4.        
-0.98      -0.8        29.599E-6  4.        
-1.        -0.8        29.63E-6   4.        
-1.02      -0.8        29.661E-6  4.        
-1.04      -0.8        29.691E-6  4.        
-1.06      -0.8        29.72E-6   4.        
-1.08      -0.8        29.749E-6  4.        
-1.1       -0.8        29.777E-6  4.        
-1.12      -0.8        29.805E-6  4.        
-1.14      -0.8        29.832E-6  4.        
-1.16      -0.8        29.858E-6  4.        
-1.18      -0.8        29.884E-6  4.        
-1.2       -0.8        29.91E-6   4.        
 0.        -1.        -6.911E-12  4.        
-0.02      -1.         4.5563E-6  4.        
-0.04      -1.         8.9394E-6  4.        
-0.06      -1.         13.145E-6  4.        
-0.08      -1.         17.168E-6  4.        
-0.1       -1.         21.003E-6  4.        
-0.12      -1.         24.645E-6  4.        
-0.14      -1.         28.089E-6  4.        
-0.16      -1.         31.33E-6   4.        
-0.18      -1.         34.364E-6  4.        
-0.2       -1.         37.188E-6  4.        
-0.22      -1.         39.802E-6  4.        
-0.24      -1.         42.207E-6  4.        
-0.26      -1.         44.405E-6  4.        
-0.28      -1.         46.402E-6  4.        
-0.3       -1.         48.207E-6  4.        
-0.32      -1.         49.827E-6  4.        
-0.34      -1.         51.275E-6  4.        
-0.36      -1.         52.564E-6  4.        
-0.38      -1.         53.706E-6  4.        
-0.4       -1.         54.715E-6  4.        
-0.42      -1.         55.605E-6  4.        
-0.44      -1.         56.389E-6  4.        
-0.46      -1.         57.079E-6  4.        
-0.48      -1.         57.687E-6  4.        
-0.5       -1.         58.223E-6  4.        
-0.52      -1.         58.697E-6  4.        
-0.54      -1.         59.116E-6  4.        
-0.56      -1.         59.489E-6  4.        
-0.58      -1.         59.821E-6  4.        
-0.6       -1.         60.118E-6  4.        
-0.62      -1.         60.385E-6  4.        
-0.64      -1.         60.626E-6  4.        
-0.66      -1.         60.845E-6  4.        
-0.68      -1.         61.043E-6  4.        
-0.7       -1.         61.225E-6  4.        
-0.72      -1.         61.392E-6  4.        
-0.74      -1.         61.545E-6  4.        
-0.76      -1.         61.687E-6  4.        
-0.78      -1.         61.82E-6   4.        
-0.8       -1.         61.943E-6  4.        
-0.82      -1.         62.058E-6  4.        
-0.84      -1.         62.166E-6  4.        
-0.86      -1.         62.268E-6  4.        
-0.88      -1.         62.364E-6  4.        
-0.9       -1.         62.455E-6  4.        
-0.92      -1.         62.541E-6  4.        
-0.94      -1.         62.623E-6  4.        
-0.96      -1.         62.702E-6  4.        
-0.98      -1.         62.777E-6  4.        
-1.        -1.         62.849E-6  4.        
-1.02      -1.         62.918E-6  4.        
-1.04      -1.         62.984E-6  4.        
-1.06      -1.         63.048E-6  4.        
-1.08      -1.         63.11E-6   4.        
-1.1       -1.         63.17E-6   4.        
-1.12      -1.         63.228E-6  4.        
-1.14      -1.         63.284E-6  4.        
-1.16      -1.         63.338E-6  4.        
-1.18      -1.         63.391E-6  4.        
-1.2       -1.         63.442E-6  4.        
 0.        -1.2       -14.2E-12   4.        
-0.02      -1.2        5.754E-6   4.        
-0.04      -1.2        11.359E-6  4.        
-0.06      -1.2        16.811E-6  4.        
-0.08      -1.2        22.106E-6  4.        
-0.1       -1.2        27.238E-6  4.        
-0.12      -1.2        32.205E-6  4.        
-0.14      -1.2        37.002E-6  4.        
-0.16      -1.2        41.622E-6  4.        
-0.18      -1.2        46.063E-6  4.        
-0.2       -1.2        50.319E-6  4.        
-0.22      -1.2        54.387E-6  4.        
-0.24      -1.2        58.262E-6  4.        
-0.26      -1.2        61.941E-6  4.        
-0.28      -1.2        65.423E-6  4.        
-0.3       -1.2        68.706E-6  4.        
-0.32      -1.2        71.79E-6   4.        
-0.34      -1.2        74.678E-6  4.        
-0.36      -1.2        77.371E-6  4.        
-0.38      -1.2        79.875E-6  4.        
-0.4       -1.2        82.193E-6  4.        
-0.42      -1.2        84.334E-6  4.        
-0.44      -1.2        86.305E-6  4.        
-0.46      -1.2        88.114E-6  4.        
-0.48      -1.2        89.77E-6   4.        
-0.5       -1.2        91.283E-6  4.        
-0.52      -1.2        92.664E-6  4.        
-0.54      -1.2        93.921E-6  4.        
-0.56      -1.2        95.065E-6  4.        
-0.58      -1.2        96.105E-6  4.        
-0.6       -1.2        97.05E-6   4.        
-0.62      -1.2        97.909E-6  4.        
-0.64      -1.2        98.69E-6   4.        
-0.66      -1.2        99.4E-6    4.        
-0.68      -1.2        100.05E-6  4.        
-0.7       -1.2        100.64E-6  4.        
-0.72      -1.2        101.18E-6  4.        
-0.74      -1.2        101.67E-6  4.        
-0.76      -1.2        102.12E-6  4.        
-0.78      -1.2        102.53E-6  4.        
-0.8       -1.2        102.91E-6  4.        
-0.82      -1.2        103.26E-6  4.        
-0.84      -1.2        103.59E-6  4.        
-0.86      -1.2        103.88E-6  4.        
-0.88      -1.2        104.16E-6  4.        
-0.9       -1.2        104.42E-6  4.        
-0.92      -1.2        104.66E-6  4.        
-0.94      -1.2        104.88E-6  4.        
-0.96      -1.2        105.09E-6  4.        
-0.98      -1.2        105.29E-6  4.        
-1.        -1.2        105.48E-6  4.        
-1.02      -1.2        105.65E-6  4.        
-1.04      -1.2        105.82E-6  4.        
-1.06      -1.2        105.97E-6  4.        
-1.08      -1.2        106.12E-6  4.        
-1.1       -1.2        106.26E-6  4.        
-1.12      -1.2        106.39E-6  4.        
-1.14      -1.2        106.52E-6  4.        
-1.16      -1.2        106.64E-6  4.        
-1.18      -1.2        106.76E-6  4.        
-1.2       -1.2        106.87E-6  4.        
Gnucap   System status
iterations: op=0, dc=1464, tran=0, fourier=0, total=1464
transient timesteps: accepted=0, rejected=0, total=0
nodes: user=2, subckt=0, model=15, total=17
dctran density=40.8%, ac density=40.8%
