#           v(out)     i(tb.vdd_src) iter(0)   
 0.         1.1998    -40.251E-9  156.      
 0.02       1.1998    -40.251E-9  4.        
 0.04       1.1998    -40.221E-9  4.        
 0.06       1.1998    -40.265E-9  5.        
 0.08       1.1998    -40.382E-9  5.        
 0.1        1.1998    -40.542E-9  5.        
 0.12       1.1998    -40.876E-9  5.        
 0.14       1.1998    -41.488E-9  5.        
 0.16       1.1997    -42.579E-9  5.        
 0.18       1.1997    -44.674E-9  5.        
 0.2        1.1996    -48.56E-9   5.        
 0.22       1.1995    -55.777E-9  5.        
 0.24       1.1992    -69.122E-9  5.        
 0.26       1.1988    -93.205E-9  5.        
 0.28       1.1979    -135.42E-9  5.        
 0.3        1.1964    -205.97E-9  5.        
 0.32       1.194     -316.65E-9  5.        
 0.34       1.1902    -479.3E-9   5.        
 0.36       1.1847    -703.34E-9  5.        
 0.38       1.1769    -996.66E-9  5.        
 0.4        1.1661    -1.3656E-6  5.        
 0.42       1.1514    -1.8155E-6  5.        
 0.44       1.1309    -2.3498E-6  5.        
 0.46       1.1016    -2.9688E-6  5.        
 0.48       1.0544    -3.6628E-6  6.        
 0.5        0.93939   -4.3608E-6  7.        
 0.52       0.42672   -4.3612E-6  6.        
 0.54       0.12213   -3.9389E-6  9.        
 0.56       0.074781  -3.4766E-6  7.        
 0.58       0.053008  -3.0405E-6  6.        
 0.6        0.039314  -2.6349E-6  5.        
 0.62       0.029722  -2.2608E-6  5.        
 0.64       0.022643  -1.9183E-6  5.        
 0.66       0.017266  -1.6074E-6  5.        
 0.68       0.013114  -1.328E-6   5.        
 0.7        0.0098812 -1.0796E-6  5.        
 0.72       0.0073577 -861.49E-9  5.        
 0.74       0.005393  -672.94E-9  5.        
 0.76       0.003875  -512.77E-9  5.        
 0.78       0.0027173 -379.72E-9  5.        
 0.8        0.001851  -272.14E-9  5.        
 0.82       0.0012196 -188.03E-9  5.        
 0.84       774.7E-6  -124.9E-9   5.        
 0.86       474.11E-6 -79.701E-9  5.        
 0.88       280.34E-6 -49.025E-9  5.        
 0.9        161.18E-6 -29.264E-9  5.        
 0.92       90.843E-6 -17.069E-9  5.        
 0.94       50.58E-6   0.         5.        
 0.96       27.986E-6  0.         5.        
 0.98       15.449E-6  0.         5.        
 1.         8.5323E-6  0.         5.        
 1.02       4.7245E-6  0.         5.        
 1.04       2.6291E-6  0.         5.        
 1.06       1.4757E-6  0.         5.        
 1.08       840.38E-9  0.         5.        
 1.1        490.62E-9  0.         5.        
 1.12       298.53E-9  0.         5.        
 1.14       193.76E-9  0.         5.        
 1.16       137.52E-9  0.         5.        
 1.18       108.42E-9  0.         5.        
 1.2        94.605E-9  0.         5.        
Gnucap   System status
iterations: op=0, dc=465, tran=0, fourier=0, total=465
transient timesteps: accepted=0, rejected=0, total=0
nodes: user=2, subckt=1, model=30, total=33
dctran density=26.8%, ac density=26.8%
