#           v(vgs1)    v(vgs2)    v(vgs3)    v(vgs4)   
 1.         0.46318    0.45655   -0.6838    -0.67902   
 2.         0.45779    0.46155   -0.68481   -0.68468   
 3.         0.45705    0.45726   -0.68607   -0.68079   
 4.         0.46426    0.45629   -0.68411   -0.68179   
 5.         0.4595     0.45989   -0.68754   -0.68122   
 6.         0.46485    0.46248   -0.68251   -0.68276   
 7.         0.45735    0.46721   -0.68677   -0.68539   
 8.         0.46468    0.45648   -0.67941   -0.67946   
 9.         0.45168    0.4615    -0.67526   -0.6868    
 10.        0.44843    0.45858   -0.67947   -0.68688   
 11.        0.44928    0.46434   -0.69009   -0.68404   
 12.        0.46609    0.4667    -0.68512   -0.68523   
 13.        0.46339    0.46302   -0.68557   -0.68259   
 14.        0.46309    0.46629   -0.68382   -0.6848    
 15.        0.45735    0.46499   -0.68842   -0.68555   
 16.        0.46666    0.45376   -0.68356   -0.68169   
 17.        0.45763    0.45824   -0.68442   -0.68253   
 18.        0.45984    0.46157   -0.68314   -0.68411   
 19.        0.45511    0.45991   -0.68798   -0.67694   
 20.        0.46581    0.45274   -0.6779    -0.68548   
 21.        0.44931    0.45336   -0.6892    -0.68404   
 22.        0.46802    0.45848   -0.68082   -0.69104   
 23.        0.45139    0.45614   -0.68487   -0.69048   
 24.        0.46396    0.45798   -0.68535   -0.68298   
 25.        0.46133    0.45146   -0.68603   -0.68982   
 26.        0.46112    0.46075   -0.68282   -0.6848    
 27.        0.45889    0.4588    -0.69114   -0.68399   
 28.        0.46968    0.45695   -0.68469   -0.68375   
 29.        0.45861    0.46095   -0.68102   -0.68644   
 30.        0.45548    0.46419   -0.68231   -0.67932   
 31.        0.4546     0.45807   -0.68893   -0.6816    
 32.        0.46623    0.46841   -0.6783    -0.69159   
 33.        0.44945    0.45109   -0.68898   -0.68411   
 34.        0.46791    0.45141   -0.68108   -0.68276   
 35.        0.45272    0.44993   -0.68695   -0.68958   
 36.        0.4644     0.45986   -0.68391   -0.68349   
 37.        0.45824    0.46331   -0.68256   -0.68204   
 38.        0.45675    0.46249   -0.6904    -0.68008   
 39.        0.46971    0.45393   -0.68713   -0.68678   
 40.        0.462      0.4557    -0.68181   -0.68869   
 41.        0.45546    0.46781   -0.68437   -0.67893   
 42.        0.45737    0.45636   -0.67849   -0.68792   
 43.        0.45188    0.45388   -0.68247   -0.6841    
 44.        0.45882    0.46879   -0.68076   -0.68466   
 45.        0.45179    0.46119   -0.68753   -0.68694   
 46.        0.46596    0.46145   -0.6811    -0.67777   
 47.        0.45576    0.45779   -0.68653   -0.68474   
 48.        0.46283    0.45803   -0.68113   -0.68117   
 49.        0.45334    0.45009   -0.6883    -0.68919   
 50.        0.4653     0.45972   -0.68595   -0.68428   
 51.        0.45962    0.4565    -0.6867    -0.68193   
 52.        0.46387    0.46621   -0.68235   -0.68651   
 53.        0.45661    0.46232   -0.69092   -0.68427   
 54.        0.46943    0.45719   -0.67908   -0.68774   
 55.        0.45017    0.46228   -0.68395   -0.68732   
 56.        0.45909    0.45872   -0.6825    -0.68181   
 57.        0.45299    0.45206   -0.68738   -0.67743   
 58.        0.46512    0.46209   -0.67849   -0.68745   
 59.        0.45136    0.45753   -0.68798   -0.68017   
 60.        0.46571    0.46538   -0.68716   -0.68558   
 61.        0.46309    0.46243   -0.68591   -0.68451   
 62.        0.46126    0.45856   -0.68646   -0.68886   
 63.        0.46525    0.45895   -0.68346   -0.68426   
 64.        0.45811    0.46282   -0.681     -0.6852    
 65.        0.45428    0.45016   -0.69242   -0.6829    
 66.        0.47033    0.46033   -0.68362   -0.68381   
 67.        0.45912    0.45561   -0.69112   -0.68293   
 68.        0.47221    0.46158   -0.68047   -0.67813   
 69.        0.45382    0.45936   -0.68654   -0.69317   
 70.        0.46529    0.4646    -0.68214   -0.68458   
 71.        0.45409    0.46867   -0.68634   -0.68726   
 72.        0.46278    0.46786   -0.68451   -0.68753   
 73.        0.45991    0.4735    -0.68509   -0.69193   
 74.        0.4596     0.47316   -0.68193   -0.6862    
 75.        0.45565    0.45985   -0.68099   -0.6857    
 76.        0.45273    0.4592    -0.68117   -0.68276   
 77.        0.45376    0.46324   -0.68348   -0.68212   
 78.        0.45852    0.45433   -0.6806    -0.67742   
 79.        0.45378    0.45398   -0.68983   -0.68816   
 80.        0.4671     0.46198   -0.68259   -0.68436   
 81.        0.45661    0.46702   -0.68928   -0.68021   
 82.        0.46835    0.46301   -0.68413   -0.68527   
 83.        0.4641     0.45699   -0.68047   -0.68262   
 84.        0.45583    0.45284   -0.68049   -0.67834   
 85.        0.45153    0.45322   -0.68601   -0.67986   
 86.        0.46316    0.46434   -0.68071   -0.68497   
 87.        0.45483    0.45496   -0.68928   -0.6874    
 88.        0.46932    0.46916   -0.67418   -0.68116   
 89.        0.44267    0.4568    -0.68401   -0.68851   
 90.        0.46128    0.46691   -0.68081   -0.68433   
 91.        0.45515    0.46083   -0.68692   -0.69155   
 92.        0.4634     0.45319   -0.687     -0.68316   
 93.        0.46462    0.46443   -0.68475   -0.6867    
 94.        0.46156    0.46249   -0.68615   -0.68394   
 95.        0.46439    0.45493   -0.68429   -0.68036   
 96.        0.46057    0.46213   -0.6858    -0.68791   
 97.        0.46273    0.46377   -0.68988   -0.6834    
 98.        0.4644     0.45868   -0.68533   -0.68376   
 99.        0.46295    0.46246   -0.69227   -0.68187   
 100.       0.47405    0.45457   -0.68201   -0.6855    
 101.       0.45466    0.45526   -0.68638   -0.69181   
 102.       0.46565    0.4653    -0.68202   -0.68233   
 103.       0.45669    0.45746   -0.68408   -0.67726   
 104.       0.45909    0.45645   -0.68643   -0.68732   
 105.       0.46222    0.46076   -0.68547   -0.68012   
 106.       0.46033    0.45786   -0.68641   -0.68534   
 107.       0.46406    0.45704   -0.6869    -0.68427   
 108.       0.46197    0.46187   -0.68423   -0.69003   
 109.       0.45908    0.45678   -0.68753   -0.68684   
 110.       0.46508    0.45622   -0.6881    -0.68157   
 111.       0.46664    0.46393   -0.69327   -0.69013   
 112.       0.47509    0.46057   -0.68189   -0.68265   
 113.       0.45642    0.46251   -0.68828   -0.68471   
 114.       0.46502    0.4595    -0.68035   -0.68744   
 115.       0.4532     0.46433   -0.68016   -0.68479   
 116.       0.45618    0.4637    -0.68136   -0.68641   
 117.       0.45674    0.46055   -0.6827    -0.68007   
 118.       0.45913    0.46619   -0.68493   -0.68482   
 119.       0.46111    0.46036   -0.68136   -0.68517   
 120.       0.45419    0.46636   -0.6839    -0.68366   
 121.       0.45807    0.45961   -0.68808   -0.68285   
 122.       0.4665     0.4561    -0.6851    -0.68522   
 123.       0.45742    0.45916   -0.68672   -0.6849    
 124.       0.46524    0.45204   -0.68376   -0.68184   
 125.       0.45786    0.45717   -0.68516   -0.68328   
 126.       0.46247    0.4591    -0.6854    -0.6831    
 127.       0.46082    0.44788   -0.68026   -0.68125   
 128.       0.45352    0.44882   -0.68653   -0.68818   
 129.       0.46211    0.46523   -0.68406   -0.68165   
 130.       0.46009    0.4636    -0.68387   -0.67553   
 131.       0.46035    0.4688    -0.68745   -0.67969   
 132.       0.46433    0.4705    -0.6821    -0.68166   
 133.       0.45463    0.46367   -0.68699   -0.68563   
 134.       0.4654     0.45999   -0.68119   -0.68885   
 135.       0.45394    0.46547   -0.68477   -0.68764   
 136.       0.46058    0.45666   -0.68329   -0.68613   
 137.       0.45658    0.46643   -0.68461   -0.68289   
 138.       0.45924    0.45712   -0.68098   -0.68351   
 139.       0.4561     0.4663    -0.68306   -0.6904    
 140.       0.45725    0.45899   -0.68758   -0.68335   
 141.       0.46334    0.46078   -0.67913   -0.68656   
 142.       0.45079    0.46946   -0.68727   -0.68608   
 143.       0.465      0.45364   -0.6857    -0.68131   
 144.       0.46318    0.45793   -0.67777   -0.68942   
 145.       0.45144    0.45867   -0.68601   -0.67815   
 146.       0.46254    0.47128   -0.68611   -0.6918    
 147.       0.4608     0.46954   -0.67689   -0.68242   
 148.       0.44975    0.46164   -0.68756   -0.68621   
 149.       0.46491    0.45761   -0.68304   -0.68777   
 150.       0.45584    0.46971   -0.68856   -0.68524   
 151.       0.46656    0.458     -0.68396   -0.68433   
 152.       0.46017    0.45111   -0.68342   -0.68134   
 153.       0.45926    0.46218   -0.68696   -0.68437   
 154.       0.46387    0.46305   -0.68702   -0.67908   
 155.       0.46267    0.46021   -0.68388   -0.67932   
 156.       0.45768    0.46484   -0.69049   -0.68608   
 157.       0.46775    0.45641   -0.68055   -0.67945   
 158.       0.4534     0.4705    -0.68376   -0.69237   
 159.       0.46254    0.4663    -0.6837    -0.68299   
 160.       0.45856    0.46701   -0.68338   -0.68737   
 161.       0.45713    0.45989   -0.68027   -0.68443   
 162.       0.45536    0.46079   -0.68528   -0.68704   
 163.       0.45998    0.46786   -0.68293   -0.68665   
 164.       0.45811    0.46086   -0.68646   -0.68393   
 165.       0.46237    0.46176   -0.68241   -0.68687   
 166.       0.4558     0.4558    -0.68789   -0.68333   
 167.       0.46469    0.45926   -0.69463   -0.68199   
 168.       0.47772    0.45112   -0.69045   -0.69085   
 169.       0.46628    0.45458   -0.6827    -0.6837    
 170.       0.4559     0.45496   -0.6891    -0.68666   
 171.       0.46822    0.45847   -0.6855    -0.68138   
 172.       0.45971    0.45149   -0.6855    -0.68624   
 173.       0.45992    0.46427   -0.68354   -0.68891   
 174.       0.45842    0.46339   -0.67976   -0.68213   
 175.       0.45122    0.46781   -0.68523   -0.6764    
 176.       0.46026    0.46099   -0.68693   -0.6835    
 177.       0.46345    0.46207   -0.68057   -0.6931    
 178.       0.45116    0.47119   -0.687     -0.68272   
 179.       0.46516    0.45672   -0.67786   -0.68579   
 180.       0.44974    0.46954   -0.68701   -0.6909    
 181.       0.46516    0.45314   -0.68286   -0.68212   
 182.       0.45621    0.45482   -0.68757   -0.68171   
 183.       0.46564    0.45615   -0.6842    -0.68604   
 184.       0.45937    0.45494   -0.68331   -0.68816   
 185.       0.45594    0.46515   -0.68606   -0.68134   
 186.       0.46021    0.46239   -0.68418   -0.68181   
 187.       0.46123    0.45838   -0.6896    -0.68076   
 188.       0.47059    0.46115   -0.68962   -0.68541   
 189.       0.46583    0.46103   -0.67724   -0.68213   
 190.       0.4468     0.46285   -0.68858   -0.68628   
 191.       0.46622    0.4673    -0.68086   -0.68033   
 192.       0.4532     0.46162   -0.68715   -0.68441   
 193.       0.46395    0.44993   -0.68312   -0.68106   
 194.       0.45704    0.45791   -0.6861    -0.68536   
 195.       0.4611     0.45258   -0.68664   -0.68923   
 196.       0.46534    0.45648   -0.68321   -0.68634   
 197.       0.45891    0.46031   -0.6851    -0.69153   
 198.       0.45814    0.46401   -0.68612   -0.6808    
 199.       0.46472    0.45941   -0.68513   -0.68461   
 200.       0.4618     0.46665   -0.68661   -0.68831   
 201.       0.4619     0.46348   -0.67665   -0.68259   
 202.       0.44888    0.46214   -0.6875    -0.68383   
 203.       0.46707    0.46674   -0.68081   -0.68116   
 204.       0.45376    0.46518   -0.68538   -0.68975   
 205.       0.46202    0.45707   -0.68469   -0.68391   
 206.       0.45811    0.46356   -0.68173   -0.68884   
 207.       0.45393    0.45627   -0.68777   -0.68509   
 208.       0.4662     0.4477    -0.6843    -0.68879   
 209.       0.4627     0.46656   -0.68412   -0.68264   
 210.       0.45907    0.45946   -0.68546   -0.68584   
 211.       0.46014    0.45218   -0.68185   -0.67965   
 212.       0.45537    0.47243   -0.69133   -0.6874    
 213.       0.46923    0.45273   -0.67963   -0.68065   
 214.       0.45172    0.45769   -0.68888   -0.68401   
 215.       0.46488    0.4661    -0.68344   -0.68089   
 216.       0.45741    0.45685   -0.68003   -0.68187   
 217.       0.45424    0.44598   -0.68843   -0.68387   
 218.       0.46534    0.46535   -0.68255   -0.68486   
 219.       0.45574    0.4565    -0.68783   -0.69008   
 220.       0.46488    0.46531   -0.68365   -0.68259   
 221.       0.45626    0.46474   -0.68324   -0.68397   
 222.       0.45881    0.45988   -0.68542   -0.68207   
 223.       0.46135    0.45948   -0.67948   -0.67796   
 224.       0.45137    0.46211   -0.68881   -0.68719   
 225.       0.4684     0.4486    -0.68328   -0.68659   
 226.       0.45807    0.46115   -0.68746   -0.68659   
 227.       0.46465    0.45127   -0.68329   -0.68415   
 228.       0.45934    0.46456   -0.68537   -0.68433   
 229.       0.46056    0.46393   -0.68436   -0.68386   
 230.       0.45789    0.45949   -0.68159   -0.69207   
 231.       0.45511    0.45369   -0.68308   -0.68455   
 232.       0.45707    0.46102   -0.68645   -0.68112   
 233.       0.4626     0.45753   -0.6765    -0.68266   
 234.       0.44718    0.45565   -0.69169   -0.68738   
 235.       0.47029    0.46412   -0.68481   -0.67811   
 236.       0.45876    0.45815   -0.68965   -0.69101   
 237.       0.46753    0.46097   -0.6819    -0.68733   
 238.       0.45593    0.46085   -0.68656   -0.68355   
 239.       0.46336    0.45804   -0.68645   -0.68938   
 240.       0.46316    0.4528    -0.68322   -0.68192   
 241.       0.45547    0.45018   -0.6859    -0.69102   
 242.       0.46122    0.45937   -0.6846    -0.69251   
 243.       0.46312    0.45992   -0.67857   -0.68746   
 244.       0.45009    0.47344   -0.68907   -0.68524   
 245.       0.4673     0.46503   -0.67909   -0.68252   
 246.       0.45207    0.4676    -0.69148   -0.69284   
 247.       0.4706     0.4552    -0.68329   -0.6892    
 248.       0.45682    0.46275   -0.6882    -0.68711   
 249.       0.46543    0.45607   -0.6832    -0.68898   
 250.       0.4571     0.47028   -0.68579   -0.68009   
 251.       0.46114    0.46054   -0.68222   -0.6851    
 252.       0.45613    0.46701   -0.68641   -0.68424   
 253.       0.46138    0.45658   -0.68545   -0.68302   
 254.       0.45864    0.45765   -0.68762   -0.68566   
 255.       0.4639     0.45535   -0.68307   -0.68377   
 256.       0.45499    0.45559   -0.68972   -0.69087   
 257.       0.47027    0.45318   -0.68324   -0.68446   
 258.       0.45475    0.45178   -0.6878    -0.68524   
 259.       0.46738    0.45874   -0.68651   -0.6868    
 260.       0.46442    0.45386   -0.68775   -0.68207   
 261.       0.46308    0.45651   -0.68191   -0.68499   
 262.       0.45709    0.45672   -0.6817    -0.68004   
 263.       0.45583    0.45914   -0.68034   -0.68665   
 264.       0.45323    0.4622    -0.68167   -0.68548   
 265.       0.4523     0.45905   -0.68379   -0.68175   
 266.       0.45755    0.46706   -0.68921   -0.6915    
 267.       0.46609    0.4544    -0.6804    -0.68477   
 268.       0.45417    0.46834   -0.69241   -0.68452   
 269.       0.4736     0.46189   -0.68237   -0.68573   
 270.       0.45534    0.46224   -0.68857   -0.68314   
 271.       0.46688    0.45291   -0.67948   -0.68531   
 272.       0.45247    0.45803   -0.6869    -0.68111   
 273.       0.46258    0.46017   -0.68871   -0.68835   
 274.       0.46571    0.45627   -0.68442   -0.68993   
 275.       0.46084    0.46289   -0.68266   -0.6838    
 276.       0.45582    0.45609   -0.68848   -0.69412   
 277.       0.46615    0.46107   -0.68332   -0.68471   
 278.       0.45703    0.45194   -0.68997   -0.68524   
 279.       0.46713    0.46223   -0.68232   -0.68748   
 280.       0.45636    0.46772   -0.69085   -0.68474   
 281.       0.47223    0.46125   -0.68544   -0.68256   
 282.       0.45937    0.46021   -0.68072   -0.68445   
 283.       0.45645    0.46299   -0.68729   -0.68221   
 284.       0.46234    0.46409   -0.68535   -0.68085   
 285.       0.46071    0.45465   -0.68623   -0.68987   
 286.       0.46344    0.46603   -0.68878   -0.68896   
 287.       0.46617    0.45649   -0.6839    -0.69296   
 288.       0.45846    0.45855   -0.68538   -0.68573   
 289.       0.46286    0.46648   -0.68392   -0.6803    
 290.       0.45722    0.45851   -0.69122   -0.68453   
 291.       0.4701     0.46528   -0.68502   -0.68315   
 292.       0.46088    0.46346   -0.68749   -0.67756   
 293.       0.46574    0.46264   -0.68614   -0.68111   
 294.       0.46398    0.46059   -0.68585   -0.69097   
 295.       0.46247    0.45849   -0.68749   -0.68036   
 296.       0.46348    0.47373   -0.68638   -0.6856    
 297.       0.4623     0.46466   -0.6836    -0.68586   
 298.       0.45913    0.46466   -0.68995   -0.68863   
 299.       0.46485    0.45811   -0.68486   -0.67908   
 300.       0.46024    0.45499   -0.68743   -0.68568   
 301.       0.46426    0.45004   -0.68624   -0.67892   
 302.       0.46274    0.45771   -0.67577   -0.68383   
 303.       0.44738    0.45586   -0.68337   -0.68596   
 304.       0.45872    0.45889   -0.68177   -0.67971   
 305.       0.45546    0.45633   -0.67969   -0.69123   
 306.       0.45574    0.45093   -0.68576   -0.682     
 307.       0.46017    0.46617   -0.6893    -0.68582   
 308.       0.4672     0.46394   -0.6849    -0.68671   
 309.       0.46043    0.46456   -0.68649   -0.67952   
 310.       0.46357    0.46269   -0.68504   -0.68559   
 311.       0.45994    0.46005   -0.67923   -0.6784    
 312.       0.45216    0.45468   -0.68587   -0.67496   
 313.       0.46092    0.46422   -0.68675   -0.68499   
 314.       0.4614     0.45151   -0.68294   -0.68735   
 315.       0.45834    0.46996   -0.68411   -0.68251   
 316.       0.45932    0.46408   -0.68444   -0.68236   
 317.       0.45937    0.45767   -0.68526   -0.68515   
 318.       0.46084    0.46068   -0.68114   -0.68507   
 319.       0.45477    0.4638    -0.68232   -0.68433   
 320.       0.45623    0.45101   -0.68454   -0.68575   
 321.       0.45986    0.45175   -0.68356   -0.68585   
 322.       0.45777    0.45913   -0.68443   -0.68545   
 323.       0.45788    0.4518    -0.68479   -0.68278   
 324.       0.46248    0.45999   -0.6775    -0.68453   
 325.       0.44772    0.46238   -0.68688   -0.68903   
 326.       0.46309    0.45947   -0.68328   -0.68505   
 327.       0.46004    0.46022   -0.69015   -0.68571   
 328.       0.46921    0.4655    -0.68448   -0.683     
 329.       0.46265    0.46149   -0.68074   -0.68441   
 330.       0.45535    0.45309   -0.68265   -0.69036   
 331.       0.45527    0.45733   -0.68318   -0.69039   
 332.       0.45949    0.46158   -0.68485   -0.69104   
 333.       0.45839    0.47105   -0.68372   -0.6773    
 334.       0.4591     0.45846   -0.68317   -0.68578   
 335.       0.45716    0.45622   -0.68727   -0.68987   
 336.       0.46371    0.46263   -0.67835   -0.67661   
 337.       0.45001    0.46273   -0.68616   -0.68525   
 338.       0.46376    0.46014   -0.68291   -0.69167   
 339.       0.45723    0.46763   -0.68288   -0.68268   
 340.       0.45578    0.45226   -0.68465   -0.68456   
 341.       0.45946    0.45887   -0.68178   -0.6805    
 342.       0.45473    0.45212   -0.68419   -0.68903   
 343.       0.46031    0.45327   -0.6816    -0.67808   
 344.       0.45576    0.45911   -0.68371   -0.6834    
 345.       0.45782    0.45722   -0.68571   -0.68938   
 346.       0.46363    0.45484   -0.68055   -0.68351   
 347.       0.45028    0.46096   -0.68685   -0.68658   
 348.       0.46457    0.4633    -0.68183   -0.67849   
 349.       0.45503    0.45471   -0.68754   -0.68445   
 350.       0.46373    0.46296   -0.68383   -0.6837    
 351.       0.4567     0.468     -0.68101   -0.68573   
 352.       0.4522     0.4553    -0.68467   -0.68975   
 353.       0.45997    0.47036   -0.68461   -0.6846    
 354.       0.45951    0.46271   -0.68284   -0.68392   
 355.       0.45819    0.46089   -0.68244   -0.68112   
 356.       0.45527    0.46163   -0.68153   -0.6839    
