#           v(vgs1)    v(vgs2)    v(vgs3)    v(vgs4)   
 1.         0.41015    0.40363   -0.62869   -0.6239    
 2.         0.40482    0.40851   -0.62967   -0.62957   
 3.         0.40411    0.40425   -0.63099   -0.62571   
 4.         0.41126    0.40321   -0.629     -0.62665   
 5.         0.40653    0.40691   -0.63243   -0.62614   
 6.         0.41188    0.40945   -0.62743   -0.62761   
 7.         0.40436    0.41419   -0.63168   -0.63028   
 8.         0.41167    0.40347   -0.62433   -0.62439   
 9.         0.39869    0.40858   -0.62022   -0.63165   
 10.        0.39544    0.40563   -0.62432   -0.63175   
 11.        0.39632    0.41131   -0.63492   -0.62892   
 12.        0.41306    0.41371   -0.63003   -0.63012   
 13.        0.41035    0.41008   -0.63049   -0.6275    
 14.        0.41008    0.41325   -0.6287    -0.62971   
 15.        0.40441    0.41196   -0.63331   -0.63045   
 16.        0.41365    0.40082   -0.62843   -0.62656   
 17.        0.40468    0.40527   -0.62931   -0.62744   
 18.        0.40689    0.40855   -0.62801   -0.62908   
 19.        0.40219    0.40687   -0.63287   -0.62186   
 20.        0.41284    0.39974   -0.62282   -0.63035   
 21.        0.39633    0.40039   -0.63408   -0.62893   
 22.        0.41499    0.40548   -0.6257    -0.63593   
 23.        0.39842    0.40315   -0.62981   -0.63535   
 24.        0.41096    0.40502   -0.63025   -0.62789   
 25.        0.40832    0.39845   -0.63092   -0.63467   
 26.        0.40813    0.40774   -0.62775   -0.62967   
 27.        0.40583    0.40585   -0.63598   -0.62887   
 28.        0.41663    0.40404   -0.62959   -0.62861   
 29.        0.40561    0.40799   -0.62593   -0.63135   
 30.        0.40245    0.4112    -0.62716   -0.62424   
 31.        0.40159    0.40508   -0.6338    -0.62656   
 32.        0.4133     0.41539   -0.62319   -0.63647   
 33.        0.39649    0.39809   -0.63386   -0.62899   
 34.        0.41492    0.39842   -0.62596   -0.62769   
 35.        0.39976    0.39694   -0.63185   -0.63443   
 36.        0.41139    0.40685   -0.62881   -0.62834   
 37.        0.40526    0.41025   -0.62744   -0.627     
 38.        0.40375    0.40947   -0.63526   -0.62501   
 39.        0.41668    0.40095   -0.63198   -0.63169   
 40.        0.40903    0.4027    -0.6267    -0.63355   
 41.        0.40247    0.41477   -0.62924   -0.62383   
 42.        0.40435    0.40329   -0.62345   -0.63282   
 43.        0.39888    0.40096   -0.62739   -0.62902   
 44.        0.40575    0.41581   -0.62563   -0.62955   
 45.        0.39881    0.40822   -0.63243   -0.63182   
 46.        0.41299    0.40842   -0.62602   -0.62266   
 47.        0.40279    0.40483   -0.6314    -0.62966   
 48.        0.40988    0.40505   -0.62604   -0.62608   
 49.        0.4004     0.39707   -0.63315   -0.63409   
 50.        0.41229    0.40671   -0.63079   -0.62913   
 51.        0.40661    0.40346   -0.6316    -0.62682   
 52.        0.41086    0.41324   -0.62724   -0.63141   
 53.        0.40359    0.4094    -0.63579   -0.62916   
 54.        0.41637    0.40417   -0.62395   -0.63261   
 55.        0.39719    0.40925   -0.62881   -0.63222   
 56.        0.40608    0.40577   -0.62734   -0.62678   
 57.        0.40008    0.39907   -0.63227   -0.62235   
 58.        0.41213    0.40913   -0.62342   -0.63235   
 59.        0.39838    0.40453   -0.63285   -0.62508   
 60.        0.41271    0.41243   -0.63201   -0.63045   
 61.        0.41014    0.40944   -0.63078   -0.62942   
 62.        0.40829    0.40553   -0.63139   -0.63374   
 63.        0.41227    0.40596   -0.62834   -0.62915   
 64.        0.40512    0.40978   -0.62591   -0.63014   
 65.        0.40129    0.3972    -0.63726   -0.62779   
 66.        0.41733    0.40728   -0.62852   -0.62871   
 67.        0.40612    0.40261   -0.63601   -0.62781   
 68.        0.41917    0.40859   -0.62537   -0.62303   
 69.        0.40088    0.40631   -0.63144   -0.63801   
 70.        0.41227    0.41161   -0.62702   -0.6295    
 71.        0.40113    0.41567   -0.63122   -0.63214   
 72.        0.40977    0.41481   -0.62937   -0.63241   
 73.        0.40689    0.42049   -0.62996   -0.63681   
 74.        0.40663    0.42017   -0.62684   -0.63108   
 75.        0.40272    0.40687   -0.62587   -0.63058   
 76.        0.39977    0.40617   -0.62607   -0.62769   
 77.        0.4008     0.41028   -0.6284    -0.62699   
 78.        0.40556    0.40135   -0.6255    -0.62232   
 79.        0.4008     0.401     -0.6347    -0.63302   
 80.        0.4141     0.40901   -0.62749   -0.62922   
 81.        0.40361    0.41399   -0.63415   -0.62507   
 82.        0.4153     0.41005   -0.6291    -0.63012   
 83.        0.41111    0.40398   -0.62542   -0.62754   
 84.        0.40287    0.39987   -0.62535   -0.62327   
 85.        0.39858    0.40027   -0.63091   -0.62476   
 86.        0.41021    0.4113    -0.62563   -0.62989   
 87.        0.40189    0.40199   -0.63418   -0.63227   
 88.        0.41631    0.41614   -0.6191    -0.62606   
 89.        0.38975    0.40388   -0.62892   -0.6334    
 90.        0.40831    0.41382   -0.62576   -0.62923   
 91.        0.40222    0.40776   -0.63181   -0.6364    
 92.        0.41044    0.40023   -0.63189   -0.62806   
 93.        0.41163    0.41139   -0.62967   -0.63155   
 94.        0.40857    0.40947   -0.63109   -0.62884   
 95.        0.4114     0.4019    -0.62918   -0.62525   
 96.        0.40757    0.40918   -0.63071   -0.63279   
 97.        0.40972    0.41073   -0.6347    -0.6283    
 98.        0.41139    0.40564   -0.63024   -0.6287    
 99.        0.40987    0.40945   -0.63718   -0.6268    
 100.       0.42099    0.40166   -0.6269    -0.63038   
 101.       0.40168    0.40223   -0.63129   -0.63667   
 102.       0.41264    0.4123    -0.62693   -0.62725   
 103.       0.40376    0.40448   -0.62896   -0.62217   
 104.       0.4062     0.40353   -0.63132   -0.63219   
 105.       0.40928    0.40782   -0.63034   -0.62501   
 106.       0.40736    0.40487   -0.63132   -0.63023   
 107.       0.41107    0.40397   -0.63175   -0.62914   
 108.       0.40897    0.40882   -0.62914   -0.63494   
 109.       0.40611    0.4038    -0.63242   -0.63166   
 110.       0.41206    0.40326   -0.633     -0.62644   
 111.       0.41358    0.41089   -0.63816   -0.63502   
 112.       0.42204    0.40757   -0.62679   -0.62757   
 113.       0.40342    0.40948   -0.63315   -0.6296    
 114.       0.41197    0.40655   -0.62526   -0.63235   
 115.       0.40019    0.4114    -0.62509   -0.62973   
 116.       0.40313    0.41066   -0.62629   -0.63125   
 117.       0.40377    0.40756   -0.62762   -0.62496   
 118.       0.40619    0.41321   -0.62983   -0.62968   
 119.       0.40812    0.40738   -0.62627   -0.63007   
 120.       0.40124    0.41334   -0.62877   -0.62853   
 121.       0.40509    0.40662   -0.63299   -0.62775   
 122.       0.41351    0.40314   -0.62996   -0.63006   
 123.       0.40446    0.4062    -0.63164   -0.6298    
 124.       0.41222    0.39912   -0.62864   -0.62672   
 125.       0.40483    0.4042    -0.63009   -0.62819   
 126.       0.40944    0.4061    -0.63029   -0.62799   
 127.       0.40779    0.3949    -0.62516   -0.62616   
 128.       0.40048    0.39584   -0.6314    -0.63309   
 129.       0.40909    0.41226   -0.62896   -0.62652   
 130.       0.40709    0.41058   -0.62877   -0.62044   
 131.       0.40734    0.41572   -0.63232   -0.6246    
 132.       0.41135    0.41745   -0.62696   -0.62654   
 133.       0.40168    0.41061   -0.63192   -0.63054   
 134.       0.41243    0.40704   -0.62609   -0.63374   
 135.       0.40099    0.41247   -0.62965   -0.63256   
 136.       0.40758    0.40367   -0.62817   -0.63103   
 137.       0.40359    0.41339   -0.62949   -0.62779   
 138.       0.40627    0.40412   -0.62591   -0.62837   
 139.       0.4031     0.41336   -0.62796   -0.63524   
 140.       0.40422    0.40597   -0.63244   -0.62821   
 141.       0.41031    0.40778   -0.62401   -0.63143   
 142.       0.39778    0.41641   -0.63218   -0.63099   
 143.       0.41199    0.40064   -0.63063   -0.6262    
 144.       0.41017    0.40494   -0.6227    -0.63429   
 145.       0.39844    0.40566   -0.63091   -0.62304   
 146.       0.40958    0.41822   -0.631     -0.63664   
 147.       0.40787    0.41654   -0.62184   -0.62734   
 148.       0.39678    0.40868   -0.63244   -0.63108   
 149.       0.41191    0.40465   -0.62789   -0.63268   
 150.       0.40288    0.4166    -0.63344   -0.63012   
 151.       0.41355    0.40504   -0.62887   -0.6292    
 152.       0.40719    0.39812   -0.62832   -0.62623   
 153.       0.40625    0.40918   -0.63183   -0.62926   
 154.       0.41084    0.41011   -0.63188   -0.62401   
 155.       0.40968    0.40714   -0.62876   -0.62421   
 156.       0.40471    0.41179   -0.63533   -0.63095   
 157.       0.41473    0.40346   -0.62544   -0.62435   
 158.       0.40042    0.4175    -0.62872   -0.63724   
 159.       0.40951    0.41329   -0.62861   -0.6279    
 160.       0.40559    0.41404   -0.62824   -0.63222   
 161.       0.40417    0.40691   -0.62519   -0.62933   
 162.       0.40239    0.4078    -0.63014   -0.63191   
 163.       0.40703    0.41485   -0.62785   -0.63154   
 164.       0.40517    0.40781   -0.63132   -0.62884   
 165.       0.40937    0.40873   -0.6273    -0.63175   
 166.       0.40281    0.40276   -0.63276   -0.62829   
 167.       0.41169    0.40626   -0.63949   -0.62689   
 168.       0.42467    0.39812   -0.63527   -0.63574   
 169.       0.41324    0.40162   -0.62758   -0.6286    
 170.       0.40287    0.40196   -0.63396   -0.63154   
 171.       0.41514    0.40548   -0.63035   -0.62626   
 172.       0.40668    0.39857   -0.63037   -0.63111   
 173.       0.40693    0.41116   -0.62841   -0.63377   
 174.       0.40542    0.4104    -0.62464   -0.62705   
 175.       0.39829    0.41476   -0.6301    -0.62135   
 176.       0.40736    0.40803   -0.6318    -0.62839   
 177.       0.4105     0.40899   -0.62546   -0.63797   
 178.       0.39821    0.41825   -0.63189   -0.62756   
 179.       0.41216    0.40375   -0.62278   -0.6307    
 180.       0.39676    0.41652   -0.63193   -0.63575   
 181.       0.41217    0.40015   -0.62774   -0.62701   
 182.       0.4032     0.4018    -0.63247   -0.62665   
 183.       0.41259    0.40323   -0.62911   -0.63089   
 184.       0.40636    0.40197   -0.62817   -0.63304   
 185.       0.40294    0.41212   -0.63092   -0.62626   
 186.       0.40719    0.40944   -0.62911   -0.62672   
 187.       0.40822    0.40544   -0.63449   -0.62566   
 188.       0.41754    0.40816   -0.63444   -0.63027   
 189.       0.41288    0.40809   -0.62214   -0.62707   
 190.       0.39389    0.40984   -0.63345   -0.63119   
 191.       0.41323    0.41424   -0.62578   -0.62525   
 192.       0.40027    0.4086    -0.63204   -0.62932   
 193.       0.41095    0.39698   -0.628     -0.62598   
 194.       0.40406    0.40505   -0.63096   -0.63022   
 195.       0.40811    0.39965   -0.63157   -0.63411   
 196.       0.41233    0.40348   -0.62812   -0.63124   
 197.       0.40589    0.40728   -0.62995   -0.63634   
 198.       0.40515    0.41107   -0.63105   -0.62571   
 199.       0.41169    0.40637   -0.63004   -0.6295    
 200.       0.40874    0.41368   -0.63148   -0.63319   
 201.       0.40887    0.41045   -0.62158   -0.62752   
 202.       0.3959     0.40917   -0.63242   -0.62879   
 203.       0.41405    0.41378   -0.62571   -0.62604   
 204.       0.4008     0.41228   -0.63027   -0.6346    
 205.       0.40905    0.40408   -0.62954   -0.62878   
 206.       0.40516    0.41055   -0.62662   -0.63369   
 207.       0.40098    0.40332   -0.63266   -0.62996   
 208.       0.41319    0.39474   -0.62925   -0.63369   
 209.       0.40969    0.41358   -0.62904   -0.62749   
 210.       0.4061     0.40647   -0.63034   -0.63072   
 211.       0.40711    0.39918   -0.62676   -0.62458   
 212.       0.40232    0.4194    -0.63616   -0.63227   
 213.       0.41613    0.39976   -0.6245    -0.6255    
 214.       0.3987     0.40469   -0.63372   -0.62891   
 215.       0.41186    0.41306   -0.62832   -0.62579   
 216.       0.40442    0.40389   -0.62492   -0.62674   
 217.       0.40124    0.39301   -0.63329   -0.62878   
 218.       0.41237    0.41233   -0.62744   -0.62974   
 219.       0.40283    0.4035    -0.6327    -0.63493   
 220.       0.41189    0.41233   -0.6285    -0.62751   
 221.       0.4033     0.4117    -0.62816   -0.62886   
 222.       0.40584    0.40692   -0.6303    -0.62693   
 223.       0.40836    0.40643   -0.6244    -0.62288   
 224.       0.39841    0.40911   -0.63372   -0.6321    
 225.       0.41537    0.39561   -0.62815   -0.63149   
 226.       0.40504    0.40814   -0.63234   -0.63146   
 227.       0.41166    0.39832   -0.62821   -0.62899   
 228.       0.40634    0.41157   -0.63027   -0.62918   
 229.       0.40753    0.41093   -0.62922   -0.62871   
 230.       0.40486    0.40653   -0.62646   -0.6369    
 231.       0.40206    0.4007    -0.62796   -0.62943   
 232.       0.40411    0.40794   -0.63134   -0.62603   
 233.       0.40963    0.40462   -0.62139   -0.62751   
 234.       0.39423    0.40263   -0.63655   -0.63227   
 235.       0.41731    0.41104   -0.62971   -0.6231    
 236.       0.40581    0.40527   -0.63452   -0.63589   
 237.       0.4145     0.40799   -0.62683   -0.63222   
 238.       0.40294    0.40786   -0.63147   -0.62845   
 239.       0.41035    0.40502   -0.63134   -0.63423   
 240.       0.41013    0.39978   -0.62809   -0.62684   
 241.       0.40246    0.39723   -0.63079   -0.63585   
 242.       0.40819    0.4064    -0.62952   -0.63738   
 243.       0.41006    0.40685   -0.62348   -0.63232   
 244.       0.39709    0.42045   -0.63396   -0.63014   
 245.       0.4143     0.41201   -0.62399   -0.62745   
 246.       0.39908    0.41459   -0.63632   -0.63774   
 247.       0.41761    0.40223   -0.62815   -0.63408   
 248.       0.4039     0.40979   -0.63307   -0.63194   
 249.       0.41247    0.40313   -0.62809   -0.63385   
 250.       0.40414    0.41724   -0.63064   -0.62499   
 251.       0.40814    0.40757   -0.6271    -0.62997   
 252.       0.40315    0.414     -0.63128   -0.62912   
 253.       0.40841    0.40361   -0.6303    -0.6279    
 254.       0.40563    0.40466   -0.63247   -0.63055   
 255.       0.41086    0.40239   -0.62791   -0.62867   
 256.       0.40199    0.40252   -0.63461   -0.63577   
 257.       0.41724    0.4002    -0.6281    -0.62938   
 258.       0.40175    0.39878   -0.63271   -0.63013   
 259.       0.41438    0.4057    -0.63139   -0.63169   
 260.       0.41142    0.40083   -0.6326    -0.62696   
 261.       0.41018    0.40347   -0.62683   -0.62986   
 262.       0.40416    0.40376   -0.6266    -0.62493   
 263.       0.40286    0.40612   -0.62525   -0.63153   
 264.       0.4003     0.40923   -0.62651   -0.63036   
 265.       0.39933    0.40611   -0.62865   -0.62663   
 266.       0.40457    0.41412   -0.63407   -0.63638   
 267.       0.41309    0.40143   -0.62531   -0.62966   
 268.       0.40118    0.41532   -0.63728   -0.62941   
 269.       0.42055    0.40889   -0.62727   -0.63061   
 270.       0.40235    0.40922   -0.63346   -0.62802   
 271.       0.41384    0.39992   -0.62438   -0.63023   
 272.       0.39943    0.40511   -0.63174   -0.626     
 273.       0.40954    0.40715   -0.63356   -0.63323   
 274.       0.4127     0.40326   -0.62932   -0.63475   
 275.       0.40785    0.40985   -0.62753   -0.62869   
 276.       0.40285    0.40306   -0.63332   -0.63894   
 277.       0.41316    0.40804   -0.62819   -0.6296    
 278.       0.40409    0.39893   -0.63483   -0.63017   
 279.       0.41416    0.40922   -0.62721   -0.63233   
 280.       0.40337    0.41468   -0.63575   -0.62961   
 281.       0.41921    0.4082    -0.63031   -0.62746   
 282.       0.4064     0.40722   -0.62566   -0.62937   
 283.       0.40347    0.40995   -0.63214   -0.62708   
 284.       0.40933    0.41106   -0.63025   -0.62571   
 285.       0.40771    0.40171   -0.63111   -0.63472   
 286.       0.41039    0.41304   -0.63365   -0.63381   
 287.       0.41315    0.40348   -0.62878   -0.63781   
 288.       0.40547    0.40556   -0.63026   -0.63059   
 289.       0.40985    0.41351   -0.62878   -0.62524   
 290.       0.40428    0.40549   -0.63611   -0.62941   
 291.       0.41716    0.41231   -0.62991   -0.62802   
 292.       0.40789    0.41049   -0.6324    -0.62251   
 293.       0.41273    0.40968   -0.63103   -0.62603   
 294.       0.411      0.40766   -0.63074   -0.63582   
 295.       0.40948    0.40548   -0.63235   -0.62525   
 296.       0.4105     0.42073   -0.63124   -0.6305    
 297.       0.40929    0.41164   -0.6285    -0.63072   
 298.       0.40611    0.41168   -0.63475   -0.63349   
 299.       0.41185    0.4051    -0.62976   -0.62402   
 300.       0.40724    0.402     -0.63233   -0.63058   
 301.       0.41122    0.39706   -0.63113   -0.62383   
 302.       0.40969    0.40473   -0.62068   -0.62874   
 303.       0.39434    0.4029    -0.62827   -0.63089   
 304.       0.40575    0.40594   -0.62667   -0.62465   
 305.       0.40252    0.40335   -0.62466   -0.6361    
 306.       0.40278    0.39796   -0.63063   -0.62686   
 307.       0.40725    0.41315   -0.63416   -0.63074   
 308.       0.41424    0.41096   -0.62978   -0.63161   
 309.       0.40742    0.41152   -0.63139   -0.62444   
 310.       0.41055    0.40971   -0.62991   -0.63047   
 311.       0.40693    0.40706   -0.62411   -0.62334   
 312.       0.39916    0.4016    -0.63075   -0.61986   
 313.       0.40792    0.41123   -0.6316    -0.62992   
 314.       0.40837    0.39852   -0.62784   -0.63227   
 315.       0.4053     0.41694   -0.62899   -0.62741   
 316.       0.40631    0.41113   -0.62931   -0.62729   
 317.       0.40638    0.40472   -0.63013   -0.63004   
 318.       0.40782    0.40773   -0.62605   -0.62997   
 319.       0.40178    0.41078   -0.62721   -0.62916   
 320.       0.40325    0.39805   -0.62944   -0.63064   
 321.       0.40689    0.39873   -0.62846   -0.63076   
 322.       0.40481    0.40616   -0.62926   -0.63034   
 323.       0.40489    0.39884   -0.62971   -0.62764   
 324.       0.40948    0.40705   -0.62241   -0.62939   
 325.       0.39478    0.40937   -0.63175   -0.63395   
 326.       0.41007    0.40649   -0.62823   -0.62989   
 327.       0.40702    0.40719   -0.63503   -0.63057   
 328.       0.41618    0.41253   -0.62943   -0.62789   
 329.       0.40964    0.40843   -0.62569   -0.6293    
 330.       0.40232    0.40009   -0.6275    -0.63525   
 331.       0.4023     0.40439   -0.62808   -0.63526   
 332.       0.4065     0.40863   -0.62971   -0.63589   
 333.       0.4055     0.41799   -0.62863   -0.62222   
 334.       0.40618    0.40547   -0.62804   -0.63066   
 335.       0.4042     0.40327   -0.63216   -0.63474   
 336.       0.41077    0.40963   -0.62326   -0.62151   
 337.       0.39707    0.40974   -0.63106   -0.63011   
 338.       0.41077    0.40724   -0.62782   -0.63654   
 339.       0.40425    0.41458   -0.62774   -0.6276    
 340.       0.40278    0.39932   -0.62951   -0.62945   
 341.       0.40644    0.40588   -0.62667   -0.62546   
 342.       0.40175    0.39915   -0.62911   -0.63393   
 343.       0.40728    0.40034   -0.62651   -0.62299   
 344.       0.4027     0.40611   -0.62858   -0.62828   
 345.       0.40476    0.40426   -0.63062   -0.63425   
 346.       0.4106     0.40186   -0.62542   -0.6284    
 347.       0.3973     0.4079    -0.63174   -0.63149   
 348.       0.41159    0.41028   -0.62671   -0.62335   
 349.       0.40206    0.40177   -0.6324    -0.62935   
 350.       0.41077    0.40993   -0.62871   -0.62854   
 351.       0.40376    0.41501   -0.62588   -0.63058   
 352.       0.39922    0.40232   -0.62954   -0.63459   
 353.       0.40697    0.41737   -0.6295    -0.62948   
 354.       0.40653    0.40972   -0.62776   -0.62884   
 355.       0.40518    0.4079    -0.62733   -0.62601   
 356.       0.40227    0.40862   -0.62643   -0.62875   
