#           v(out)     i(tb.vdd_src) iter(0)   
 0.         1.1998    -40.382E-9  157.      
 0.02       1.1998    -40.542E-9  5.        
 0.04       1.1998    -40.804E-9  5.        
 0.06       1.1998    -41.226E-9  5.        
 0.08       1.1998    -41.953E-9  5.        
 0.1        1.1997    -43.408E-9  5.        
 0.12       1.1997    -46.159E-9  5.        
 0.14       1.1996    -51.223E-9  5.        
 0.16       1.1994    -60.478E-9  5.        
 0.18       1.1991    -77.271E-9  5.        
 0.2        1.1984    -107.1E-9   5.        
 0.22       1.1974    -158.27E-9  5.        
 0.24       1.1956    -241.75E-9  5.        
 0.26       1.1926    -369.94E-9  5.        
 0.28       1.1882    -554.44E-9  5.        
 0.3        1.1818    -804.91E-9  5.        
 0.32       1.1728    -1.1291E-6  5.        
 0.34       1.1604    -1.5337E-6  5.        
 0.36       1.1434    -2.0235E-6  5.        
 0.38       1.1197    -2.6018E-6  5.        
 0.4        1.0848    -3.2663E-6  6.        
 0.42       1.0245    -3.9992E-6  6.        
 0.44       0.81229   -4.6058E-6  7.        
 0.46       0.25461   -4.3525E-6  6.        
 0.48       0.10038   -3.8954E-6  9.        
 0.5        0.066561  -3.4391E-6  6.        
 0.52       0.048349  -3.0103E-6  6.        
 0.54       0.036324  -2.6114E-6  5.        
 0.56       0.027699  -2.2432E-6  5.        
 0.58       0.021242  -1.9058E-6  5.        
 0.6        0.016287  -1.5992E-6  5.        
 0.62       0.012431  -1.3231E-6  5.        
 0.64       0.0094078 -1.0771E-6  5.        
 0.66       0.0070334 -860.82E-9  5.        
 0.68       0.0051742 -673.26E-9  5.        
 0.7        0.0037297 -513.57E-9  5.        
 0.72       0.002622  -380.49E-9  5.        
 0.74       0.0017887 -272.57E-9  5.        
 0.76       0.0011782 -187.95E-9  5.        
 0.78       746.5E-6  -124.27E-9  5.        
 0.8        454.21E-6 -78.711E-9  5.        
 0.82       266.04E-6 -47.861E-9  5.        
 0.84       151.E-6   -28.143E-9  5.        
 0.86       83.811E-6 -16.138E-9  5.        
 0.88       45.889E-6  0.         5.        
 0.9        24.958E-6  0.         5.        
 0.92       13.549E-6  0.         5.        
 0.94       7.3703E-6  0.         5.        
 0.96       4.0338E-6  0.         5.        
 0.98       2.2343E-6  0.         5.        
 1.         1.265E-6   0.         5.        
 1.02       744.24E-9  0.         5.        
 1.04       466.41E-9  0.         5.        
 1.06       320.5E-9   0.         5.        
 1.08       246.6E-9   0.         5.        
 1.1        212.33E-9  0.         5.        
 1.12       200.14E-9  0.         5.        
 1.14       200.55E-9  0.         5.        
 1.16       208.43E-9  0.         4.        
 1.18       221.E-9    0.         4.        
 1.2        236.81E-9  0.         4.        
Gnucap   System status
iterations: op=0, dc=465, tran=0, fourier=0, total=465
transient timesteps: accepted=0, rejected=0, total=0
nodes: user=2, subckt=1, model=30, total=33
dctran density=26.8%, ac density=26.8%
