#           v(g)       i(tb.sd)   iter(0)   
 0.        -0.2       -22.04E-15  4.        
-0.02      -0.2        339.E-12   4.        
-0.04      -0.2        507.5E-12  4.        
-0.06      -0.2        0.         4.        
-0.08      -0.2        0.         4.        
-0.1       -0.2        0.         4.        
-0.12      -0.2        0.         4.        
-0.14      -0.2        0.         4.        
-0.16      -0.2        0.         4.        
-0.18      -0.2        0.         4.        
-0.2       -0.2        0.         4.        
-0.22      -0.2        0.         4.        
-0.24      -0.2        0.         4.        
-0.26      -0.2        0.         4.        
-0.28      -0.2        0.         4.        
-0.3       -0.2        0.         4.        
-0.32      -0.2        0.         4.        
-0.34      -0.2        0.         4.        
-0.36      -0.2        0.         4.        
-0.38      -0.2        0.         4.        
-0.4       -0.2        0.         4.        
-0.42      -0.2        0.         4.        
-0.44      -0.2        0.         4.        
-0.46      -0.2        0.         4.        
-0.48      -0.2        0.         4.        
-0.5       -0.2        0.         4.        
-0.52      -0.2        0.         4.        
-0.54      -0.2        0.         4.        
-0.56      -0.2        0.         4.        
-0.58      -0.2        0.         4.        
-0.6       -0.2        0.         4.        
-0.62      -0.2        0.         4.        
-0.64      -0.2        0.         4.        
-0.66      -0.2        0.         4.        
-0.68      -0.2        0.         4.        
-0.7       -0.2        0.         4.        
-0.72      -0.2        0.         4.        
-0.74      -0.2        0.         4.        
-0.76      -0.2        0.         4.        
-0.78      -0.2        0.         4.        
-0.8       -0.2        0.         4.        
-0.82      -0.2        0.         4.        
-0.84      -0.2        0.         4.        
-0.86      -0.2        0.         4.        
-0.88      -0.2        0.         4.        
-0.9       -0.2        0.         4.        
-0.92      -0.2        0.         4.        
-0.94      -0.2        0.         4.        
-0.96      -0.2        0.         4.        
-0.98      -0.2        0.         4.        
-1.        -0.2        0.         4.        
-1.02      -0.2        0.         4.        
-1.04      -0.2        0.         4.        
-1.06      -0.2        0.         4.        
-1.08      -0.2        0.         4.        
-1.1       -0.2        0.         4.        
-1.12      -0.2        0.         4.        
-1.14      -0.2        0.         4.        
-1.16      -0.2        0.         4.        
-1.18      -0.2        0.         4.        
-1.2       -0.2        0.         4.        
 0.        -0.4       -70.02E-15  4.        
-0.02      -0.4        55.36E-9   4.        
-0.04      -0.4        90.894E-9  4.        
-0.06      -0.4        111.87E-9  4.        
-0.08      -0.4        123.48E-9  4.        
-0.1       -0.4        129.84E-9  4.        
-0.12      -0.4        133.52E-9  4.        
-0.14      -0.4        135.86E-9  4.        
-0.16      -0.4        137.52E-9  4.        
-0.18      -0.4        138.81E-9  4.        
-0.2       -0.4        139.88E-9  4.        
-0.22      -0.4        140.8E-9   4.        
-0.24      -0.4        141.62E-9  4.        
-0.26      -0.4        142.38E-9  4.        
-0.28      -0.4        143.07E-9  4.        
-0.3       -0.4        143.71E-9  4.        
-0.32      -0.4        144.32E-9  4.        
-0.34      -0.4        144.9E-9   4.        
-0.36      -0.4        145.45E-9  4.        
-0.38      -0.4        145.98E-9  4.        
-0.4       -0.4        146.49E-9  4.        
-0.42      -0.4        146.97E-9  4.        
-0.44      -0.4        147.45E-9  4.        
-0.46      -0.4        147.9E-9   4.        
-0.48      -0.4        148.35E-9  4.        
-0.5       -0.4        148.78E-9  4.        
-0.52      -0.4        149.19E-9  4.        
-0.54      -0.4        149.6E-9   4.        
-0.56      -0.4        150.02E-9  4.        
-0.58      -0.4        150.41E-9  4.        
-0.6       -0.4        150.8E-9   4.        
-0.62      -0.4        151.17E-9  4.        
-0.64      -0.4        151.54E-9  4.        
-0.66      -0.4        151.89E-9  4.        
-0.68      -0.4        152.26E-9  4.        
-0.7       -0.4        152.61E-9  4.        
-0.72      -0.4        152.97E-9  4.        
-0.74      -0.4        153.29E-9  4.        
-0.76      -0.4        153.62E-9  4.        
-0.78      -0.4        153.96E-9  4.        
-0.8       -0.4        154.29E-9  4.        
-0.82      -0.4        154.63E-9  4.        
-0.84      -0.4        154.95E-9  4.        
-0.86      -0.4        155.25E-9  4.        
-0.88      -0.4        155.56E-9  4.        
-0.9       -0.4        155.88E-9  4.        
-0.92      -0.4        156.17E-9  4.        
-0.94      -0.4        156.48E-9  4.        
-0.96      -0.4        156.78E-9  4.        
-0.98      -0.4        157.07E-9  4.        
-1.        -0.4        157.38E-9  4.        
-1.02      -0.4        157.67E-9  4.        
-1.04      -0.4        157.98E-9  4.        
-1.06      -0.4        158.25E-9  4.        
-1.08      -0.4        158.53E-9  4.        
-1.1       -0.4        158.82E-9  4.        
-1.12      -0.4        159.1E-9   4.        
-1.14      -0.4        159.39E-9  4.        
-1.16      -0.4        159.65E-9  4.        
-1.18      -0.4        159.95E-9  4.        
-1.2       -0.4        160.2E-9   4.        
 0.        -0.6       -265.9E-15  4.        
-0.02      -0.6        378.73E-9  4.        
-0.04      -0.6        709.29E-9  4.        
-0.06      -0.6        991.93E-9  4.        
-0.08      -0.6        1.2274E-6  4.        
-0.1       -0.6        1.4177E-6  4.        
-0.12      -0.6        1.5667E-6  4.        
-0.14      -0.6        1.6802E-6  4.        
-0.16      -0.6        1.7646E-6  4.        
-0.18      -0.6        1.8269E-6  4.        
-0.2       -0.6        1.8728E-6  4.        
-0.22      -0.6        1.9073E-6  4.        
-0.24      -0.6        1.9338E-6  4.        
-0.26      -0.6        1.9547E-6  4.        
-0.28      -0.6        1.9718E-6  4.        
-0.3       -0.6        1.9862E-6  4.        
-0.32      -0.6        1.9986E-6  4.        
-0.34      -0.6        2.0094E-6  4.        
-0.36      -0.6        2.0191E-6  4.        
-0.38      -0.6        2.028E-6   4.        
-0.4       -0.6        2.036E-6   4.        
-0.42      -0.6        2.0435E-6  4.        
-0.44      -0.6        2.0505E-6  4.        
-0.46      -0.6        2.0571E-6  4.        
-0.48      -0.6        2.0633E-6  4.        
-0.5       -0.6        2.0692E-6  4.        
-0.52      -0.6        2.0749E-6  4.        
-0.54      -0.6        2.0802E-6  4.        
-0.56      -0.6        2.0854E-6  4.        
-0.58      -0.6        2.0903E-6  4.        
-0.6       -0.6        2.0951E-6  4.        
-0.62      -0.6        2.0997E-6  4.        
-0.64      -0.6        2.1042E-6  4.        
-0.66      -0.6        2.1085E-6  4.        
-0.68      -0.6        2.1127E-6  4.        
-0.7       -0.6        2.1168E-6  4.        
-0.72      -0.6        2.1207E-6  4.        
-0.74      -0.6        2.1246E-6  4.        
-0.76      -0.6        2.1284E-6  4.        
-0.78      -0.6        2.132E-6   4.        
-0.8       -0.6        2.1356E-6  4.        
-0.82      -0.6        2.1391E-6  4.        
-0.84      -0.6        2.1426E-6  4.        
-0.86      -0.6        2.1459E-6  4.        
-0.88      -0.6        2.1493E-6  4.        
-0.9       -0.6        2.1525E-6  4.        
-0.92      -0.6        2.1557E-6  4.        
-0.94      -0.6        2.1588E-6  4.        
-0.96      -0.6        2.1619E-6  4.        
-0.98      -0.6        2.1649E-6  4.        
-1.        -0.6        2.1679E-6  4.        
-1.02      -0.6        2.1708E-6  4.        
-1.04      -0.6        2.1737E-6  4.        
-1.06      -0.6        2.1766E-6  4.        
-1.08      -0.6        2.1794E-6  4.        
-1.1       -0.6        2.1821E-6  4.        
-1.12      -0.6        2.1849E-6  4.        
-1.14      -0.6        2.1875E-6  4.        
-1.16      -0.6        2.1902E-6  4.        
-1.18      -0.6        2.1928E-6  4.        
-1.2       -0.6        2.1954E-6  4.        
 0.        -0.8       -786.7E-15  4.        
-0.02      -0.8        780.19E-9  4.        
-0.04      -0.8        1.5114E-6  4.        
-0.06      -0.8        2.1926E-6  4.        
-0.08      -0.8        2.8225E-6  4.        
-0.1       -0.8        3.4002E-6  4.        
-0.12      -0.8        3.9246E-6  4.        
-0.14      -0.8        4.3954E-6  4.        
-0.16      -0.8        4.8133E-6  4.        
-0.18      -0.8        5.1796E-6  4.        
-0.2       -0.8        5.4969E-6  4.        
-0.22      -0.8        5.7685E-6  4.        
-0.24      -0.8        5.9988E-6  4.        
-0.26      -0.8        6.1923E-6  4.        
-0.28      -0.8        6.3539E-6  4.        
-0.3       -0.8        6.4885E-6  4.        
-0.32      -0.8        6.6005E-6  4.        
-0.34      -0.8        6.6938E-6  4.        
-0.36      -0.8        6.7719E-6  4.        
-0.38      -0.8        6.8377E-6  4.        
-0.4       -0.8        6.8935E-6  4.        
-0.42      -0.8        6.9414E-6  4.        
-0.44      -0.8        6.9828E-6  4.        
-0.46      -0.8        7.0189E-6  4.        
-0.48      -0.8        7.0508E-6  4.        
-0.5       -0.8        7.0793E-6  4.        
-0.52      -0.8        7.1048E-6  4.        
-0.54      -0.8        7.1279E-6  4.        
-0.56      -0.8        7.1491E-6  4.        
-0.58      -0.8        7.1685E-6  4.        
-0.6       -0.8        7.1865E-6  4.        
-0.62      -0.8        7.2033E-6  4.        
-0.64      -0.8        7.219E-6   4.        
-0.66      -0.8        7.2338E-6  4.        
-0.68      -0.8        7.2477E-6  4.        
-0.7       -0.8        7.2609E-6  4.        
-0.72      -0.8        7.2735E-6  4.        
-0.74      -0.8        7.2855E-6  4.        
-0.76      -0.8        7.2969E-6  4.        
-0.78      -0.8        7.308E-6   4.        
-0.8       -0.8        7.3186E-6  4.        
-0.82      -0.8        7.3288E-6  4.        
-0.84      -0.8        7.3386E-6  4.        
-0.86      -0.8        7.3481E-6  4.        
-0.88      -0.8        7.3574E-6  4.        
-0.9       -0.8        7.3663E-6  4.        
-0.92      -0.8        7.375E-6   4.        
-0.94      -0.8        7.3835E-6  4.        
-0.96      -0.8        7.3917E-6  4.        
-0.98      -0.8        7.3998E-6  4.        
-1.        -0.8        7.4076E-6  4.        
-1.02      -0.8        7.4152E-6  4.        
-1.04      -0.8        7.4227E-6  4.        
-1.06      -0.8        7.4301E-6  4.        
-1.08      -0.8        7.4373E-6  4.        
-1.1       -0.8        7.4443E-6  4.        
-1.12      -0.8        7.4512E-6  4.        
-1.14      -0.8        7.4579E-6  4.        
-1.16      -0.8        7.4646E-6  4.        
-1.18      -0.8        7.4711E-6  4.        
-1.2       -0.8        7.4775E-6  4.        
 0.        -1.        -1.881E-12  4.        
-0.02      -1.         1.1391E-6  4.        
-0.04      -1.         2.2349E-6  4.        
-0.06      -1.         3.2862E-6  4.        
-0.08      -1.         4.292E-6   4.        
-0.1       -1.         5.2508E-6  4.        
-0.12      -1.         6.1613E-6  4.        
-0.14      -1.         7.0223E-6  4.        
-0.16      -1.         7.8325E-6  4.        
-0.18      -1.         8.591E-6   4.        
-0.2       -1.         9.2971E-6  4.        
-0.22      -1.         9.9506E-6  4.        
-0.24      -1.         10.552E-6  4.        
-0.26      -1.         11.101E-6  4.        
-0.28      -1.         11.601E-6  4.        
-0.3       -1.         12.052E-6  4.        
-0.32      -1.         12.457E-6  4.        
-0.34      -1.         12.819E-6  4.        
-0.36      -1.         13.141E-6  4.        
-0.38      -1.         13.426E-6  4.        
-0.4       -1.         13.679E-6  4.        
-0.42      -1.         13.901E-6  4.        
-0.44      -1.         14.097E-6  4.        
-0.46      -1.         14.27E-6   4.        
-0.48      -1.         14.422E-6  4.        
-0.5       -1.         14.556E-6  4.        
-0.52      -1.         14.674E-6  4.        
-0.54      -1.         14.779E-6  4.        
-0.56      -1.         14.872E-6  4.        
-0.58      -1.         14.955E-6  4.        
-0.6       -1.         15.03E-6   4.        
-0.62      -1.         15.096E-6  4.        
-0.64      -1.         15.157E-6  4.        
-0.66      -1.         15.211E-6  4.        
-0.68      -1.         15.261E-6  4.        
-0.7       -1.         15.306E-6  4.        
-0.72      -1.         15.348E-6  4.        
-0.74      -1.         15.386E-6  4.        
-0.76      -1.         15.422E-6  4.        
-0.78      -1.         15.455E-6  4.        
-0.8       -1.         15.486E-6  4.        
-0.82      -1.         15.514E-6  4.        
-0.84      -1.         15.541E-6  4.        
-0.86      -1.         15.567E-6  4.        
-0.88      -1.         15.591E-6  4.        
-0.9       -1.         15.614E-6  4.        
-0.92      -1.         15.635E-6  4.        
-0.94      -1.         15.656E-6  4.        
-0.96      -1.         15.675E-6  4.        
-0.98      -1.         15.694E-6  4.        
-1.        -1.         15.712E-6  4.        
-1.02      -1.         15.729E-6  4.        
-1.04      -1.         15.746E-6  4.        
-1.06      -1.         15.762E-6  4.        
-1.08      -1.         15.778E-6  4.        
-1.1       -1.         15.792E-6  4.        
-1.12      -1.         15.807E-6  4.        
-1.14      -1.         15.821E-6  4.        
-1.16      -1.         15.835E-6  4.        
-1.18      -1.         15.848E-6  4.        
-1.2       -1.         15.861E-6  4.        
 0.        -1.2       -3.882E-12  4.        
-0.02      -1.2        1.4385E-6  4.        
-0.04      -1.2        2.8398E-6  4.        
-0.06      -1.2        4.2027E-6  4.        
-0.08      -1.2        5.5264E-6  4.        
-0.1       -1.2        6.8096E-6  4.        
-0.12      -1.2        8.0513E-6  4.        
-0.14      -1.2        9.2504E-6  4.        
-0.16      -1.2        10.406E-6  4.        
-0.18      -1.2        11.516E-6  4.        
-0.2       -1.2        12.58E-6   4.        
-0.22      -1.2        13.597E-6  4.        
-0.24      -1.2        14.565E-6  4.        
-0.26      -1.2        15.485E-6  4.        
-0.28      -1.2        16.356E-6  4.        
-0.3       -1.2        17.176E-6  4.        
-0.32      -1.2        17.948E-6  4.        
-0.34      -1.2        18.67E-6   4.        
-0.36      -1.2        19.343E-6  4.        
-0.38      -1.2        19.969E-6  4.        
-0.4       -1.2        20.548E-6  4.        
-0.42      -1.2        21.084E-6  4.        
-0.44      -1.2        21.576E-6  4.        
-0.46      -1.2        22.028E-6  4.        
-0.48      -1.2        22.443E-6  4.        
-0.5       -1.2        22.821E-6  4.        
-0.52      -1.2        23.166E-6  4.        
-0.54      -1.2        23.48E-6   4.        
-0.56      -1.2        23.766E-6  4.        
-0.58      -1.2        24.026E-6  4.        
-0.6       -1.2        24.262E-6  4.        
-0.62      -1.2        24.477E-6  4.        
-0.64      -1.2        24.672E-6  4.        
-0.66      -1.2        24.85E-6   4.        
-0.68      -1.2        25.012E-6  4.        
-0.7       -1.2        25.159E-6  4.        
-0.72      -1.2        25.294E-6  4.        
-0.74      -1.2        25.417E-6  4.        
-0.76      -1.2        25.529E-6  4.        
-0.78      -1.2        25.633E-6  4.        
-0.8       -1.2        25.728E-6  4.        
-0.82      -1.2        25.815E-6  4.        
-0.84      -1.2        25.896E-6  4.        
-0.86      -1.2        25.971E-6  4.        
-0.88      -1.2        26.041E-6  4.        
-0.9       -1.2        26.105E-6  4.        
-0.92      -1.2        26.165E-6  4.        
-0.94      -1.2        26.221E-6  4.        
-0.96      -1.2        26.274E-6  4.        
-0.98      -1.2        26.323E-6  4.        
-1.        -1.2        26.369E-6  4.        
-1.02      -1.2        26.413E-6  4.        
-1.04      -1.2        26.454E-6  4.        
-1.06      -1.2        26.493E-6  4.        
-1.08      -1.2        26.53E-6   4.        
-1.1       -1.2        26.565E-6  4.        
-1.12      -1.2        26.598E-6  4.        
-1.14      -1.2        26.63E-6   4.        
-1.16      -1.2        26.66E-6   4.        
-1.18      -1.2        26.689E-6  4.        
-1.2       -1.2        26.716E-6  4.        
Gnucap   System status
iterations: op=0, dc=1464, tran=0, fourier=0, total=1464
transient timesteps: accepted=0, rejected=0, total=0
nodes: user=2, subckt=0, model=33, total=35
dctran density=60.1%, ac density=60.1%
