#           v(vgs1)    v(vgs2)    v(vgs3)    v(vgs4)   
 1.         0.49547    0.49547   -0.68792   -0.68792   
 2.         0.43101    0.43101   -0.69305   -0.69305   
 3.         0.47511    0.47511   -0.66207   -0.66207   
 4.         0.45652    0.45652   -0.69478   -0.69478   
 5.         0.42019    0.42019   -0.68762   -0.68762   
 6.         0.49934    0.49934   -0.66756   -0.66756   
 7.         0.46263    0.46263   -0.70615   -0.70615   
 8.         0.40985    0.40985   -0.69547   -0.69547   
 9.         0.46004    0.46004   -0.68019   -0.68019   
 10.        0.528      0.528     -0.68851   -0.68851   
 11.        0.421      0.421     -0.70845   -0.70845   
 12.        0.48395    0.48395   -0.67144   -0.67144   
 13.        0.45541    0.45541   -0.68049   -0.68049   
 14.        0.51493    0.51493   -0.67511   -0.67511   
 15.        0.4639     0.4639    -0.69813   -0.69813   
 16.        0.42943    0.42943   -0.67066   -0.67066   
 17.        0.43776    0.43776   -0.67155   -0.67155   
 18.        0.49443    0.49443   -0.68977   -0.68977   
 19.        0.42324    0.42324   -0.6967    -0.6967    
 20.        0.44998    0.44998   -0.67628   -0.67628   
 21.        0.52421    0.52421   -0.68773   -0.68773   
 22.        0.36758    0.36758   -0.68718   -0.68718   
 23.        0.46136    0.46136   -0.67745   -0.67745   
 24.        0.50605    0.50605   -0.71403   -0.71403   
 25.        0.41211    0.41211   -0.68629   -0.68629   
 26.        0.41432    0.41432   -0.67247   -0.67247   
 27.        0.56807    0.56807   -0.68262   -0.68262   
 28.        0.42511    0.42511   -0.67991   -0.67991   
 29.        0.47465    0.47465   -0.67885   -0.67885   
 30.        0.46511    0.46511   -0.68477   -0.68477   
 31.        0.4488     0.4488    -0.68937   -0.68937   
 32.        0.47826    0.47826   -0.67595   -0.67595   
 33.        0.44193    0.44193   -0.69407   -0.69407   
 34.        0.42091    0.42091   -0.69284   -0.69284   
 35.        0.51638    0.51638   -0.69176   -0.69176   
 36.        0.44518    0.44518   -0.70466   -0.70466   
 37.        0.43535    0.43535   -0.66271   -0.66271   
 38.        0.50067    0.50067   -0.67795   -0.67795   
 39.        0.36519    0.36519   -0.69037   -0.69037   
 40.        0.48822    0.48822   -0.69711   -0.69711   
 41.        0.50426    0.50426   -0.67613   -0.67613   
 42.        0.42758    0.42758   -0.67118   -0.67118   
 43.        0.48486    0.48486   -0.67602   -0.67602   
 44.        0.4993     0.4993    -0.69197   -0.69197   
 45.        0.43883    0.43883   -0.68411   -0.68411   
 46.        0.44554    0.44554   -0.6723    -0.6723    
 47.        0.48018    0.48018   -0.69144   -0.69144   
 48.        0.41984    0.41984   -0.69358   -0.69358   
 49.        0.4454     0.4454    -0.67341   -0.67341   
 50.        0.48263    0.48263   -0.69746   -0.69746   
 51.        0.40679    0.40679   -0.67203   -0.67203   
 52.        0.54748    0.54748   -0.68712   -0.68712   
 53.        0.46446    0.46446   -0.69756   -0.69756   
 54.        0.42239    0.42239   -0.68798   -0.68798   
 55.        0.46285    0.46285   -0.6618    -0.6618    
 56.        0.50529    0.50529   -0.68235   -0.68235   
 57.        0.44802    0.44802   -0.68904   -0.68904   
 58.        0.48112    0.48112   -0.68259   -0.68259   
 59.        0.44439    0.44439   -0.68499   -0.68499   
 60.        0.44168    0.44168   -0.67525   -0.67525   
 61.        0.49316    0.49316   -0.68821   -0.68821   
 62.        0.43883    0.43883   -0.69512   -0.69512   
 63.        0.43299    0.43299   -0.69118   -0.69118   
 64.        0.52393    0.52393   -0.68685   -0.68685   
 65.        0.40627    0.40627   -0.6841    -0.6841    
 66.        0.49979    0.49979   -0.68022   -0.68022   
 67.        0.46246    0.46246   -0.67874   -0.67874   
 68.        0.40907    0.40907   -0.68349   -0.68349   
 69.        0.47912    0.47912   -0.67779   -0.67779   
 70.        0.5212     0.5212    -0.69534   -0.69534   
 71.        0.42204    0.42204   -0.65994   -0.65994   
 72.        0.46541    0.46541   -0.66324   -0.66324   
 73.        0.49347    0.49347   -0.68701   -0.68701   
 74.        0.43765    0.43765   -0.68516   -0.68516   
 75.        0.48131    0.48131   -0.67296   -0.67296   
 76.        0.44949    0.44949   -0.69566   -0.69566   
 77.        0.41955    0.41955   -0.69322   -0.69322   
 78.        0.48432    0.48432   -0.66972   -0.66972   
 79.        0.47089    0.47089   -0.70649   -0.70649   
 80.        0.45644    0.45644   -0.69811   -0.69811   
 81.        0.48877    0.48877   -0.68294   -0.68294   
 82.        0.47869    0.47869   -0.69017   -0.69017   
 83.        0.44194    0.44194   -0.69019   -0.69019   
 84.        0.48506    0.48506   -0.66634   -0.66634   
 85.        0.43873    0.43873   -0.66205   -0.66205   
 86.        0.50162    0.50162   -0.67693   -0.67693   
 87.        0.47618    0.47618   -0.68978   -0.68978   
 88.        0.42637    0.42637   -0.67488   -0.67488   
 89.        0.45951    0.45951   -0.66539   -0.66539   
 90.        0.48089    0.48089   -0.68678   -0.68678   
 91.        0.42771    0.42771   -0.69458   -0.69458   
 92.        0.45939    0.45939   -0.6937    -0.6937    
 93.        0.51288    0.51288   -0.68199   -0.68199   
 94.        0.37172    0.37172   -0.6853    -0.6853    
 95.        0.4571     0.4571    -0.689     -0.689     
 96.        0.50983    0.50983   -0.71626   -0.71626   
 97.        0.41629    0.41629   -0.68251   -0.68251   
 98.        0.47255    0.47255   -0.67024   -0.67024   
 99.        0.53966    0.53966   -0.68487   -0.68487   
 100.       0.46849    0.46849   -0.67397   -0.67397   
 101.       0.4524     0.4524    -0.68919   -0.68919   
 102.       0.45713    0.45713   -0.67929   -0.67929   
 103.       0.4407     0.4407    -0.67485   -0.67485   
 104.       0.4841     0.4841    -0.67432   -0.67432   
 105.       0.43398    0.43398   -0.69922   -0.69922   
 106.       0.42147    0.42147   -0.69446   -0.69446   
 107.       0.47598    0.47598   -0.68211   -0.68211   
 108.       0.46203    0.46203   -0.69941   -0.69941   
 109.       0.43802    0.43802   -0.68916   -0.68916   
 110.       0.47568    0.47568   -0.69444   -0.69444   
 111.       0.39015    0.39015   -0.68758   -0.68758   
 112.       0.49812    0.49812   -0.68347   -0.68347   
 113.       0.504      0.504     -0.68346   -0.68346   
 114.       0.4231     0.4231    -0.67365   -0.67365   
 115.       0.50178    0.50178   -0.67176   -0.67176   
 116.       0.43958    0.43958   -0.68893   -0.68893   
 117.       0.46132    0.46132   -0.68613   -0.68613   
 118.       0.48237    0.48237   -0.67245   -0.67245   
 119.       0.45405    0.45405   -0.68906   -0.68906   
 120.       0.41646    0.41646   -0.69064   -0.69064   
 121.       0.45879    0.45879   -0.68961   -0.68961   
 122.       0.48144    0.48144   -0.70103   -0.70103   
 123.       0.40257    0.40257   -0.68084   -0.68084   
 124.       0.47288    0.47288   -0.68314   -0.68314   
 125.       0.46532    0.46532   -0.70263   -0.70263   
 126.       0.45037    0.45037   -0.68628   -0.68628   
 127.       0.48114    0.48114   -0.66336   -0.66336   
 128.       0.47133    0.47133   -0.68224   -0.68224   
 129.       0.46926    0.46926   -0.68904   -0.68904   
 130.       0.48746    0.48746   -0.68437   -0.68437   
 131.       0.43631    0.43631   -0.67428   -0.67428   
 132.       0.44145    0.44145   -0.67524   -0.67524   
 133.       0.49569    0.49569   -0.68936   -0.68936   
 134.       0.4361     0.4361    -0.69443   -0.69443   
 135.       0.43674    0.43674   -0.68749   -0.68749   
 136.       0.47203    0.47203   -0.6877    -0.6877    
 137.       0.42122    0.42122   -0.68061   -0.68061   
 138.       0.48332    0.48332   -0.68242   -0.68242   
 139.       0.47809    0.47809   -0.70413   -0.70413   
 140.       0.40897    0.40897   -0.6781    -0.6781    
 141.       0.48915    0.48915   -0.67421   -0.67421   
 142.       0.52618    0.52618   -0.68783   -0.68783   
 143.       0.41987    0.41987   -0.67446   -0.67446   
 144.       0.46486    0.46486   -0.66028   -0.66028   
 145.       0.48723    0.48723   -0.68547   -0.68547   
 146.       0.43923    0.43923   -0.6855    -0.6855    
 147.       0.47907    0.47907   -0.6749    -0.6749    
 148.       0.44624    0.44624   -0.69339   -0.69339   
 149.       0.42206    0.42206   -0.69216   -0.69216   
 150.       0.48864    0.48864   -0.68548   -0.68548   
 151.       0.46358    0.46358   -0.70484   -0.70484   
 152.       0.45638    0.45638   -0.69765   -0.69765   
 153.       0.47995    0.47995   -0.68062   -0.68062   
 154.       0.41224    0.41224   -0.69457   -0.69457   
 155.       0.49656    0.49656   -0.69021   -0.69021   
 156.       0.48084    0.48084   -0.6686    -0.6686    
 157.       0.42894    0.42894   -0.66413   -0.66413   
 158.       0.49226    0.49226   -0.67508   -0.67508   
 159.       0.49536    0.49536   -0.69206   -0.69206   
 160.       0.4226     0.4226    -0.67614   -0.67614   
 161.       0.45692    0.45692   -0.67217   -0.67217   
 162.       0.4804     0.4804    -0.68677   -0.68677   
 163.       0.42576    0.42576   -0.69307   -0.69307   
 164.       0.45663    0.45663   -0.69641   -0.69641   
 165.       0.47362    0.47362   -0.68606   -0.68606   
 166.       0.3986     0.3986    -0.68385   -0.68385   
 167.       0.45631    0.45631   -0.68795   -0.68795   
 168.       0.50924    0.50924   -0.71357   -0.71357   
 169.       0.41849    0.41849   -0.6685    -0.6685    
 170.       0.47519    0.47519   -0.67332   -0.67332   
 171.       0.53383    0.53383   -0.68555   -0.68555   
 172.       0.463      0.463     -0.67228   -0.67228   
 173.       0.46249    0.46249   -0.6815    -0.6815    
 174.       0.44874    0.44874   -0.67939   -0.67939   
 175.       0.44425    0.44425   -0.68035   -0.68035   
 176.       0.48806    0.48806   -0.67665   -0.67665   
 177.       0.43733    0.43733   -0.69757   -0.69757   
 178.       0.42583    0.42583   -0.6823    -0.6823    
 179.       0.47251    0.47251   -0.68387   -0.68387   
 180.       0.45467    0.45467   -0.69771   -0.69771   
 181.       0.44972    0.44972   -0.69645   -0.69645   
 182.       0.47607    0.47607   -0.69036   -0.69036   
 183.       0.39599    0.39599   -0.68556   -0.68556   
 184.       0.53515    0.53515   -0.68064   -0.68064   
 185.       0.48541    0.48541   -0.68439   -0.68439   
 186.       0.42274    0.42274   -0.67131   -0.67131   
 187.       0.51383    0.51383   -0.66891   -0.66891   
 188.       0.43236    0.43236   -0.68784   -0.68784   
 189.       0.45263    0.45263   -0.68753   -0.68753   
 190.       0.47128    0.47128   -0.67276   -0.67276   
 191.       0.45857    0.45857   -0.68613   -0.68613   
 192.       0.41664    0.41664   -0.68787   -0.68787   
 193.       0.49159    0.49159   -0.70925   -0.70925   
 194.       0.46123    0.46123   -0.70323   -0.70323   
 195.       0.40999    0.40999   -0.68292   -0.68292   
 196.       0.45875    0.45875   -0.67878   -0.67878   
 197.       0.47306    0.47306   -0.70856   -0.70856   
 198.       0.45006    0.45006   -0.68686   -0.68686   
 199.       0.48392    0.48392   -0.66241   -0.66241   
 200.       0.45078    0.45078   -0.68133   -0.68133   
 201.       0.48023    0.48023   -0.68484   -0.68484   
 202.       0.48893    0.48893   -0.68515   -0.68515   
 203.       0.43046    0.43046   -0.66685   -0.66685   
 204.       0.44399    0.44399   -0.67431   -0.67431   
 205.       0.49643    0.49643   -0.68859   -0.68859   
 206.       0.43627    0.43627   -0.69352   -0.69352   
 207.       0.43981    0.43981   -0.68509   -0.68509   
 208.       0.41764    0.41764   -0.68812   -0.68812   
 209.       0.44403    0.44403   -0.67548   -0.67548   
 210.       0.4817     0.4817    -0.68852   -0.68852   
 211.       0.48237    0.48237   -0.72103   -0.72103   
 212.       0.40956    0.40956   -0.67788   -0.67788   
 213.       0.49578    0.49578   -0.66971   -0.66971   
 214.       0.53422    0.53422   -0.68854   -0.68854   
 215.       0.41702    0.41702   -0.68406   -0.68406   
 216.       0.47406    0.47406   -0.66037   -0.66037   
 217.       0.47361    0.47361   -0.69008   -0.69008   
 218.       0.44095    0.44095   -0.68568   -0.68568   
 219.       0.47788    0.47788   -0.67711   -0.67711   
 220.       0.44262    0.44262   -0.69027   -0.69027   
 221.       0.4237     0.4237    -0.69364   -0.69364   
 222.       0.48986    0.48986   -0.68611   -0.68611   
 223.       0.45656    0.45656   -0.70264   -0.70264   
 224.       0.45797    0.45797   -0.69542   -0.69542   
 225.       0.45742    0.45742   -0.68196   -0.68196   
 226.       0.37508    0.37508   -0.69213   -0.69213   
 227.       0.52471    0.52471   -0.68971   -0.68971   
 228.       0.48451    0.48451   -0.67603   -0.67603   
 229.       0.42122    0.42122   -0.66726   -0.66726   
 230.       0.48773    0.48773   -0.67391   -0.67391   
 231.       0.50924    0.50924   -0.69241   -0.69241   
 232.       0.40547    0.40547   -0.67901   -0.67901   
 233.       0.46566    0.46566   -0.68083   -0.68083   
 234.       0.478      0.478     -0.68731   -0.68731   
 235.       0.4247     0.4247    -0.69143   -0.69143   
 236.       0.4545     0.4545    -0.69724   -0.69724   
 237.       0.47698    0.47698   -0.69067   -0.69067   
 238.       0.40296    0.40296   -0.68163   -0.68163   
 239.       0.46046    0.46046   -0.69064   -0.69064   
 240.       0.50351    0.50351   -0.71103   -0.71103   
 241.       0.42346    0.42346   -0.65179   -0.65179   
 242.       0.47204    0.47204   -0.67082   -0.67082   
 243.       0.51116    0.51116   -0.68621   -0.68621   
 244.       0.46434    0.46434   -0.67524   -0.67524   
 245.       0.47341    0.47341   -0.67343   -0.67343   
 246.       0.4418     0.4418    -0.67743   -0.67743   
 247.       0.44743    0.44743   -0.67963   -0.67963   
 248.       0.4927     0.4927    -0.67832   -0.67832   
 249.       0.44189    0.44189   -0.69626   -0.69626   
 250.       0.43126    0.43126   -0.68137   -0.68137   
 251.       0.47017    0.47017   -0.68374   -0.68374   
 252.       0.44521    0.44521   -0.69596   -0.69596   
 253.       0.46597    0.46597   -0.70198   -0.70198   
 254.       0.47314    0.47314   -0.68959   -0.68959   
 255.       0.40411    0.40411   -0.68068   -0.68068   
 256.       0.58134    0.58134   -0.67997   -0.67997   
 257.       0.46225    0.46225   -0.70273   -0.70273   
 258.       0.41893    0.41893   -0.6709    -0.6709    
 259.       0.51592    0.51592   -0.66518   -0.66518   
 260.       0.43281    0.43281   -0.68698   -0.68698   
 261.       0.44809    0.44809   -0.68982   -0.68982   
 262.       0.47546    0.47546   -0.67501   -0.67501   
 263.       0.45321    0.45321   -0.69163   -0.69163   
 264.       0.4175     0.4175    -0.68237   -0.68237   
 265.       0.495      0.495     -0.67514   -0.67514   
 266.       0.45679    0.45679   -0.70356   -0.70356   
 267.       0.41519    0.41519   -0.68675   -0.68675   
 268.       0.44553    0.44553   -0.68328   -0.68328   
 269.       0.48163    0.48163   -0.69566   -0.69566   
 270.       0.46227    0.46227   -0.68616   -0.68616   
 271.       0.48035    0.48035   -0.65868   -0.65868   
 272.       0.43731    0.43731   -0.67963   -0.67963   
 273.       0.5002     0.5002    -0.69174   -0.69174   
 274.       0.49214    0.49214   -0.68715   -0.68715   
 275.       0.42442    0.42442   -0.6663    -0.6663    
 276.       0.44768    0.44768   -0.67087   -0.67087   
 277.       0.49448    0.49448   -0.69159   -0.69159   
 278.       0.43934    0.43934   -0.69265   -0.69265   
 279.       0.46256    0.46256   -0.68948   -0.68948   
 280.       0.4887     0.4887    -0.68951   -0.68951   
 281.       0.38973    0.38973   -0.67641   -0.67641   
 282.       0.47988    0.47988   -0.69129   -0.69129   
 283.       0.4847     0.4847    -0.71642   -0.71642   
 284.       0.41308    0.41308   -0.67933   -0.67933   
 285.       0.48595    0.48595   -0.67376   -0.67376   
 286.       0.54131    0.54131   -0.69114   -0.69114   
 287.       0.41269    0.41269   -0.67294   -0.67294   
 288.       0.45397    0.45397   -0.66218   -0.66218   
 289.       0.47697    0.47697   -0.68583   -0.68583   
 290.       0.44393    0.44393   -0.68759   -0.68759   
 291.       0.48111    0.48111   -0.68334   -0.68334   
 292.       0.43866    0.43866   -0.68529   -0.68529   
 293.       0.42999    0.42999   -0.67917   -0.67917   
 294.       0.48948    0.48948   -0.6856    -0.6856    
 295.       0.45304    0.45304   -0.70337   -0.70337   
 296.       0.46228    0.46228   -0.69389   -0.69389   
 297.       0.44934    0.44934   -0.67982   -0.67982   
 298.       0.38402    0.38402   -0.688     -0.688     
 299.       0.51674    0.51674   -0.68793   -0.68793   
 300.       0.49033    0.49033   -0.69299   -0.69299   
 301.       0.42146    0.42146   -0.67847   -0.67847   
 302.       0.51984    0.51984   -0.66711   -0.66711   
 303.       0.49282    0.49282   -0.68986   -0.68986   
 304.       0.41285    0.41285   -0.68456   -0.68456   
 305.       0.46137    0.46137   -0.68185   -0.68185   
 306.       0.4567     0.4567    -0.68778   -0.68778   
 307.       0.43218    0.43218   -0.69165   -0.69165   
 308.       0.48029    0.48029   -0.69351   -0.69351   
 309.       0.45699    0.45699   -0.68715   -0.68715   
 310.       0.40806    0.40806   -0.69254   -0.69254   
 311.       0.47014    0.47014   -0.68984   -0.68984   
 312.       0.49384    0.49384   -0.70958   -0.70958   
 313.       0.42632    0.42632   -0.65365   -0.65365   
 314.       0.469      0.469     -0.67296   -0.67296   
 315.       0.46048    0.46048   -0.6876    -0.6876    
 316.       0.47306    0.47306   -0.67603   -0.67603   
 317.       0.49266    0.49266   -0.66227   -0.66227   
 318.       0.43181    0.43181   -0.6743    -0.6743    
 319.       0.44992    0.44992   -0.67693   -0.67693   
 320.       0.49928    0.49928   -0.68315   -0.68315   
 321.       0.44064    0.44064   -0.68977   -0.68977   
 322.       0.43775    0.43775   -0.68121   -0.68121   
 323.       0.47229    0.47229   -0.68385   -0.68385   
 324.       0.46132    0.46132   -0.69265   -0.69265   
 325.       0.42946    0.42946   -0.7069    -0.7069    
 326.       0.49138    0.49138   -0.69865   -0.69865   
 327.       0.40741    0.40741   -0.68066   -0.68066   
 328.       0.56194    0.56194   -0.67604   -0.67604   
 329.       0.47371    0.47371   -0.70292   -0.70292   
 330.       0.42048    0.42048   -0.67476   -0.67476   
 331.       0.512      0.512     -0.66435   -0.66435   
 332.       0.46845    0.46845   -0.68567   -0.68567   
 333.       0.42563    0.42563   -0.68786   -0.68786   
 334.       0.4799     0.4799    -0.67718   -0.67718   
 335.       0.44695    0.44695   -0.69543   -0.69543   
 336.       0.42131    0.42131   -0.68251   -0.68251   
 337.       0.49127    0.49127   -0.6801    -0.6801    
 338.       0.4532     0.4532    -0.70209   -0.70209   
 339.       0.42117    0.42117   -0.6884    -0.6884    
 340.       0.42911    0.42911   -0.68372   -0.68372   
 341.       0.46333    0.46333   -0.6972    -0.6972    
 342.       0.47376    0.47376   -0.68339   -0.68339   
 343.       0.48492    0.48492   -0.65585   -0.65585   
 344.       0.42649    0.42649   -0.68222   -0.68222   
 345.       0.50283    0.50283   -0.69066   -0.69066   
 346.       0.50097    0.50097   -0.68898   -0.68898   
 347.       0.42226    0.42226   -0.66584   -0.66584   
 348.       0.45322    0.45322   -0.66878   -0.66878   
 349.       0.48867    0.48867   -0.69197   -0.69197   
 350.       0.42963    0.42963   -0.69172   -0.69172   
 351.       0.46572    0.46572   -0.68427   -0.68427   
 352.       0.47227    0.47227   -0.69106   -0.69106   
 353.       0.39885    0.39885   -0.6839    -0.6839    
 354.       0.47908    0.47908   -0.69361   -0.69361   
 355.       0.48516    0.48516   -0.71151   -0.71151   
 356.       0.41819    0.41819   -0.68425   -0.68425   
