#           v(g)       i(tb.sd)   iter(0)   
 0.        -0.2       -44.07E-15  4.        
-0.02      -0.2        678.3E-12  4.        
-0.04      -0.2        1.0168E-9  4.        
-0.06      -0.2        1.1805E-9  4.        
-0.08      -0.2        1.2587E-9  4.        
-0.1       -0.2        1.2988E-9  4.        
-0.12      -0.2        1.3188E-9  4.        
-0.14      -0.2        0.         4.        
-0.16      -0.2        0.         4.        
-0.18      -0.2        0.         4.        
-0.2       -0.2        0.         4.        
-0.22      -0.2        0.         4.        
-0.24      -0.2        0.         4.        
-0.26      -0.2        0.         4.        
-0.28      -0.2        0.         4.        
-0.3       -0.2        0.         4.        
-0.32      -0.2        0.         4.        
-0.34      -0.2        0.         4.        
-0.36      -0.2        0.         4.        
-0.38      -0.2        0.         4.        
-0.4       -0.2        0.         4.        
-0.42      -0.2        0.         4.        
-0.44      -0.2        0.         4.        
-0.46      -0.2        0.         4.        
-0.48      -0.2        0.         4.        
-0.5       -0.2        0.         4.        
-0.52      -0.2        0.         4.        
-0.54      -0.2        0.         4.        
-0.56      -0.2        0.         4.        
-0.58      -0.2        0.         4.        
-0.6       -0.2        0.         4.        
-0.62      -0.2        0.         4.        
-0.64      -0.2        0.         4.        
-0.66      -0.2        0.         4.        
-0.68      -0.2        0.         4.        
-0.7       -0.2        0.         4.        
-0.72      -0.2        0.         4.        
-0.74      -0.2        0.         4.        
-0.76      -0.2        0.         4.        
-0.78      -0.2        0.         4.        
-0.8       -0.2        0.         4.        
-0.82      -0.2        0.         4.        
-0.84      -0.2        0.         4.        
-0.86      -0.2        0.         4.        
-0.88      -0.2        0.         4.        
-0.9       -0.2        0.         4.        
-0.92      -0.2        0.         4.        
-0.94      -0.2        0.         4.        
-0.96      -0.2        0.         4.        
-0.98      -0.2        0.         4.        
-1.        -0.2        0.         4.        
-1.02      -0.2        0.         4.        
-1.04      -0.2        0.         4.        
-1.06      -0.2        0.         4.        
-1.08      -0.2        0.         4.        
-1.1       -0.2        0.         4.        
-1.12      -0.2        0.         4.        
-1.14      -0.2        0.         4.        
-1.16      -0.2        0.         4.        
-1.18      -0.2        0.         4.        
-1.2       -0.2        0.         4.        
 0.        -0.4       -138.2E-15  4.        
-0.02      -0.4        110.72E-9  4.        
-0.04      -0.4        181.79E-9  4.        
-0.06      -0.4        223.74E-9  4.        
-0.08      -0.4        246.97E-9  4.        
-0.1       -0.4        259.68E-9  4.        
-0.12      -0.4        267.04E-9  4.        
-0.14      -0.4        271.73E-9  4.        
-0.16      -0.4        275.05E-9  4.        
-0.18      -0.4        277.63E-9  4.        
-0.2       -0.4        279.76E-9  4.        
-0.22      -0.4        281.61E-9  4.        
-0.24      -0.4        283.26E-9  4.        
-0.26      -0.4        284.76E-9  4.        
-0.28      -0.4        286.14E-9  4.        
-0.3       -0.4        287.44E-9  4.        
-0.32      -0.4        288.65E-9  4.        
-0.34      -0.4        289.81E-9  4.        
-0.36      -0.4        290.91E-9  4.        
-0.38      -0.4        291.96E-9  4.        
-0.4       -0.4        292.97E-9  4.        
-0.42      -0.4        293.94E-9  4.        
-0.44      -0.4        294.87E-9  4.        
-0.46      -0.4        295.8E-9   4.        
-0.48      -0.4        296.68E-9  4.        
-0.5       -0.4        297.54E-9  4.        
-0.52      -0.4        298.39E-9  4.        
-0.54      -0.4        299.2E-9   4.        
-0.56      -0.4        300.01E-9  4.        
-0.58      -0.4        300.79E-9  4.        
-0.6       -0.4        301.55E-9  4.        
-0.62      -0.4        302.32E-9  4.        
-0.64      -0.4        303.04E-9  4.        
-0.66      -0.4        303.76E-9  4.        
-0.68      -0.4        304.48E-9  4.        
-0.7       -0.4        305.18E-9  4.        
-0.72      -0.4        305.88E-9  4.        
-0.74      -0.4        306.55E-9  4.        
-0.76      -0.4        307.23E-9  4.        
-0.78      -0.4        307.89E-9  4.        
-0.8       -0.4        308.56E-9  4.        
-0.82      -0.4        309.21E-9  4.        
-0.84      -0.4        309.82E-9  4.        
-0.86      -0.4        310.48E-9  4.        
-0.88      -0.4        311.09E-9  4.        
-0.9       -0.4        311.72E-9  4.        
-0.92      -0.4        312.33E-9  4.        
-0.94      -0.4        312.94E-9  4.        
-0.96      -0.4        313.55E-9  4.        
-0.98      -0.4        314.13E-9  4.        
-1.        -0.4        314.73E-9  4.        
-1.02      -0.4        315.3E-9   4.        
-1.04      -0.4        315.88E-9  4.        
-1.06      -0.4        316.48E-9  4.        
-1.08      -0.4        317.06E-9  4.        
-1.1       -0.4        317.62E-9  4.        
-1.12      -0.4        318.19E-9  4.        
-1.14      -0.4        318.75E-9  4.        
-1.16      -0.4        319.3E-9   4.        
-1.18      -0.4        319.85E-9  4.        
-1.2       -0.4        320.4E-9   4.        
 0.        -0.6       -511.5E-15  4.        
-0.02      -0.6        757.46E-9  4.        
-0.04      -0.6        1.4186E-6  4.        
-0.06      -0.6        1.9839E-6  4.        
-0.08      -0.6        2.4547E-6  4.        
-0.1       -0.6        2.8353E-6  4.        
-0.12      -0.6        3.1335E-6  4.        
-0.14      -0.6        3.3603E-6  4.        
-0.16      -0.6        3.5292E-6  4.        
-0.18      -0.6        3.6537E-6  4.        
-0.2       -0.6        3.7457E-6  4.        
-0.22      -0.6        3.8146E-6  4.        
-0.24      -0.6        3.8676E-6  4.        
-0.26      -0.6        3.9095E-6  4.        
-0.28      -0.6        3.9437E-6  4.        
-0.3       -0.6        3.9724E-6  4.        
-0.32      -0.6        3.9971E-6  4.        
-0.34      -0.6        4.0189E-6  4.        
-0.36      -0.6        4.0383E-6  4.        
-0.38      -0.6        4.0559E-6  4.        
-0.4       -0.6        4.0721E-6  4.        
-0.42      -0.6        4.0871E-6  4.        
-0.44      -0.6        4.1011E-6  4.        
-0.46      -0.6        4.1143E-6  4.        
-0.48      -0.6        4.1267E-6  4.        
-0.5       -0.6        4.1385E-6  4.        
-0.52      -0.6        4.1497E-6  4.        
-0.54      -0.6        4.1605E-6  4.        
-0.56      -0.6        4.1708E-6  4.        
-0.58      -0.6        4.1807E-6  4.        
-0.6       -0.6        4.1902E-6  4.        
-0.62      -0.6        4.1994E-6  4.        
-0.64      -0.6        4.2083E-6  4.        
-0.66      -0.6        4.217E-6   4.        
-0.68      -0.6        4.2254E-6  4.        
-0.7       -0.6        4.2335E-6  4.        
-0.72      -0.6        4.2414E-6  4.        
-0.74      -0.6        4.2491E-6  4.        
-0.76      -0.6        4.2567E-6  4.        
-0.78      -0.6        4.264E-6   4.        
-0.8       -0.6        4.2712E-6  4.        
-0.82      -0.6        4.2783E-6  4.        
-0.84      -0.6        4.2852E-6  4.        
-0.86      -0.6        4.2919E-6  4.        
-0.88      -0.6        4.2985E-6  4.        
-0.9       -0.6        4.305E-6   4.        
-0.92      -0.6        4.3114E-6  4.        
-0.94      -0.6        4.3176E-6  4.        
-0.96      -0.6        4.3238E-6  4.        
-0.98      -0.6        4.3298E-6  4.        
-1.        -0.6        4.3358E-6  4.        
-1.02      -0.6        4.3416E-6  4.        
-1.04      -0.6        4.3474E-6  4.        
-1.06      -0.6        4.3531E-6  4.        
-1.08      -0.6        4.3587E-6  4.        
-1.1       -0.6        4.3642E-6  4.        
-1.12      -0.6        4.3696E-6  4.        
-1.14      -0.6        4.375E-6   4.        
-1.16      -0.6        4.3803E-6  4.        
-1.18      -0.6        4.3856E-6  4.        
-1.2       -0.6        4.3907E-6  4.        
 0.        -0.8       -1.496E-12  4.        
-0.02      -0.8        1.5604E-6  4.        
-0.04      -0.8        3.0228E-6  4.        
-0.06      -0.8        4.3851E-6  4.        
-0.08      -0.8        5.6451E-6  4.        
-0.1       -0.8        6.8003E-6  4.        
-0.12      -0.8        7.8491E-6  4.        
-0.14      -0.8        8.7908E-6  4.        
-0.16      -0.8        9.6266E-6  4.        
-0.18      -0.8        10.359E-6  4.        
-0.2       -0.8        10.994E-6  4.        
-0.22      -0.8        11.537E-6  4.        
-0.24      -0.8        11.998E-6  4.        
-0.26      -0.8        12.385E-6  4.        
-0.28      -0.8        12.708E-6  4.        
-0.3       -0.8        12.977E-6  4.        
-0.32      -0.8        13.201E-6  4.        
-0.34      -0.8        13.388E-6  4.        
-0.36      -0.8        13.544E-6  4.        
-0.38      -0.8        13.675E-6  4.        
-0.4       -0.8        13.787E-6  4.        
-0.42      -0.8        13.883E-6  4.        
-0.44      -0.8        13.966E-6  4.        
-0.46      -0.8        14.038E-6  4.        
-0.48      -0.8        14.102E-6  4.        
-0.5       -0.8        14.158E-6  4.        
-0.52      -0.8        14.21E-6   4.        
-0.54      -0.8        14.256E-6  4.        
-0.56      -0.8        14.298E-6  4.        
-0.58      -0.8        14.337E-6  4.        
-0.6       -0.8        14.373E-6  4.        
-0.62      -0.8        14.407E-6  4.        
-0.64      -0.8        14.438E-6  4.        
-0.66      -0.8        14.467E-6  4.        
-0.68      -0.8        14.495E-6  4.        
-0.7       -0.8        14.522E-6  4.        
-0.72      -0.8        14.547E-6  4.        
-0.74      -0.8        14.571E-6  4.        
-0.76      -0.8        14.594E-6  4.        
-0.78      -0.8        14.616E-6  4.        
-0.8       -0.8        14.637E-6  4.        
-0.82      -0.8        14.658E-6  4.        
-0.84      -0.8        14.677E-6  4.        
-0.86      -0.8        14.696E-6  4.        
-0.88      -0.8        14.715E-6  4.        
-0.9       -0.8        14.733E-6  4.        
-0.92      -0.8        14.75E-6   4.        
-0.94      -0.8        14.767E-6  4.        
-0.96      -0.8        14.783E-6  4.        
-0.98      -0.8        14.799E-6  4.        
-1.        -0.8        14.815E-6  4.        
-1.02      -0.8        14.83E-6   4.        
-1.04      -0.8        14.845E-6  4.        
-1.06      -0.8        14.86E-6   4.        
-1.08      -0.8        14.874E-6  4.        
-1.1       -0.8        14.888E-6  4.        
-1.12      -0.8        14.902E-6  4.        
-1.14      -0.8        14.916E-6  4.        
-1.16      -0.8        14.929E-6  4.        
-1.18      -0.8        14.942E-6  4.        
-1.2       -0.8        14.955E-6  4.        
 0.        -1.        -3.558E-12  4.        
-0.02      -1.         2.2782E-6  4.        
-0.04      -1.         4.4697E-6  4.        
-0.06      -1.         6.5724E-6  4.        
-0.08      -1.         8.5839E-6  4.        
-0.1       -1.         10.502E-6  4.        
-0.12      -1.         12.323E-6  4.        
-0.14      -1.         14.045E-6  4.        
-0.16      -1.         15.665E-6  4.        
-0.18      -1.         17.182E-6  4.        
-0.2       -1.         18.594E-6  4.        
-0.22      -1.         19.901E-6  4.        
-0.24      -1.         21.103E-6  4.        
-0.26      -1.         22.203E-6  4.        
-0.28      -1.         23.201E-6  4.        
-0.3       -1.         24.103E-6  4.        
-0.32      -1.         24.914E-6  4.        
-0.34      -1.         25.638E-6  4.        
-0.36      -1.         26.282E-6  4.        
-0.38      -1.         26.853E-6  4.        
-0.4       -1.         27.358E-6  4.        
-0.42      -1.         27.803E-6  4.        
-0.44      -1.         28.195E-6  4.        
-0.46      -1.         28.54E-6   4.        
-0.48      -1.         28.844E-6  4.        
-0.5       -1.         29.112E-6  4.        
-0.52      -1.         29.348E-6  4.        
-0.54      -1.         29.558E-6  4.        
-0.56      -1.         29.744E-6  4.        
-0.58      -1.         29.91E-6   4.        
-0.6       -1.         30.059E-6  4.        
-0.62      -1.         30.193E-6  4.        
-0.64      -1.         30.313E-6  4.        
-0.66      -1.         30.422E-6  4.        
-0.68      -1.         30.522E-6  4.        
-0.7       -1.         30.613E-6  4.        
-0.72      -1.         30.696E-6  4.        
-0.74      -1.         30.773E-6  4.        
-0.76      -1.         30.844E-6  4.        
-0.78      -1.         30.91E-6   4.        
-0.8       -1.         30.971E-6  4.        
-0.82      -1.         31.029E-6  4.        
-0.84      -1.         31.083E-6  4.        
-0.86      -1.         31.134E-6  4.        
-0.88      -1.         31.182E-6  4.        
-0.9       -1.         31.227E-6  4.        
-0.92      -1.         31.271E-6  4.        
-0.94      -1.         31.312E-6  4.        
-0.96      -1.         31.351E-6  4.        
-0.98      -1.         31.388E-6  4.        
-1.        -1.         31.424E-6  4.        
-1.02      -1.         31.459E-6  4.        
-1.04      -1.         31.492E-6  4.        
-1.06      -1.         31.524E-6  4.        
-1.08      -1.         31.555E-6  4.        
-1.1       -1.         31.585E-6  4.        
-1.12      -1.         31.614E-6  4.        
-1.14      -1.         31.642E-6  4.        
-1.16      -1.         31.669E-6  4.        
-1.18      -1.         31.695E-6  4.        
-1.2       -1.         31.721E-6  4.        
 0.        -1.2       -7.32E-12   4.        
-0.02      -1.2        2.877E-6   4.        
-0.04      -1.2        5.6795E-6  4.        
-0.06      -1.2        8.4055E-6  4.        
-0.08      -1.2        11.053E-6  4.        
-0.1       -1.2        13.619E-6  4.        
-0.12      -1.2        16.103E-6  4.        
-0.14      -1.2        18.501E-6  4.        
-0.16      -1.2        20.811E-6  4.        
-0.18      -1.2        23.032E-6  4.        
-0.2       -1.2        25.16E-6   4.        
-0.22      -1.2        27.193E-6  4.        
-0.24      -1.2        29.131E-6  4.        
-0.26      -1.2        30.97E-6   4.        
-0.28      -1.2        32.711E-6  4.        
-0.3       -1.2        34.353E-6  4.        
-0.32      -1.2        35.895E-6  4.        
-0.34      -1.2        37.339E-6  4.        
-0.36      -1.2        38.686E-6  4.        
-0.38      -1.2        39.937E-6  4.        
-0.4       -1.2        41.097E-6  4.        
-0.42      -1.2        42.167E-6  4.        
-0.44      -1.2        43.152E-6  4.        
-0.46      -1.2        44.057E-6  4.        
-0.48      -1.2        44.885E-6  4.        
-0.5       -1.2        45.642E-6  4.        
-0.52      -1.2        46.332E-6  4.        
-0.54      -1.2        46.96E-6   4.        
-0.56      -1.2        47.532E-6  4.        
-0.58      -1.2        48.052E-6  4.        
-0.6       -1.2        48.525E-6  4.        
-0.62      -1.2        48.954E-6  4.        
-0.64      -1.2        49.345E-6  4.        
-0.66      -1.2        49.7E-6    4.        
-0.68      -1.2        50.024E-6  4.        
-0.7       -1.2        50.318E-6  4.        
-0.72      -1.2        50.587E-6  4.        
-0.74      -1.2        50.834E-6  4.        
-0.76      -1.2        51.059E-6  4.        
-0.78      -1.2        51.266E-6  4.        
-0.8       -1.2        51.456E-6  4.        
-0.82      -1.2        51.631E-6  4.        
-0.84      -1.2        51.793E-6  4.        
-0.86      -1.2        51.942E-6  4.        
-0.88      -1.2        52.081E-6  4.        
-0.9       -1.2        52.21E-6   4.        
-0.92      -1.2        52.33E-6   4.        
-0.94      -1.2        52.442E-6  4.        
-0.96      -1.2        52.547E-6  4.        
-0.98      -1.2        52.646E-6  4.        
-1.        -1.2        52.738E-6  4.        
-1.02      -1.2        52.826E-6  4.        
-1.04      -1.2        52.908E-6  4.        
-1.06      -1.2        52.986E-6  4.        
-1.08      -1.2        53.059E-6  4.        
-1.1       -1.2        53.129E-6  4.        
-1.12      -1.2        53.196E-6  4.        
-1.14      -1.2        53.259E-6  4.        
-1.16      -1.2        53.32E-6   4.        
-1.18      -1.2        53.378E-6  4.        
-1.2       -1.2        53.433E-6  4.        
Gnucap   System status
iterations: op=0, dc=1464, tran=0, fourier=0, total=1464
transient timesteps: accepted=0, rejected=0, total=0
nodes: user=2, subckt=0, model=15, total=17
dctran density=40.8%, ac density=40.8%
