#           v(vgs1)    v(vgs2)    v(vgs3)    v(vgs4)   
 1.         0.51825    0.5115    -0.73432   -0.72953   
 2.         0.5128     0.51662   -0.73536   -0.73519   
 3.         0.51202    0.51229   -0.73658   -0.73129   
 4.         0.51929    0.51139   -0.73463   -0.73233   
 5.         0.5145     0.5149    -0.73806   -0.73173   
 6.         0.51985    0.51754   -0.73301   -0.7333    
 7.         0.51237    0.52226   -0.73727   -0.73592   
 8.         0.51971    0.51151   -0.72992   -0.72995   
 9.         0.50669    0.51646   -0.72573   -0.73735   
 10.        0.50345    0.51356   -0.73      -0.73741   
 11.        0.50426    0.51939   -0.74064   -0.73458   
 12.        0.52114    0.52174   -0.73563   -0.73574   
 13.        0.51846    0.518     -0.73607   -0.73309   
 14.        0.51813    0.52137   -0.73435   -0.7353    
 15.        0.51231    0.52004   -0.73894   -0.73606   
 16.        0.52169    0.50873   -0.7341    -0.73222   
 17.        0.51261    0.51324   -0.73495   -0.73304   
 18.        0.51483    0.51662   -0.73368   -0.73458   
 19.        0.51006    0.51498   -0.7385    -0.72744   
 20.        0.52081    0.50777   -0.7284    -0.73601   
 21.        0.50431    0.50837   -0.73973   -0.73455   
 22.        0.52307    0.51352   -0.73135   -0.74155   
 23.        0.50638    0.51116   -0.73536   -0.74102   
 24.        0.519      0.51297   -0.73586   -0.73348   
 25.        0.51637    0.5065    -0.73655   -0.74037   
 26.        0.51613    0.51578   -0.73332   -0.73533   
 27.        0.51398    0.51378   -0.74168   -0.73452   
 28.        0.52476    0.5119    -0.73521   -0.73428   
 29.        0.51364    0.51595   -0.73153   -0.73695   
 30.        0.51053    0.5192    -0.73286   -0.72982   
 31.        0.50964    0.51309   -0.73947   -0.73207   
 32.        0.5212     0.52346   -0.72881   -0.74211   
 33.        0.50444    0.50612   -0.7395    -0.73464   
 34.        0.52293    0.50642   -0.73161   -0.73326   
 35.        0.50771    0.50496   -0.73747   -0.74012   
 36.        0.51943    0.51489   -0.73442   -0.73404   
 37.        0.51324    0.51839   -0.73308   -0.73252   
 38.        0.51177    0.51753   -0.74094   -0.73056   
 39.        0.52478    0.50893   -0.73768   -0.73728   
 40.        0.517      0.51073   -0.73233   -0.73923   
 41.        0.51047    0.52286   -0.73489   -0.72944   
 42.        0.51243    0.51146   -0.72897   -0.73843   
 43.        0.50689    0.50884   -0.73297   -0.7346    
 44.        0.51392    0.5238    -0.73129   -0.73517   
 45.        0.5068     0.51618   -0.73804   -0.73746   
 46.        0.52095    0.5165    -0.73161   -0.72828   
 47.        0.51076    0.51279   -0.73706   -0.73523   
 48.        0.51782    0.51303   -0.73164   -0.73168   
 49.        0.50831    0.50514   -0.73885   -0.7397    
 50.        0.52034    0.51475   -0.73649   -0.73482   
 51.        0.51466    0.51158   -0.73722   -0.73244   
 52.        0.51891    0.52121   -0.73286   -0.73702   
 53.        0.51167    0.51726   -0.74146   -0.73479   
 54.        0.52451    0.51224   -0.72962   -0.73828   
 55.        0.50517    0.51733   -0.73448   -0.73783   
 56.        0.51413    0.51369   -0.73305   -0.73228   
 57.        0.50793    0.50708   -0.73789   -0.72793   
 58.        0.52013    0.51708   -0.72899   -0.73797   
 59.        0.50638    0.51256   -0.73851   -0.73068   
 60.        0.52073    0.52037   -0.7377    -0.73612   
 61.        0.51807    0.51745   -0.73644   -0.73502   
 62.        0.51626    0.51362   -0.73695   -0.73939   
 63.        0.52026    0.51397   -0.73399   -0.73478   
 64.        0.51313    0.51788   -0.7315    -0.73568   
 65.        0.5093     0.50515   -0.74298   -0.73341   
 66.        0.52536    0.51541   -0.73414   -0.73433   
 67.        0.51414    0.51065   -0.74165   -0.73345   
 68.        0.52727    0.5166    -0.73098   -0.72865   
 69.        0.50879    0.51444   -0.73705   -0.74372   
 70.        0.52034    0.51962   -0.73266   -0.73508   
 71.        0.50908    0.5237    -0.73686   -0.73778   
 72.        0.51781    0.52294   -0.73505   -0.73806   
 73.        0.51497    0.52855   -0.73562   -0.74245   
 74.        0.5146     0.52817   -0.73244   -0.73671   
 75.        0.5106     0.51487   -0.73152   -0.73623   
 76.        0.50773    0.51427   -0.73169   -0.73326   
 77.        0.50875    0.51823   -0.73399   -0.73265   
 78.        0.51351    0.50933   -0.73111   -0.72793   
 79.        0.50879    0.50898   -0.74036   -0.73869   
 80.        0.52213    0.51697   -0.73311   -0.73489   
 81.        0.51164    0.52208   -0.73981   -0.73074   
 82.        0.52342    0.518     -0.7346    -0.73581   
 83.        0.51912    0.51202   -0.73095   -0.73313   
 84.        0.51083    0.50785   -0.73103   -0.72883   
 85.        0.50652    0.50819   -0.73652   -0.73037   
 86.        0.51815    0.51941   -0.73121   -0.73546   
 87.        0.50981    0.50997   -0.73979   -0.73793   
 88.        0.52436    0.52422   -0.72468   -0.73167   
 89.        0.49762    0.51175   -0.73452   -0.73904   
 90.        0.51628    0.52202   -0.7313    -0.73484   
 91.        0.51011    0.51592   -0.73744   -0.74209   
 92.        0.51838    0.50818   -0.73752   -0.73368   
 93.        0.51965    0.51951   -0.73525   -0.73725   
 94.        0.51658    0.51754   -0.73664   -0.73446   
 95.        0.51941    0.50998   -0.73481   -0.73088   
 96.        0.5156     0.51711   -0.7363    -0.73843   
 97.        0.51777    0.51883   -0.74045   -0.73391   
 98.        0.51943    0.51374   -0.73585   -0.73425   
 99.        0.51805    0.51751   -0.74279   -0.73236   
 100.       0.52914    0.50952   -0.73253   -0.73603   
 101.       0.50965    0.5103    -0.73689   -0.74235   
 102.       0.5207     0.52032   -0.73253   -0.73284   
 103.       0.51166    0.51247   -0.7346    -0.72777   
 104.       0.51401    0.5114    -0.73696   -0.73785   
 105.       0.51719    0.51573   -0.73599   -0.73063   
 106.       0.51534    0.51287   -0.73692   -0.73587   
 107.       0.51909    0.51214   -0.73744   -0.7348    
 108.       0.51701    0.51694   -0.73474   -0.74054   
 109.       0.51409    0.51177   -0.73805   -0.7374    
 110.       0.52014    0.51121   -0.73862   -0.7321    
 111.       0.52172    0.51899   -0.7438    -0.74065   
 112.       0.53015    0.5156    -0.73239   -0.73316   
 113.       0.51145    0.51756   -0.73881   -0.73523   
 114.       0.5201     0.51448   -0.73086   -0.73794   
 115.       0.50824    0.5193    -0.73065   -0.73528   
 116.       0.51126    0.51877   -0.73185   -0.73697   
 117.       0.51175    0.51558   -0.73319   -0.73058   
 118.       0.51411    0.52121   -0.73544   -0.73535   
 119.       0.51614    0.51537   -0.73187   -0.73567   
 120.       0.50917    0.52141   -0.73443   -0.73419   
 121.       0.51309    0.51463   -0.7386    -0.73336   
 122.       0.52153    0.51108   -0.73565   -0.73577   
 123.       0.51242    0.51415   -0.73722   -0.73542   
 124.       0.52029    0.50698   -0.73429   -0.73237   
 125.       0.51292    0.51217   -0.73565   -0.73378   
 126.       0.51753    0.51413   -0.73592   -0.73362   
 127.       0.51586    0.50288   -0.73077   -0.73176   
 128.       0.50859    0.50382   -0.73707   -0.73869   
 129.       0.51716    0.52023   -0.73457   -0.73218   
 130.       0.51512    0.51863   -0.73437   -0.72604   
 131.       0.51538    0.5239    -0.73798   -0.7302    
 132.       0.51934    0.52557   -0.73264   -0.73218   
 133.       0.50961    0.51876   -0.7375    -0.73613   
 134.       0.52041    0.51496   -0.73169   -0.73937   
 135.       0.50892    0.5205    -0.73529   -0.73813   
 136.       0.5156     0.51168   -0.73382   -0.73665   
 137.       0.51161    0.52149   -0.73513   -0.7334    
 138.       0.51425    0.51215   -0.73147   -0.73405   
 139.       0.51113    0.52127   -0.73357   -0.74096   
 140.       0.51231    0.51405   -0.73813   -0.73389   
 141.       0.51839    0.51581   -0.72965   -0.73709   
 142.       0.50583    0.52454   -0.73778   -0.73659   
 143.       0.52004    0.50867   -0.73619   -0.73184   
 144.       0.51821    0.51294   -0.72827   -0.73995   
 145.       0.50647    0.51371   -0.73653   -0.72867   
 146.       0.51754    0.52636   -0.73664   -0.74235   
 147.       0.51576    0.52456   -0.72738   -0.73291   
 148.       0.50474    0.51664   -0.73809   -0.73674   
 149.       0.51993    0.5126    -0.73359   -0.73828   
 150.       0.51082    0.52485   -0.73909   -0.73577   
 151.       0.52159    0.51299   -0.73446   -0.73487   
 152.       0.51518    0.50612   -0.73393   -0.73186   
 153.       0.51429    0.51721   -0.73749   -0.73488   
 154.       0.51894    0.51801   -0.73756   -0.72957   
 155.       0.51769    0.51531   -0.73441   -0.72984   
 156.       0.51269    0.51992   -0.74104   -0.73662   
 157.       0.5228     0.51139   -0.73106   -0.72995   
 158.       0.5084     0.52554   -0.73424   -0.74291   
 159.       0.51759    0.52133   -0.73421   -0.73349   
 160.       0.51356    0.52202   -0.73391   -0.73791   
 161.       0.51211    0.5149    -0.73077   -0.73494   
 162.       0.51036    0.5158    -0.73581   -0.73756   
 163.       0.51495    0.5229    -0.73342   -0.73717   
 164.       0.51308    0.51593   -0.737     -0.73444   
 165.       0.5174     0.5168    -0.73292   -0.73739   
 166.       0.51081    0.51086   -0.73841   -0.7338    
 167.       0.51972    0.51427   -0.74516   -0.7325    
 168.       0.53281    0.50615   -0.74101   -0.74138   
 169.       0.52135    0.50957   -0.73322   -0.73422   
 170.       0.51094    0.50999   -0.73963   -0.73719   
 171.       0.52333    0.51349   -0.73604   -0.7319    
 172.       0.51476    0.50644   -0.73603   -0.73677   
 173.       0.51492    0.51939   -0.73408   -0.73946   
 174.       0.51345    0.51841   -0.73028   -0.73262   
 175.       0.50618    0.52289   -0.73576   -0.72688   
 176.       0.51519    0.51598   -0.73746   -0.73401   
 177.       0.51843    0.51717   -0.7311    -0.74363   
 178.       0.50614    0.52617   -0.73752   -0.73327   
 179.       0.52019    0.51173   -0.72836   -0.7363    
 180.       0.50474    0.52458   -0.73751   -0.74144   
 181.       0.52017    0.50816   -0.73339   -0.73264   
 182.       0.51124    0.50988   -0.73809   -0.7322    
 183.       0.52072    0.5111    -0.73471   -0.73658   
 184.       0.51441    0.50993   -0.73385   -0.73868   
 185.       0.51097    0.5202    -0.7366    -0.73184   
 186.       0.51526    0.51737   -0.73467   -0.73232   
 187.       0.51626    0.51334   -0.74012   -0.73127   
 188.       0.52567    0.51616   -0.74017   -0.73595   
 189.       0.52082    0.51599   -0.72776   -0.73262   
 190.       0.50173    0.5179    -0.73911   -0.73679   
 191.       0.52125    0.52239   -0.73136   -0.73083   
 192.       0.50817    0.51667   -0.73768   -0.73491   
 193.       0.51898    0.50491   -0.73365   -0.73156   
 194.       0.51205    0.5128    -0.73663   -0.7359    
 195.       0.51611    0.50755   -0.73713   -0.73975   
 196.       0.52038    0.5115    -0.73372   -0.73686   
 197.       0.51396    0.51536   -0.73564   -0.74209   
 198.       0.51316    0.51898   -0.73661   -0.7313    
 199.       0.51977    0.51447   -0.73564   -0.73513   
 200.       0.51689    0.52165   -0.73715   -0.73883   
 201.       0.51696    0.51853   -0.72714   -0.73308   
 202.       0.50388    0.51713   -0.73799   -0.73431   
 203.       0.52211    0.52173   -0.73133   -0.73168   
 204.       0.50874    0.52011   -0.73589   -0.74029   
 205.       0.51703    0.51209   -0.73523   -0.73443   
 206.       0.51309    0.51859   -0.73225   -0.73938   
 207.       0.5089     0.51125   -0.7383    -0.73562   
 208.       0.52124    0.50268   -0.73478   -0.73931   
 209.       0.51773    0.52157   -0.73463   -0.73318   
 210.       0.51407    0.51448   -0.73599   -0.73636   
 211.       0.51519    0.5072    -0.73236   -0.73014   
 212.       0.51045    0.5275    -0.74189   -0.73793   
 213.       0.52435    0.50773   -0.73016   -0.73118   
 214.       0.50677    0.51272   -0.73942   -0.73453   
 215.       0.51992    0.52115   -0.73396   -0.7314    
 216.       0.51243    0.51185   -0.73054   -0.7324    
 217.       0.50926    0.50098   -0.73896   -0.73437   
 218.       0.52034    0.52039   -0.73306   -0.73538   
 219.       0.51068    0.51153   -0.73837   -0.74062   
 220.       0.5199     0.52032   -0.73419   -0.73308   
 221.       0.51126    0.51981   -0.73374   -0.73447   
 222.       0.5138     0.51488   -0.73595   -0.7326    
 223.       0.51637    0.51455   -0.72998   -0.72845   
 224.       0.50635    0.51714   -0.73932   -0.73769   
 225.       0.52345    0.50361   -0.7338    -0.73709   
 226.       0.51312    0.5162    -0.73798   -0.73712   
 227.       0.51967    0.50624   -0.73379   -0.73469   
 228.       0.51436    0.51958   -0.73588   -0.73487   
 229.       0.51561    0.51896   -0.73489   -0.7344    
 230.       0.51294    0.51448   -0.73213   -0.74263   
 231.       0.5102     0.50871   -0.7336    -0.73507   
 232.       0.51207    0.51613   -0.73697   -0.73162   
 233.       0.5176     0.51247   -0.72701   -0.7332    
 234.       0.50217    0.51069   -0.74223   -0.7379    
 235.       0.52529    0.51922   -0.73533   -0.72857   
 236.       0.51374    0.51305   -0.74019   -0.74154   
 237.       0.52258    0.51598   -0.7324    -0.73785   
 238.       0.51094    0.51586   -0.73707   -0.73406   
 239.       0.51838    0.51308   -0.73697   -0.73992   
 240.       0.51822    0.50784   -0.73375   -0.73242   
 241.       0.51052    0.50516   -0.73641   -0.74157   
 242.       0.51628    0.51436   -0.73509   -0.74304   
 243.       0.51822    0.51502   -0.72907   -0.738     
 244.       0.50512    0.52846   -0.73959   -0.73575   
 245.       0.52233    0.52006   -0.7296    -0.73302   
 246.       0.50709    0.52264   -0.74202   -0.74336   
 247.       0.52562    0.51019   -0.73382   -0.73973   
 248.       0.51177    0.51775   -0.73873   -0.73766   
 249.       0.52043    0.51104   -0.73371   -0.73951   
 250.       0.51208    0.52535   -0.73632   -0.7306    
 251.       0.51616    0.51554   -0.73274   -0.73563   
 252.       0.51115    0.52205   -0.73694   -0.73476   
 253.       0.51638    0.51157   -0.73599   -0.73355   
 254.       0.51368    0.51268   -0.73816   -0.73618   
 255.       0.51897    0.51034   -0.73361   -0.73428   
 256.       0.51002    0.51068   -0.74024   -0.74138   
 257.       0.52534    0.50817   -0.73378   -0.73496   
 258.       0.50978    0.50681   -0.73831   -0.73575   
 259.       0.5224     0.51381   -0.73704   -0.73731   
 260.       0.51946    0.50891   -0.73828   -0.73259   
 261.       0.518      0.51157   -0.73241   -0.73552   
 262.       0.51204    0.51171   -0.73222   -0.73055   
 263.       0.51084    0.5142    -0.73084   -0.73717   
 264.       0.50819    0.5172    -0.73221   -0.736     
 265.       0.5073     0.51402   -0.73433   -0.73227   
 266.       0.51255    0.52203   -0.73975   -0.74204   
 267.       0.52111    0.5094    -0.7309    -0.73529   
 268.       0.50919    0.52338   -0.74294   -0.73504   
 269.       0.52868    0.51691   -0.73288   -0.73626   
 270.       0.51034    0.51729   -0.73908   -0.73366   
 271.       0.52195    0.50792   -0.72999   -0.73581   
 272.       0.50754    0.51299   -0.73744   -0.73163   
 273.       0.51764    0.51521   -0.73925   -0.73888   
 274.       0.52074    0.51131   -0.73492   -0.7405    
 275.       0.51586    0.51795   -0.73318   -0.73432   
 276.       0.51081    0.51114   -0.73902   -0.74469   
 277.       0.52118    0.51612   -0.73385   -0.73523   
 278.       0.51201    0.50696   -0.74051   -0.73573   
 279.       0.52212    0.51726   -0.73284   -0.73802   
 280.       0.51138    0.52279   -0.74136   -0.73527   
 281.       0.52728    0.51633   -0.73598   -0.73307   
 282.       0.51436    0.51523   -0.7312    -0.73495   
 283.       0.51146    0.51804   -0.73783   -0.73274   
 284.       0.51737    0.51914   -0.73587   -0.73137   
 285.       0.51573    0.50963   -0.73676   -0.74041   
 286.       0.51852    0.52104   -0.7393    -0.7395    
 287.       0.52121    0.51152   -0.73442   -0.74351   
 288.       0.51347    0.51358   -0.73591   -0.73626   
 289.       0.5179     0.52148   -0.73446   -0.73078   
 290.       0.5122     0.51356   -0.74174   -0.73506   
 291.       0.52507    0.52027   -0.73554   -0.73367   
 292.       0.51591    0.51847   -0.738     -0.72804   
 293.       0.52077    0.51763   -0.73665   -0.7316    
 294.       0.519      0.51555   -0.73637   -0.7415    
 295.       0.5175     0.51353   -0.73802   -0.73088   
 296.       0.51849    0.52876   -0.73692   -0.73611   
 297.       0.51734    0.5197    -0.73411   -0.73639   
 298.       0.51418    0.51967   -0.74052   -0.73917   
 299.       0.51987    0.51315   -0.73538   -0.72956   
 300.       0.51527    0.51002   -0.73794   -0.7362    
 301.       0.51932    0.50505   -0.73676   -0.72942   
 302.       0.51781    0.51273   -0.72627   -0.73434   
 303.       0.50244    0.51085   -0.73387   -0.73646   
 304.       0.51372    0.51388   -0.73228   -0.7302    
 305.       0.51043    0.51133   -0.73016   -0.74177   
 306.       0.51073    0.50594   -0.73629   -0.73253   
 307.       0.51513    0.52121   -0.73983   -0.73631   
 308.       0.52219    0.51896   -0.73541   -0.73723   
 309.       0.51547    0.51963   -0.73699   -0.73002   
 310.       0.51861    0.51769   -0.73557   -0.7361    
 311.       0.51497    0.51506   -0.72974   -0.72889   
 312.       0.50718    0.50979   -0.73639   -0.72547   
 313.       0.51594    0.51925   -0.73729   -0.73548   
 314.       0.51645    0.50653   -0.73346   -0.73786   
 315.       0.51342    0.52501   -0.73462   -0.73302   
 316.       0.51436    0.51905   -0.73497   -0.73285   
 317.       0.51438    0.51265   -0.73578   -0.73567   
 318.       0.51589    0.51567   -0.73164   -0.73558   
 319.       0.50978    0.51883   -0.73284   -0.73488   
 320.       0.51123    0.50599   -0.73505   -0.73627   
 321.       0.51486    0.5068    -0.73406   -0.73635   
 322.       0.51275    0.51412   -0.73498   -0.73597   
 323.       0.5129     0.50677   -0.73528   -0.73331   
 324.       0.51751    0.51495   -0.728     -0.73506   
 325.       0.50269    0.51742   -0.73741   -0.73953   
 326.       0.51813    0.51449   -0.73377   -0.73559   
 327.       0.51509    0.51526   -0.74067   -0.73625   
 328.       0.52426    0.52051   -0.73496   -0.73352   
 329.       0.5177     0.51658   -0.73122   -0.73493   
 330.       0.5104     0.50813   -0.73319   -0.74089   
 331.       0.51027    0.51231   -0.73369   -0.74092   
 332.       0.51452    0.51655   -0.73538   -0.74158   
 333.       0.51332    0.52614   -0.73422   -0.72779   
 334.       0.51406    0.51348   -0.7337    -0.7363    
 335.       0.51216    0.5112    -0.73778   -0.7404    
 336.       0.51869    0.51765   -0.72886   -0.72712   
 337.       0.50497    0.51774   -0.73667   -0.73579   
 338.       0.51879    0.51508   -0.73342   -0.7422    
 339.       0.51222    0.52271   -0.73341   -0.73318   
 340.       0.5108     0.50722   -0.73519   -0.73508   
 341.       0.51451    0.51388   -0.73229   -0.73098   
 342.       0.50973    0.50712   -0.73469   -0.73954   
 343.       0.51536    0.50823   -0.7321    -0.72857   
 344.       0.51084    0.51414   -0.73424   -0.73392   
 345.       0.5129     0.51221   -0.73621   -0.73991   
 346.       0.51868    0.50984   -0.73109   -0.73402   
 347.       0.50528    0.51604   -0.73736   -0.73708   
 348.       0.51959    0.51836   -0.73236   -0.72902   
 349.       0.51004    0.50969   -0.73808   -0.73496   
 350.       0.51872    0.51802   -0.73436   -0.73424   
 351.       0.51166    0.52302   -0.73154   -0.73627   
 352.       0.50721    0.51031   -0.7352    -0.74029   
 353.       0.51499    0.52538   -0.73513   -0.73512   
 354.       0.51451    0.51773   -0.73334   -0.73443   
 355.       0.51322    0.51591   -0.73295   -0.73164   
 356.       0.5103     0.51667   -0.73204   -0.73445   
