#           v(g)       i(tb.sd)   iter(0)   
 0.         0.2        1.83E-15   4.        
 0.02       0.2       -4.3333E-9  4.        
 0.04       0.2       -6.4988E-9  4.        
 0.06       0.2       -7.6043E-9  4.        
 0.08       0.2       -8.2273E-9  4.        
 0.1        0.2       -8.642E-9   4.        
 0.12       0.2       -8.9694E-9  4.        
 0.14       0.2       -9.2659E-9  4.        
 0.16       0.2       -9.5479E-9  4.        
 0.18       0.2       -9.8225E-9  4.        
 0.2        0.2       -10.095E-9  4.        
 0.22       0.2       -10.372E-9  4.        
 0.24       0.2       -10.641E-9  4.        
 0.26       0.2       -10.918E-9  4.        
 0.28       0.2       -11.194E-9  4.        
 0.3        0.2       -11.467E-9  4.        
 0.32       0.2       -11.736E-9  4.        
 0.34       0.2       -12.013E-9  4.        
 0.36       0.2       -12.282E-9  4.        
 0.38       0.2       -12.536E-9  4.        
 0.4        0.2       -12.798E-9  4.        
 0.42       0.2       -13.06E-9   4.        
 0.44       0.2       -13.322E-9  4.        
 0.46       0.2       -13.577E-9  4.        
 0.48       0.2       -13.832E-9  4.        
 0.5        0.2       -14.079E-9  4.        
 0.52       0.2       -14.334E-9  4.        
 0.54       0.2       -14.574E-9  4.        
 0.56       0.2       -14.821E-9  4.        
 0.58       0.2       -15.061E-9  4.        
 0.6        0.2       -15.309E-9  4.        
 0.62       0.2       -15.534E-9  4.        
 0.64       0.2       -15.774E-9  4.        
 0.66       0.2       -15.978E-9  4.        
 0.68       0.2       -16.225E-9  4.        
 0.7        0.2       -16.458E-9  4.        
 0.72       0.2       -16.691E-9  4.        
 0.74       0.2       -16.924E-9  4.        
 0.76       0.2       -17.142E-9  4.        
 0.78       0.2       -17.36E-9   4.        
 0.8        0.2       -17.579E-9  4.        
 0.82       0.2       -17.782E-9  4.        
 0.84       0.2       -18.015E-9  4.        
 0.86       0.2       -18.219E-9  4.        
 0.88       0.2       -18.423E-9  4.        
 0.9        0.2       -18.641E-9  4.        
 0.92       0.2       -18.845E-9  4.        
 0.94       0.2       -19.048E-9  4.        
 0.96       0.2       -19.252E-9  4.        
 0.98       0.2       -19.456E-9  4.        
 1.         0.2       -19.66E-9   4.        
 1.02       0.2       -19.849E-9  4.        
 1.04       0.2       -20.053E-9  4.        
 1.06       0.2       -20.227E-9  4.        
 1.08       0.2       -20.416E-9  4.        
 1.1        0.2       -20.635E-9  4.        
 1.12       0.2       -20.838E-9  4.        
 1.14       0.2       -21.028E-9  4.        
 1.16       0.2       -21.217E-9  4.        
 1.18       0.2       -21.377E-9  4.        
 1.2        0.2       -21.58E-9   4.        
 0.         0.4        100.3E-15  4.        
 0.02       0.4       -357.07E-9  4.        
 0.04       0.4       -623.03E-9  4.        
 0.06       0.4       -809.31E-9  4.        
 0.08       0.4       -932.55E-9  4.        
 0.1        0.4       -1.012E-6   4.        
 0.12       0.4       -1.0645E-6  4.        
 0.14       0.4       -1.1019E-6  4.        
 0.16       0.4       -1.1312E-6  4.        
 0.18       0.4       -1.1561E-6  4.        
 0.2        0.4       -1.1785E-6  4.        
 0.22       0.4       -1.1996E-6  4.        
 0.24       0.4       -1.2197E-6  4.        
 0.26       0.4       -1.2393E-6  4.        
 0.28       0.4       -1.2583E-6  4.        
 0.3        0.4       -1.277E-6   4.        
 0.32       0.4       -1.2953E-6  4.        
 0.34       0.4       -1.3134E-6  4.        
 0.36       0.4       -1.3311E-6  4.        
 0.38       0.4       -1.3486E-6  4.        
 0.4        0.4       -1.3659E-6  4.        
 0.42       0.4       -1.3829E-6  4.        
 0.44       0.4       -1.3996E-6  4.        
 0.46       0.4       -1.4162E-6  4.        
 0.48       0.4       -1.4325E-6  4.        
 0.5        0.4       -1.4486E-6  4.        
 0.52       0.4       -1.4644E-6  4.        
 0.54       0.4       -1.4801E-6  4.        
 0.56       0.4       -1.4956E-6  4.        
 0.58       0.4       -1.5109E-6  4.        
 0.6        0.4       -1.526E-6   4.        
 0.62       0.4       -1.5409E-6  4.        
 0.64       0.4       -1.5556E-6  4.        
 0.66       0.4       -1.5701E-6  4.        
 0.68       0.4       -1.5845E-6  4.        
 0.7        0.4       -1.5987E-6  4.        
 0.72       0.4       -1.6127E-6  4.        
 0.74       0.4       -1.6266E-6  4.        
 0.76       0.4       -1.6403E-6  4.        
 0.78       0.4       -1.6539E-6  4.        
 0.8        0.4       -1.6673E-6  4.        
 0.82       0.4       -1.6806E-6  4.        
 0.84       0.4       -1.6937E-6  4.        
 0.86       0.4       -1.7067E-6  4.        
 0.88       0.4       -1.7196E-6  4.        
 0.9        0.4       -1.7323E-6  4.        
 0.92       0.4       -1.7449E-6  4.        
 0.94       0.4       -1.7574E-6  4.        
 0.96       0.4       -1.7697E-6  4.        
 0.98       0.4       -1.7819E-6  4.        
 1.         0.4       -1.794E-6   4.        
 1.02       0.4       -1.806E-6   4.        
 1.04       0.4       -1.8179E-6  4.        
 1.06       0.4       -1.8296E-6  4.        
 1.08       0.4       -1.8413E-6  4.        
 1.1        0.4       -1.8528E-6  4.        
 1.12       0.4       -1.8642E-6  4.        
 1.14       0.4       -1.8756E-6  4.        
 1.16       0.4       -1.8868E-6  4.        
 1.18       0.4       -1.898E-6   4.        
 1.2        0.4       -1.909E-6   4.        
 0.         0.6        737.6E-15  4.        
 0.02       0.6       -1.4548E-6  4.        
 0.04       0.6       -2.7611E-6  4.        
 0.06       0.6       -3.9158E-6  4.        
 0.08       0.6       -4.9171E-6  4.        
 0.1        0.6       -5.7673E-6  4.        
 0.12       0.6       -6.4741E-6  4.        
 0.14       0.6       -7.0503E-6  4.        
 0.16       0.6       -7.5133E-6  4.        
 0.18       0.6       -7.8824E-6  4.        
 0.2        0.6       -8.1766E-6  4.        
 0.22       0.6       -8.4132E-6  4.        
 0.24       0.6       -8.6069E-6  4.        
 0.26       0.6       -8.7691E-6  4.        
 0.28       0.6       -8.9083E-6  4.        
 0.3        0.6       -9.0309E-6  4.        
 0.32       0.6       -9.1413E-6  4.        
 0.34       0.6       -9.2427E-6  4.        
 0.36       0.6       -9.3373E-6  4.        
 0.38       0.6       -9.4267E-6  4.        
 0.4        0.6       -9.5118E-6  4.        
 0.42       0.6       -9.5936E-6  4.        
 0.44       0.6       -9.6725E-6  4.        
 0.46       0.6       -9.7489E-6  4.        
 0.48       0.6       -9.8232E-6  4.        
 0.5        0.6       -9.8956E-6  4.        
 0.52       0.6       -9.9662E-6  4.        
 0.54       0.6       -10.035E-6  4.        
 0.56       0.6       -10.103E-6  4.        
 0.58       0.6       -10.169E-6  4.        
 0.6        0.6       -10.234E-6  4.        
 0.62       0.6       -10.298E-6  4.        
 0.64       0.6       -10.36E-6   4.        
 0.66       0.6       -10.421E-6  4.        
 0.68       0.6       -10.482E-6  4.        
 0.7        0.6       -10.541E-6  4.        
 0.72       0.6       -10.599E-6  4.        
 0.74       0.6       -10.657E-6  4.        
 0.76       0.6       -10.713E-6  4.        
 0.78       0.6       -10.769E-6  4.        
 0.8        0.6       -10.824E-6  4.        
 0.82       0.6       -10.878E-6  4.        
 0.84       0.6       -10.931E-6  4.        
 0.86       0.6       -10.983E-6  4.        
 0.88       0.6       -11.035E-6  4.        
 0.9        0.6       -11.086E-6  4.        
 0.92       0.6       -11.137E-6  4.        
 0.94       0.6       -11.186E-6  4.        
 0.96       0.6       -11.235E-6  4.        
 0.98       0.6       -11.284E-6  4.        
 1.         0.6       -11.331E-6  4.        
 1.02       0.6       -11.379E-6  4.        
 1.04       0.6       -11.425E-6  4.        
 1.06       0.6       -11.471E-6  4.        
 1.08       0.6       -11.517E-6  4.        
 1.1        0.6       -11.562E-6  4.        
 1.12       0.6       -11.606E-6  4.        
 1.14       0.6       -11.65E-6   4.        
 1.16       0.6       -11.694E-6  4.        
 1.18       0.6       -11.737E-6  4.        
 1.2        0.6       -11.779E-6  4.        
 0.         0.8        3.083E-12  4.        
 0.02       0.8       -2.7044E-6  4.        
 0.04       0.8       -5.2592E-6  4.        
 0.06       0.8       -7.6565E-6  4.        
 0.08       0.8       -9.8883E-6  4.        
 0.1        0.8       -11.948E-6  4.        
 0.12       0.8       -13.829E-6  4.        
 0.14       0.8       -15.532E-6  4.        
 0.16       0.8       -17.057E-6  4.        
 0.18       0.8       -18.409E-6  4.        
 0.2        0.8       -19.599E-6  4.        
 0.22       0.8       -20.637E-6  4.        
 0.24       0.8       -21.538E-6  4.        
 0.26       0.8       -22.318E-6  4.        
 0.28       0.8       -22.99E-6   4.        
 0.3        0.8       -23.572E-6  4.        
 0.32       0.8       -24.077E-6  4.        
 0.34       0.8       -24.517E-6  4.        
 0.36       0.8       -24.904E-6  4.        
 0.38       0.8       -25.247E-6  4.        
 0.4        0.8       -25.554E-6  4.        
 0.42       0.8       -25.831E-6  4.        
 0.44       0.8       -26.085E-6  4.        
 0.46       0.8       -26.318E-6  4.        
 0.48       0.8       -26.536E-6  4.        
 0.5        0.8       -26.739E-6  4.        
 0.52       0.8       -26.931E-6  4.        
 0.54       0.8       -27.114E-6  4.        
 0.56       0.8       -27.288E-6  4.        
 0.58       0.8       -27.454E-6  4.        
 0.6        0.8       -27.615E-6  4.        
 0.62       0.8       -27.77E-6   4.        
 0.64       0.8       -27.92E-6   4.        
 0.66       0.8       -28.066E-6  4.        
 0.68       0.8       -28.207E-6  4.        
 0.7        0.8       -28.345E-6  4.        
 0.72       0.8       -28.479E-6  4.        
 0.74       0.8       -28.61E-6   4.        
 0.76       0.8       -28.739E-6  4.        
 0.78       0.8       -28.864E-6  4.        
 0.8        0.8       -28.987E-6  4.        
 0.82       0.8       -29.107E-6  4.        
 0.84       0.8       -29.226E-6  4.        
 0.86       0.8       -29.341E-6  4.        
 0.88       0.8       -29.455E-6  4.        
 0.9        0.8       -29.567E-6  4.        
 0.92       0.8       -29.677E-6  4.        
 0.94       0.8       -29.784E-6  4.        
 0.96       0.8       -29.891E-6  4.        
 0.98       0.8       -29.995E-6  4.        
 1.         0.8       -30.098E-6  4.        
 1.02       0.8       -30.199E-6  4.        
 1.04       0.8       -30.299E-6  4.        
 1.06       0.8       -30.397E-6  4.        
 1.08       0.8       -30.493E-6  4.        
 1.1        0.8       -30.589E-6  4.        
 1.12       0.8       -30.683E-6  4.        
 1.14       0.8       -30.775E-6  4.        
 1.16       0.8       -30.867E-6  4.        
 1.18       0.8       -30.957E-6  4.        
 1.2        0.8       -31.046E-6  4.        
 0.         1.         10.27E-12  4.        
 0.02       1.        -3.817E-6   4.        
 0.04       1.        -7.5025E-6  4.        
 0.06       1.        -11.046E-6  4.        
 0.08       1.        -14.438E-6  4.        
 0.1        1.        -17.669E-6  4.        
 0.12       1.        -20.728E-6  4.        
 0.14       1.        -23.609E-6  4.        
 0.16       1.        -26.305E-6  4.        
 0.18       1.        -28.813E-6  4.        
 0.2        1.        -31.132E-6  4.        
 0.22       1.        -33.264E-6  4.        
 0.24       1.        -35.213E-6  4.        
 0.26       1.        -36.986E-6  4.        
 0.28       1.        -38.592E-6  4.        
 0.3        1.        -40.041E-6  4.        
 0.32       1.        -41.344E-6  4.        
 0.34       1.        -42.515E-6  4.        
 0.36       1.        -43.565E-6  4.        
 0.38       1.        -44.508E-6  4.        
 0.4        1.        -45.354E-6  4.        
 0.42       1.        -46.115E-6  4.        
 0.44       1.        -46.802E-6  4.        
 0.46       1.        -47.424E-6  4.        
 0.48       1.        -47.989E-6  4.        
 0.5        1.        -48.505E-6  4.        
 0.52       1.        -48.979E-6  4.        
 0.54       1.        -49.415E-6  4.        
 0.56       1.        -49.82E-6   4.        
 0.58       1.        -50.196E-6  4.        
 0.6        1.        -50.549E-6  4.        
 0.62       1.        -50.88E-6   4.        
 0.64       1.        -51.193E-6  4.        
 0.66       1.        -51.49E-6   4.        
 0.68       1.        -51.773E-6  4.        
 0.7        1.        -52.042E-6  4.        
 0.72       1.        -52.301E-6  4.        
 0.74       1.        -52.549E-6  4.        
 0.76       1.        -52.788E-6  4.        
 0.78       1.        -53.019E-6  4.        
 0.8        1.        -53.242E-6  4.        
 0.82       1.        -53.458E-6  4.        
 0.84       1.        -53.668E-6  4.        
 0.86       1.        -53.872E-6  4.        
 0.88       1.        -54.071E-6  4.        
 0.9        1.        -54.264E-6  4.        
 0.92       1.        -54.453E-6  4.        
 0.94       1.        -54.638E-6  4.        
 0.96       1.        -54.818E-6  4.        
 0.98       1.        -54.994E-6  4.        
 1.         1.        -55.167E-6  4.        
 1.02       1.        -55.336E-6  4.        
 1.04       1.        -55.502E-6  4.        
 1.06       1.        -55.665E-6  4.        
 1.08       1.        -55.825E-6  4.        
 1.1        1.        -55.982E-6  4.        
 1.12       1.        -56.136E-6  4.        
 1.14       1.        -56.287E-6  4.        
 1.16       1.        -56.436E-6  4.        
 1.18       1.        -56.582E-6  4.        
 1.2        1.        -56.726E-6  4.        
 0.         1.2        29.43E-12  4.        
 0.02       1.2       -4.7174E-6  4.        
 0.04       1.2       -9.3254E-6  4.        
 0.06       1.2       -13.814E-6  4.        
 0.08       1.2       -18.171E-6  4.        
 0.1        1.2       -22.387E-6  4.        
 0.12       1.2       -26.451E-6  4.        
 0.14       1.2       -30.353E-6  4.        
 0.16       1.2       -34.084E-6  4.        
 0.18       1.2       -37.638E-6  4.        
 0.2        1.2       -41.008E-6  4.        
 0.22       1.2       -44.191E-6  4.        
 0.24       1.2       -47.185E-6  4.        
 0.26       1.2       -49.989E-6  4.        
 0.28       1.2       -52.606E-6  4.        
 0.3        1.2       -55.039E-6  4.        
 0.32       1.2       -57.294E-6  4.        
 0.34       1.2       -59.378E-6  4.        
 0.36       1.2       -61.3E-6    4.        
 0.38       1.2       -63.067E-6  4.        
 0.4        1.2       -64.69E-6   4.        
 0.42       1.2       -66.18E-6   4.        
 0.44       1.2       -67.545E-6  4.        
 0.46       1.2       -68.797E-6  4.        
 0.48       1.2       -69.944E-6  4.        
 0.5        1.2       -70.997E-6  4.        
 0.52       1.2       -71.965E-6  4.        
 0.54       1.2       -72.856E-6  4.        
 0.56       1.2       -73.677E-6  4.        
 0.58       1.2       -74.436E-6  4.        
 0.6        1.2       -75.139E-6  4.        
 0.62       1.2       -75.793E-6  4.        
 0.64       1.2       -76.402E-6  4.        
 0.66       1.2       -76.97E-6   4.        
 0.68       1.2       -77.503E-6  4.        
 0.7        1.2       -78.005E-6  4.        
 0.72       1.2       -78.477E-6  4.        
 0.74       1.2       -78.924E-6  4.        
 0.76       1.2       -79.347E-6  4.        
 0.78       1.2       -79.75E-6   4.        
 0.8        1.2       -80.134E-6  4.        
 0.82       1.2       -80.501E-6  4.        
 0.84       1.2       -80.852E-6  4.        
 0.86       1.2       -81.189E-6  4.        
 0.88       1.2       -81.513E-6  4.        
 0.9        1.2       -81.826E-6  4.        
 0.92       1.2       -82.127E-6  4.        
 0.94       1.2       -82.419E-6  4.        
 0.96       1.2       -82.701E-6  4.        
 0.98       1.2       -82.975E-6  4.        
 1.         1.2       -83.241E-6  4.        
 1.02       1.2       -83.499E-6  4.        
 1.04       1.2       -83.751E-6  4.        
 1.06       1.2       -83.996E-6  4.        
 1.08       1.2       -84.235E-6  4.        
 1.1        1.2       -84.468E-6  4.        
 1.12       1.2       -84.696E-6  4.        
 1.14       1.2       -84.918E-6  4.        
 1.16       1.2       -85.136E-6  4.        
 1.18       1.2       -85.349E-6  4.        
 1.2        1.2       -85.558E-6  4.        
Gnucap   System status
iterations: op=0, dc=1464, tran=0, fourier=0, total=1464
transient timesteps: accepted=0, rejected=0, total=0
nodes: user=2, subckt=0, model=33, total=35
dctran density=60.1%, ac density=60.1%
