#           v(vgs1)    v(vgs2)    v(vgs3)    v(vgs4)   
 1.         0.49069    0.484     -0.65623   -0.65145   
 2.         0.48527    0.48906   -0.65723   -0.65712   
 3.         0.48451    0.48475   -0.65852   -0.65324   
 4.         0.49175    0.48381   -0.65655   -0.65421   
 5.         0.48697    0.48737   -0.65998   -0.65368   
 6.         0.49232    0.48999   -0.65496   -0.65518   
 7.         0.48483    0.49471   -0.65921   -0.65783   
 8.         0.49217    0.48397   -0.65186   -0.65191   
 9.         0.47916    0.48895   -0.64773   -0.65922   
 10.        0.47591    0.48604   -0.65189   -0.65931   
 11.        0.47674    0.49184   -0.66249   -0.65647   
 12.        0.49359    0.49419   -0.65757   -0.65767   
 13.        0.4909     0.49048   -0.65802   -0.65504   
 14.        0.49058    0.4938    -0.65625   -0.65724   
 15.        0.4848     0.49249   -0.66085   -0.65799   
 16.        0.49415    0.48122   -0.65599   -0.65412   
 17.        0.48509    0.48571   -0.65686   -0.65498   
 18.        0.48731    0.48907   -0.65557   -0.65659   
 19.        0.48256    0.48742   -0.66042   -0.64939   
 20.        0.49329    0.48023   -0.65035   -0.65791   
 21.        0.47678    0.48084   -0.66164   -0.65648   
 22.        0.49552    0.48597   -0.65325   -0.66347   
 23.        0.47886    0.48362   -0.65733   -0.66291   
 24.        0.49145    0.48545   -0.65779   -0.65542   
 25.        0.48882    0.47895   -0.65847   -0.66224   
 26.        0.4886     0.48824   -0.65528   -0.65723   
 27.        0.48641    0.48626   -0.66355   -0.65642   
 28.        0.49719    0.4844    -0.65713   -0.65617   
 29.        0.4861     0.48842   -0.65346   -0.65889   
 30.        0.48298    0.49167   -0.65473   -0.65177   
 31.        0.48209    0.48555   -0.66136   -0.65407   
 32.        0.49369    0.49591   -0.65073   -0.66402   
 33.        0.47692    0.47858   -0.66141   -0.65654   
 34.        0.4954     0.47889   -0.65351   -0.65522   
 35.        0.48019    0.47742   -0.65939   -0.66199   
 36.        0.49189    0.48735   -0.65635   -0.65591   
 37.        0.48571    0.49082   -0.65499   -0.65451   
 38.        0.48423    0.48998   -0.66283   -0.65254   
 39.        0.49722    0.4814    -0.65955   -0.65922   
 40.        0.48947    0.48319   -0.65424   -0.66111   
 41.        0.48294    0.49531   -0.65679   -0.65137   
 42.        0.48487    0.48388   -0.65096   -0.66036   
 43.        0.47936    0.48133   -0.65492   -0.65655   
 44.        0.48634    0.49627   -0.65318   -0.6571    
 45.        0.47927    0.48866   -0.65997   -0.65937   
 46.        0.49343    0.48894   -0.65355   -0.6502    
 47.        0.48323    0.48526   -0.65896   -0.65719   
 48.        0.4903     0.4855    -0.65358   -0.65362   
 49.        0.4808     0.47759   -0.66072   -0.66163   
 50.        0.49279    0.4872    -0.65836   -0.6567    
 51.        0.48712    0.48401   -0.65914   -0.65436   
 52.        0.49137    0.49368   -0.65478   -0.65896   
 53.        0.48411    0.48976   -0.66335   -0.6567    
 54.        0.49694    0.48469   -0.65151   -0.66017   
 55.        0.47764    0.48978   -0.65637   -0.65977   
 56.        0.48658    0.48618   -0.65491   -0.65429   
 57.        0.48043    0.47955   -0.65982   -0.64988   
 58.        0.4926     0.48956   -0.65095   -0.65989   
 59.        0.47885    0.48502   -0.6604    -0.65262   
 60.        0.49319    0.49285   -0.65957   -0.65801   
 61.        0.49056    0.48991   -0.65833   -0.65696   
 62.        0.48873    0.48606   -0.65892   -0.6613    
 63.        0.49273    0.48644   -0.6559    -0.6567    
 64.        0.4856     0.49032   -0.65344   -0.65766   
 65.        0.48176    0.47763   -0.66483   -0.65533   
 66.        0.49782    0.48784   -0.65606   -0.65625   
 67.        0.4866     0.4831    -0.66356   -0.65536   
 68.        0.49971    0.48906   -0.65291   -0.65057   
 69.        0.48128    0.48688   -0.65898   -0.66558   
 70.        0.49278    0.49208   -0.65457   -0.65703   
 71.        0.48156    0.49616   -0.65878   -0.65969   
 72.        0.49027    0.49537   -0.65693   -0.65996   
 73.        0.48741    0.501     -0.65752   -0.66436   
 74.        0.48707    0.50064   -0.65438   -0.65863   
 75.        0.4831     0.48734   -0.65343   -0.65813   
 76.        0.4802     0.48671   -0.65361   -0.65522   
 77.        0.48123    0.4907    -0.65593   -0.65455   
 78.        0.48599    0.4818    -0.65304   -0.64986   
 79.        0.48126    0.48145   -0.66225   -0.66058   
 80.        0.49459    0.48945   -0.65503   -0.65678   
 81.        0.4841     0.49452   -0.66171   -0.65264   
 82.        0.49586    0.49048   -0.65661   -0.65769   
 83.        0.49158    0.48448   -0.65294   -0.65507   
 84.        0.4833     0.48032   -0.65291   -0.65079   
 85.        0.479      0.48068   -0.65846   -0.6523    
 86.        0.49063    0.49185   -0.65316   -0.65742   
 87.        0.48229    0.48244   -0.66172   -0.65983   
 88.        0.49681    0.49666   -0.64663   -0.6536    
 89.        0.47012    0.48425   -0.65646   -0.66095   
 90.        0.48875    0.49444   -0.65328   -0.65677   
 91.        0.4826     0.48835   -0.65935   -0.66397   
 92.        0.49086    0.48066   -0.65943   -0.6556    
 93.        0.49211    0.49195   -0.6572    -0.65912   
 94.        0.48904    0.48999   -0.65861   -0.65638   
 95.        0.49188    0.48242   -0.65673   -0.6528    
 96.        0.48806    0.4896    -0.65825   -0.66034   
 97.        0.49022    0.49127   -0.66228   -0.65585   
 98.        0.49189    0.48618   -0.65778   -0.65622   
 99.        0.49047    0.48996   -0.66472   -0.65432   
 100.       0.50157    0.48202   -0.65445   -0.65793   
 101.       0.48213    0.48275   -0.65882   -0.66423   
 102.       0.49315    0.49278   -0.65447   -0.65478   
 103.       0.48415    0.48494   -0.65651   -0.64971   
 104.       0.48652    0.4839    -0.65886   -0.65975   
 105.       0.48968    0.48822   -0.6579    -0.65256   
 106.       0.48781    0.48534   -0.65886   -0.65778   
 107.       0.49155    0.48456   -0.65931   -0.6567    
 108.       0.48946    0.48938   -0.65668   -0.66248   
 109.       0.48656    0.48425   -0.65997   -0.65924   
 110.       0.49258    0.48368   -0.66054   -0.654     
 111.       0.49415    0.49143   -0.66571   -0.66257   
 112.       0.50259    0.48806   -0.65433   -0.6551    
 113.       0.48391    0.49001   -0.66071   -0.65715   
 114.       0.49253    0.48697   -0.6528    -0.65988   
 115.       0.48069    0.49179   -0.65261   -0.65725   
 116.       0.48369    0.49121   -0.65382   -0.65882   
 117.       0.48422    0.48804   -0.65515   -0.6525    
 118.       0.48659    0.49367   -0.65737   -0.65724   
 119.       0.4886     0.48784   -0.65381   -0.65761   
 120.       0.48165    0.49386   -0.65632   -0.65609   
 121.       0.48555    0.48709   -0.66053   -0.65529   
 122.       0.49399    0.48356   -0.65752   -0.65763   
 123.       0.48489    0.48662   -0.65917   -0.65734   
 124.       0.49274    0.47948   -0.65619   -0.65427   
 125.       0.48536    0.48465   -0.65761   -0.65573   
 126.       0.48998    0.48659   -0.65783   -0.65553   
 127.       0.48831    0.47535   -0.6527    -0.65369   
 128.       0.48102    0.47629   -0.65896   -0.66063   
 129.       0.48961    0.49271   -0.6565    -0.65408   
 130.       0.48758    0.49109   -0.65631   -0.64798   
 131.       0.48783    0.49632   -0.65987   -0.65214   
 132.       0.49181    0.49801   -0.65452   -0.65409   
 133.       0.48209    0.49119   -0.65945   -0.65808   
 134.       0.49288    0.48745   -0.65363   -0.66129   
 135.       0.4814     0.49296   -0.6572    -0.66009   
 136.       0.48806    0.48414   -0.65572   -0.65858   
 137.       0.48407    0.49393   -0.65704   -0.65534   
 138.       0.48672    0.4846    -0.65343   -0.65593   
 139.       0.48359    0.49376   -0.6555    -0.66281   
 140.       0.48475    0.48649   -0.66      -0.65578   
 141.       0.49084    0.48827   -0.65156   -0.65898   
 142.       0.47828    0.49697   -0.65972   -0.65853   
 143.       0.49249    0.48113   -0.65816   -0.65374   
 144.       0.49066    0.48541   -0.65023   -0.66185   
 145.       0.47893    0.48616   -0.65845   -0.65059   
 146.       0.49002    0.49879   -0.65855   -0.66422   
 147.       0.48825    0.49702   -0.64935   -0.65487   
 148.       0.47722    0.48911   -0.65999   -0.65864   
 149.       0.49239    0.48508   -0.65546   -0.66022   
 150.       0.4833     0.49725   -0.66099   -0.65767   
 151.       0.49405    0.48546   -0.6564    -0.65676   
 152.       0.48765    0.47859   -0.65586   -0.65378   
 153.       0.48675    0.48967   -0.65938   -0.65681   
 154.       0.49138    0.4905    -0.65944   -0.65153   
 155.       0.49015    0.48773   -0.65631   -0.65176   
 156.       0.48516    0.49235   -0.6629    -0.65851   
 157.       0.49525    0.48387   -0.65298   -0.65189   
 158.       0.48087    0.49799   -0.65623   -0.6648    
 159.       0.49004    0.49379   -0.65615   -0.65543   
 160.       0.48603    0.49449   -0.6558    -0.65979   
 161.       0.48459    0.48737   -0.65272   -0.65687   
 162.       0.48283    0.48826   -0.6577    -0.65947   
 163.       0.48744    0.49535   -0.65538   -0.65908   
 164.       0.48556    0.48837   -0.65888   -0.65638   
 165.       0.48986    0.48925   -0.65484   -0.6593    
 166.       0.48328    0.4833    -0.66031   -0.6558    
 167.       0.49218    0.48674   -0.66705   -0.65443   
 168.       0.50524    0.47861   -0.66285   -0.66329   
 169.       0.49379    0.48205   -0.65513   -0.65614   
 170.       0.48339    0.48245   -0.66152   -0.65909   
 171.       0.49575    0.48595   -0.65792   -0.65381   
 172.       0.48721    0.47894   -0.65792   -0.65867   
 173.       0.48739    0.4918    -0.65597   -0.66133   
 174.       0.48591    0.49088   -0.65219   -0.65458   
 175.       0.47867    0.49533   -0.65765   -0.64887   
 176.       0.4877     0.48845   -0.65936   -0.65594   
 177.       0.49091    0.48959   -0.653     -0.66553   
 178.       0.47862    0.49865   -0.65944   -0.65513   
 179.       0.49265    0.4842    -0.65031   -0.65824   
 180.       0.47721    0.49703   -0.65946   -0.66332   
 181.       0.49264    0.48062   -0.65529   -0.65455   
 182.       0.4837     0.48232   -0.66001   -0.65417   
 183.       0.49316    0.48359   -0.65664   -0.65845   
 184.       0.48686    0.4824    -0.65573   -0.66059   
 185.       0.48343    0.49265   -0.65848   -0.65379   
 186.       0.48771    0.48985   -0.65663   -0.65425   
 187.       0.48872    0.48583   -0.66204   -0.6532    
 188.       0.4981     0.48862   -0.66202   -0.65783   
 189.       0.4933     0.48848   -0.64968   -0.65459   
 190.       0.47424    0.49035   -0.66101   -0.65873   
 191.       0.49371    0.49482   -0.65331   -0.65278   
 192.       0.48066    0.48912   -0.65958   -0.65685   
 193.       0.49144    0.47739   -0.65555   -0.65351   
 194.       0.48452    0.48532   -0.65852   -0.65778   
 195.       0.48858    0.48004   -0.65909   -0.66166   
 196.       0.49283    0.48396   -0.65565   -0.65878   
 197.       0.48641    0.48781   -0.65752   -0.66392   
 198.       0.48562    0.49147   -0.65857   -0.65325   
 199.       0.49222    0.48691   -0.65757   -0.65705   
 200.       0.48932    0.49412   -0.65903   -0.66074   
 201.       0.48941    0.49098   -0.6491    -0.65504   
 202.       0.47635    0.48961   -0.65995   -0.6563    
 203.       0.49456    0.4942    -0.65325   -0.65359   
 204.       0.48122    0.49262   -0.65781   -0.66216   
 205.       0.4895     0.48455   -0.65711   -0.65634   
 206.       0.48557    0.49105   -0.65417   -0.66126   
 207.       0.48138    0.48373   -0.66021   -0.65752   
 208.       0.49369    0.47516   -0.65677   -0.66123   
 209.       0.49019    0.49404   -0.65657   -0.65506   
 210.       0.48654    0.48694   -0.65789   -0.65827   
 211.       0.48763    0.47966   -0.6543    -0.6521    
 212.       0.48288    0.49994   -0.66374   -0.65982   
 213.       0.49676    0.4802    -0.65206   -0.65306   
 214.       0.47922    0.48518   -0.66129   -0.65645   
 215.       0.49237    0.4936    -0.65587   -0.65333   
 216.       0.48489    0.48432   -0.65246   -0.6543    
 217.       0.48172    0.47345   -0.66085   -0.65632   
 218.       0.49281    0.49284   -0.65498   -0.65729   
 219.       0.48318    0.48398   -0.66026   -0.66249   
 220.       0.49237    0.49279   -0.65606   -0.65504   
 221.       0.48373    0.49225   -0.65569   -0.6564    
 222.       0.48628    0.48735   -0.65785   -0.65449   
 223.       0.48883    0.48699   -0.65193   -0.65041   
 224.       0.47883    0.4896    -0.66126   -0.65963   
 225.       0.4959     0.47608   -0.6557    -0.65903   
 226.       0.48556    0.48865   -0.65989   -0.65901   
 227.       0.49213    0.47872   -0.65574   -0.65656   
 228.       0.48682    0.49204   -0.65781   -0.65675   
 229.       0.48805    0.49142   -0.65678   -0.65628   
 230.       0.48539    0.48695   -0.65402   -0.66448   
 231.       0.48263    0.48117   -0.65551   -0.65698   
 232.       0.48454    0.48855   -0.65888   -0.65357   
 233.       0.49007    0.48497   -0.64894   -0.65508   
 234.       0.47465    0.48314   -0.66411   -0.65981   
 235.       0.49776    0.49164   -0.65725   -0.65059   
 236.       0.48622    0.48557   -0.66207   -0.66344   
 237.       0.49503    0.48845   -0.65436   -0.65977   
 238.       0.48341    0.48833   -0.659     -0.65599   
 239.       0.49084    0.48553   -0.65888   -0.66179   
 240.       0.49066    0.48029   -0.65564   -0.65437   
 241.       0.48297    0.47764   -0.65833   -0.66343   
 242.       0.48872    0.48684   -0.65705   -0.66494   
 243.       0.49064    0.48744   -0.65101   -0.65988   
 244.       0.47758    0.50092   -0.66151   -0.65768   
 245.       0.49479    0.49252   -0.65153   -0.65498   
 246.       0.47955    0.49509   -0.66389   -0.66528   
 247.       0.49808    0.48267   -0.65571   -0.66163   
 248.       0.48426    0.49022   -0.66063   -0.65952   
 249.       0.4929     0.48353   -0.65563   -0.66141   
 250.       0.48456    0.49779   -0.65821   -0.65253   
 251.       0.48862    0.48801   -0.65465   -0.65753   
 252.       0.48361    0.4945    -0.65883   -0.65667   
 253.       0.48886    0.48404   -0.65787   -0.65545   
 254.       0.48613    0.48514   -0.66004   -0.65809   
 255.       0.49141    0.48282   -0.65548   -0.65621   
 256.       0.48248    0.4831    -0.66216   -0.66331   
 257.       0.49778    0.48065   -0.65566   -0.65691   
 258.       0.48224    0.47927   -0.66024   -0.65767   
 259.       0.49486    0.48625   -0.65894   -0.65923   
 260.       0.49191    0.48136   -0.66017   -0.65451   
 261.       0.49051    0.48401   -0.65436   -0.65742   
 262.       0.48454    0.48419   -0.65414   -0.65247   
 263.       0.48331    0.48664   -0.65279   -0.65908   
 264.       0.48069    0.48967   -0.65408   -0.65791   
 265.       0.47978    0.48651   -0.65621   -0.65418   
 266.       0.48502    0.49452   -0.66163   -0.66393   
 267.       0.49357    0.48187   -0.65285   -0.65721   
 268.       0.48165    0.49583   -0.66484   -0.65695   
 269.       0.50111    0.48937   -0.65481   -0.65816   
 270.       0.48281    0.48974   -0.661     -0.65557   
 271.       0.49439    0.48039   -0.65192   -0.65776   
 272.       0.47998    0.48548   -0.65931   -0.65355   
 273.       0.49008    0.48766   -0.66113   -0.66078   
 274.       0.4932     0.48376   -0.65686   -0.66233   
 275.       0.48832    0.49039   -0.65508   -0.65623   
 276.       0.48328    0.48358   -0.66089   -0.66652   
 277.       0.49364    0.48856   -0.65575   -0.65714   
 278.       0.48449    0.47942   -0.66239   -0.6577    
 279.       0.4946     0.48971   -0.65475   -0.65989   
 280.       0.48384    0.49523   -0.66329   -0.65717   
 281.       0.49973    0.48876   -0.65787   -0.655     
 282.       0.48684    0.48769   -0.65318   -0.6569    
 283.       0.48393    0.49049   -0.6597    -0.65464   
 284.       0.48983    0.49159   -0.65779   -0.65327   
 285.       0.48819    0.48211   -0.65866   -0.66229   
 286.       0.49095    0.49351   -0.66121   -0.66137   
 287.       0.49366    0.48397   -0.65633   -0.66538   
 288.       0.48594    0.48604   -0.65781   -0.65815   
 289.       0.49035    0.49395   -0.65634   -0.65276   
 290.       0.48468    0.48601   -0.66366   -0.65696   
 291.       0.49755    0.49275   -0.65746   -0.65557   
 292.       0.48837    0.49094   -0.65994   -0.65003   
 293.       0.49323    0.49011   -0.65857   -0.65356   
 294.       0.49146    0.48804   -0.65829   -0.66338   
 295.       0.48996    0.48598   -0.65991   -0.6528    
 296.       0.49096    0.50121   -0.6588    -0.65804   
 297.       0.48979    0.49215   -0.65604   -0.65828   
 298.       0.48663    0.49214   -0.66234   -0.66105   
 299.       0.49233    0.4856    -0.6573    -0.65154   
 300.       0.48773    0.48248   -0.65987   -0.65812   
 301.       0.49177    0.47752   -0.65868   -0.65136   
 302.       0.49024    0.48519   -0.64822   -0.65628   
 303.       0.47488    0.48333   -0.65581   -0.65842   
 304.       0.48619    0.48636   -0.65421   -0.65217   
 305.       0.48292    0.4838    -0.65216   -0.66365   
 306.       0.48321    0.47841   -0.65818   -0.65442   
 307.       0.48762    0.49366   -0.66172   -0.65827   
 308.       0.49467    0.49142   -0.65733   -0.65915   
 309.       0.48792    0.49207   -0.65893   -0.65197   
 310.       0.49106    0.49016   -0.65746   -0.65802   
 311.       0.48743    0.48752   -0.65166   -0.65086   
 312.       0.47964    0.48221   -0.6583    -0.6474    
 313.       0.4884     0.49171   -0.65916   -0.65744   
 314.       0.4889     0.47899   -0.65538   -0.6598    
 315.       0.48585    0.49746   -0.65654   -0.65495   
 316.       0.48681    0.49153   -0.65687   -0.65481   
 317.       0.48684    0.48513   -0.65768   -0.65758   
 318.       0.48834    0.48815   -0.65358   -0.65751   
 319.       0.48224    0.49129   -0.65476   -0.65673   
 320.       0.4837     0.47847   -0.65698   -0.65819   
 321.       0.48733    0.47925   -0.656     -0.65829   
 322.       0.48523    0.4866    -0.65684   -0.65788   
 323.       0.48536    0.47926   -0.65724   -0.6552    
 324.       0.48996    0.48744   -0.64995   -0.65695   
 325.       0.47518    0.48987   -0.6593    -0.66148   
 326.       0.49058    0.48695   -0.65575   -0.65746   
 327.       0.48754    0.48771   -0.66258   -0.65813   
 328.       0.49671    0.49298   -0.65695   -0.65544   
 329.       0.49015    0.48901   -0.65321   -0.65684   
 330.       0.48285    0.48058   -0.65506   -0.66279   
 331.       0.48274    0.48479   -0.65562   -0.66281   
 332.       0.48697    0.48904   -0.65727   -0.66346   
 333.       0.48583    0.49857   -0.65617   -0.64975   
 334.       0.48655    0.48594   -0.6556    -0.65821   
 335.       0.48464    0.48368   -0.6597    -0.6623    
 336.       0.49117    0.49011   -0.65079   -0.64905   
 337.       0.47746    0.49021   -0.6586    -0.65767   
 338.       0.49125    0.48758   -0.65536   -0.66409   
 339.       0.4847     0.49514   -0.6553    -0.65513   
 340.       0.48326    0.47971   -0.65707   -0.65699   
 341.       0.48696    0.48635   -0.65422   -0.65297   
 342.       0.4822     0.47959   -0.65665   -0.66147   
 343.       0.48781    0.48072   -0.65404   -0.65052   
 344.       0.48327    0.4866    -0.65613   -0.65583   
 345.       0.48533    0.48469   -0.65816   -0.6618    
 346.       0.49113    0.48231   -0.65298   -0.65594   
 347.       0.47775    0.48847   -0.65929   -0.65902   
 348.       0.49205    0.4908    -0.65426   -0.65091   
 349.       0.48251    0.48217   -0.65996   -0.65689   
 350.       0.49119    0.49046   -0.65626   -0.65611   
 351.       0.48415    0.49548   -0.65343   -0.65814   
 352.       0.47967    0.48278   -0.6571    -0.66216   
 353.       0.48745    0.49784   -0.65705   -0.65703   
 354.       0.48698    0.49019   -0.65529   -0.65637   
 355.       0.48567    0.48837   -0.65487   -0.65355   
 356.       0.48275    0.48912   -0.65397   -0.65631   
