#           v(g)       i(tb.sd)   iter(0)   
 0.         0.2        0.         4.        
 0.02       0.2        0.         4.        
 0.04       0.2        0.         4.        
 0.06       0.2        0.         4.        
 0.08       0.2        0.         4.        
 0.1        0.2        0.         4.        
 0.12       0.2        0.         4.        
 0.14       0.2        0.         4.        
 0.16       0.2        0.         4.        
 0.18       0.2        0.         4.        
 0.2        0.2        0.         4.        
 0.22       0.2        0.         4.        
 0.24       0.2        0.         4.        
 0.26       0.2        0.         4.        
 0.28       0.2        0.         4.        
 0.3        0.2        0.         4.        
 0.32       0.2        0.         4.        
 0.34       0.2        0.         4.        
 0.36       0.2        0.         4.        
 0.38       0.2        0.         4.        
 0.4        0.2        0.         4.        
 0.42       0.2        0.         4.        
 0.44       0.2        0.         4.        
 0.46       0.2        0.         4.        
 0.48       0.2        0.         4.        
 0.5        0.2        0.         4.        
 0.52       0.2        0.         4.        
 0.54       0.2        0.         4.        
 0.56       0.2        0.         4.        
 0.58       0.2        0.         4.        
 0.6        0.2        0.         4.        
 0.62       0.2        0.         4.        
 0.64       0.2        0.         4.        
 0.66       0.2        0.         4.        
 0.68       0.2        0.         4.        
 0.7        0.2        0.         4.        
 0.72       0.2        0.         4.        
 0.74       0.2        0.         4.        
 0.76       0.2        0.         4.        
 0.78       0.2        0.         4.        
 0.8        0.2        0.         4.        
 0.82       0.2        0.         4.        
 0.84       0.2        0.         4.        
 0.86       0.2        0.         4.        
 0.88       0.2        0.         4.        
 0.9        0.2        0.         4.        
 0.92       0.2        0.         4.        
 0.94       0.2        0.         4.        
 0.96       0.2        0.         4.        
 0.98       0.2        0.         4.        
 1.         0.2        0.         4.        
 1.02       0.2        0.         4.        
 1.04       0.2        0.         4.        
 1.06       0.2        0.         4.        
 1.08       0.2        0.         4.        
 1.1        0.2        0.         4.        
 1.12       0.2        0.         4.        
 1.14       0.2        0.         4.        
 1.16       0.2        0.         4.        
 1.18       0.2        0.         4.        
 1.2        0.2        0.         4.        
 0.         0.4        0.         4.        
 0.02       0.4       -436.1E-12  4.        
 0.04       0.4       -638.5E-12  4.        
 0.06       0.4       -736.7E-12  4.        
 0.08       0.4        0.         4.        
 0.1        0.4        0.         4.        
 0.12       0.4        0.         4.        
 0.14       0.4        0.         4.        
 0.16       0.4        0.         4.        
 0.18       0.4        0.         4.        
 0.2        0.4        0.         4.        
 0.22       0.4        0.         4.        
 0.24       0.4        0.         4.        
 0.26       0.4        0.         4.        
 0.28       0.4        0.         4.        
 0.3        0.4        0.         4.        
 0.32       0.4        0.         4.        
 0.34       0.4        0.         4.        
 0.36       0.4        0.         4.        
 0.38       0.4        0.         4.        
 0.4        0.4        0.         4.        
 0.42       0.4        0.         4.        
 0.44       0.4        0.         4.        
 0.46       0.4        0.         4.        
 0.48       0.4        0.         4.        
 0.5        0.4        0.         4.        
 0.52       0.4        0.         4.        
 0.54       0.4        0.         4.        
 0.56       0.4        0.         4.        
 0.58       0.4        0.         4.        
 0.6        0.4        0.         4.        
 0.62       0.4        0.         4.        
 0.64       0.4        0.         4.        
 0.66       0.4        0.         4.        
 0.68       0.4        0.         4.        
 0.7        0.4        0.         4.        
 0.72       0.4        0.         4.        
 0.74       0.4        0.         4.        
 0.76       0.4        0.         4.        
 0.78       0.4        0.         4.        
 0.8        0.4        0.         4.        
 0.82       0.4        0.         4.        
 0.84       0.4        0.         4.        
 0.86       0.4        0.         4.        
 0.88       0.4        0.         4.        
 0.9        0.4        0.         4.        
 0.92       0.4        0.         4.        
 0.94       0.4        0.         4.        
 0.96       0.4        0.         4.        
 0.98       0.4        0.         4.        
 1.         0.4        0.         4.        
 1.02       0.4        0.         4.        
 1.04       0.4        0.         4.        
 1.06       0.4        0.         4.        
 1.08       0.4        0.         4.        
 1.1        0.4        0.         4.        
 1.12       0.4        0.         4.        
 1.14       0.4        0.         4.        
 1.16       0.4        0.         4.        
 1.18       0.4        0.         4.        
 1.2        0.4        0.         4.        
 0.         0.6        6.E-21     4.        
 0.02       0.6       -98.547E-9  4.        
 0.04       0.6       -149.76E-9  4.        
 0.06       0.6       -175.87E-9  4.        
 0.08       0.6       -190.2E-9   4.        
 0.1        0.6       -199.14E-9  4.        
 0.12       0.6       -205.53E-9  4.        
 0.14       0.6       -210.65E-9  4.        
 0.16       0.6       -215.11E-9  4.        
 0.18       0.6       -219.19E-9  4.        
 0.2        0.6       -223.05E-9  4.        
 0.22       0.6       -226.78E-9  4.        
 0.24       0.6       -230.43E-9  4.        
 0.26       0.6       -234.04E-9  4.        
 0.28       0.6       -237.62E-9  4.        
 0.3        0.6       -241.18E-9  4.        
 0.32       0.6       -244.73E-9  4.        
 0.34       0.6       -248.28E-9  4.        
 0.36       0.6       -251.85E-9  4.        
 0.38       0.6       -255.43E-9  4.        
 0.4        0.6       -259.02E-9  4.        
 0.42       0.6       -262.63E-9  4.        
 0.44       0.6       -266.26E-9  4.        
 0.46       0.6       -269.92E-9  4.        
 0.48       0.6       -273.59E-9  4.        
 0.5        0.6       -277.29E-9  4.        
 0.52       0.6       -281.02E-9  4.        
 0.54       0.6       -284.79E-9  4.        
 0.56       0.6       -288.57E-9  4.        
 0.58       0.6       -292.38E-9  4.        
 0.6        0.6       -296.23E-9  4.        
 0.62       0.6       -300.1E-9   4.        
 0.64       0.6       -304.03E-9  4.        
 0.66       0.6       -307.96E-9  4.        
 0.68       0.6       -311.95E-9  4.        
 0.7        0.6       -315.95E-9  4.        
 0.72       0.6       -320.E-9    4.        
 0.74       0.6       -324.09E-9  4.        
 0.76       0.6       -328.19E-9  4.        
 0.78       0.6       -332.37E-9  4.        
 0.8        0.6       -336.56E-9  4.        
 0.82       0.6       -340.79E-9  4.        
 0.84       0.6       -345.07E-9  4.        
 0.86       0.6       -349.38E-9  4.        
 0.88       0.6       -353.73E-9  4.        
 0.9        0.6       -358.11E-9  4.        
 0.92       0.6       -362.55E-9  4.        
 0.94       0.6       -367.03E-9  4.        
 0.96       0.6       -371.52E-9  4.        
 0.98       0.6       -376.11E-9  4.        
 1.         0.6       -380.68E-9  4.        
 1.02       0.6       -385.33E-9  4.        
 1.04       0.6       -389.99E-9  4.        
 1.06       0.6       -394.75E-9  4.        
 1.08       0.6       -399.52E-9  4.        
 1.1        0.6       -404.32E-9  4.        
 1.12       0.6       -409.19E-9  4.        
 1.14       0.6       -414.09E-9  4.        
 1.16       0.6       -419.07E-9  4.        
 1.18       0.6       -424.06E-9  4.        
 1.2        0.6       -429.09E-9  4.        
 0.         0.8        198.E-21   4.        
 0.02       0.8       -1.3263E-6  4.        
 0.04       0.8       -2.4123E-6  4.        
 0.06       0.8       -3.2655E-6  4.        
 0.08       0.8       -3.9174E-6  4.        
 0.1        0.8       -4.409E-6   4.        
 0.12       0.8       -4.7803E-6  4.        
 0.14       0.8       -5.0646E-6  4.        
 0.16       0.8       -5.2872E-6  4.        
 0.18       0.8       -5.4663E-6  4.        
 0.2        0.8       -5.6149E-6  4.        
 0.22       0.8       -5.7416E-6  4.        
 0.24       0.8       -5.8525E-6  4.        
 0.26       0.8       -5.9517E-6  4.        
 0.28       0.8       -6.0422E-6  4.        
 0.3        0.8       -6.126E-6   4.        
 0.32       0.8       -6.2046E-6  4.        
 0.34       0.8       -6.2791E-6  4.        
 0.36       0.8       -6.3501E-6  4.        
 0.38       0.8       -6.4184E-6  4.        
 0.4        0.8       -6.4844E-6  4.        
 0.42       0.8       -6.5484E-6  4.        
 0.44       0.8       -6.6108E-6  4.        
 0.46       0.8       -6.6718E-6  4.        
 0.48       0.8       -6.7314E-6  4.        
 0.5        0.8       -6.79E-6    4.        
 0.52       0.8       -6.8477E-6  4.        
 0.54       0.8       -6.9044E-6  4.        
 0.56       0.8       -6.9604E-6  4.        
 0.58       0.8       -7.0157E-6  4.        
 0.6        0.8       -7.0703E-6  4.        
 0.62       0.8       -7.1244E-6  4.        
 0.64       0.8       -7.1779E-6  4.        
 0.66       0.8       -7.231E-6   4.        
 0.68       0.8       -7.2836E-6  4.        
 0.7        0.8       -7.3359E-6  4.        
 0.72       0.8       -7.3878E-6  4.        
 0.74       0.8       -7.4393E-6  4.        
 0.76       0.8       -7.4905E-6  4.        
 0.78       0.8       -7.5415E-6  4.        
 0.8        0.8       -7.5921E-6  4.        
 0.82       0.8       -7.6426E-6  4.        
 0.84       0.8       -7.6928E-6  4.        
 0.86       0.8       -7.7427E-6  4.        
 0.88       0.8       -7.7925E-6  4.        
 0.9        0.8       -7.8421E-6  4.        
 0.92       0.8       -7.8916E-6  4.        
 0.94       0.8       -7.9408E-6  4.        
 0.96       0.8       -7.99E-6    4.        
 0.98       0.8       -8.039E-6   4.        
 1.         0.8       -8.0879E-6  4.        
 1.02       0.8       -8.1366E-6  4.        
 1.04       0.8       -8.1852E-6  4.        
 1.06       0.8       -8.2338E-6  4.        
 1.08       0.8       -8.2822E-6  4.        
 1.1        0.8       -8.3306E-6  4.        
 1.12       0.8       -8.3789E-6  4.        
 1.14       0.8       -8.4271E-6  4.        
 1.16       0.8       -8.4753E-6  4.        
 1.18       0.8       -8.5234E-6  4.        
 1.2        0.8       -8.5714E-6  4.        
 0.         1.         22.06E-18  4.        
 0.02       1.        -3.1169E-6  4.        
 0.04       1.        -5.9715E-6  4.        
 0.06       1.        -8.5417E-6  4.        
 0.08       1.        -10.823E-6  4.        
 0.1        1.        -12.823E-6  4.        
 0.12       1.        -14.562E-6  4.        
 0.14       1.        -16.065E-6  4.        
 0.16       1.        -17.359E-6  4.        
 0.18       1.        -18.473E-6  4.        
 0.2        1.        -19.433E-6  4.        
 0.22       1.        -20.262E-6  4.        
 0.24       1.        -20.982E-6  4.        
 0.26       1.        -21.611E-6  4.        
 0.28       1.        -22.163E-6  4.        
 0.3        1.        -22.652E-6  4.        
 0.32       1.        -23.088E-6  4.        
 0.34       1.        -23.48E-6   4.        
 0.36       1.        -23.835E-6  4.        
 0.38       1.        -24.158E-6  4.        
 0.4        1.        -24.456E-6  4.        
 0.42       1.        -24.731E-6  4.        
 0.44       1.        -24.987E-6  4.        
 0.46       1.        -25.227E-6  4.        
 0.48       1.        -25.453E-6  4.        
 0.5        1.        -25.667E-6  4.        
 0.52       1.        -25.87E-6   4.        
 0.54       1.        -26.064E-6  4.        
 0.56       1.        -26.249E-6  4.        
 0.58       1.        -26.428E-6  4.        
 0.6        1.        -26.6E-6    4.        
 0.62       1.        -26.767E-6  4.        
 0.64       1.        -26.928E-6  4.        
 0.66       1.        -27.085E-6  4.        
 0.68       1.        -27.237E-6  4.        
 0.7        1.        -27.386E-6  4.        
 0.72       1.        -27.531E-6  4.        
 0.74       1.        -27.674E-6  4.        
 0.76       1.        -27.813E-6  4.        
 0.78       1.        -27.95E-6   4.        
 0.8        1.        -28.084E-6  4.        
 0.82       1.        -28.216E-6  4.        
 0.84       1.        -28.346E-6  4.        
 0.86       1.        -28.475E-6  4.        
 0.88       1.        -28.601E-6  4.        
 0.9        1.        -28.726E-6  4.        
 0.92       1.        -28.849E-6  4.        
 0.94       1.        -28.97E-6   4.        
 0.96       1.        -29.091E-6  4.        
 0.98       1.        -29.21E-6   4.        
 1.         1.        -29.327E-6  4.        
 1.02       1.        -29.444E-6  4.        
 1.04       1.        -29.56E-6   4.        
 1.06       1.        -29.674E-6  4.        
 1.08       1.        -29.788E-6  4.        
 1.1        1.        -29.9E-6    4.        
 1.12       1.        -30.012E-6  4.        
 1.14       1.        -30.123E-6  4.        
 1.16       1.        -30.233E-6  4.        
 1.18       1.        -30.343E-6  4.        
 1.2        1.        -30.451E-6  4.        
 0.         1.2        66.67E-18  4.        
 0.02       1.2       -4.8864E-6  4.        
 0.04       1.2       -9.5241E-6  4.        
 0.06       1.2       -13.885E-6  4.        
 0.08       1.2       -17.95E-6   4.        
 0.1        1.2       -21.712E-6  4.        
 0.12       1.2       -25.169E-6  4.        
 0.14       1.2       -28.329E-6  4.        
 0.16       1.2       -31.204E-6  4.        
 0.18       1.2       -33.811E-6  4.        
 0.2        1.2       -36.168E-6  4.        
 0.22       1.2       -38.295E-6  4.        
 0.24       1.2       -40.212E-6  4.        
 0.26       1.2       -41.939E-6  4.        
 0.28       1.2       -43.497E-6  4.        
 0.3        1.2       -44.901E-6  4.        
 0.32       1.2       -46.171E-6  4.        
 0.34       1.2       -47.32E-6   4.        
 0.36       1.2       -48.362E-6  4.        
 0.38       1.2       -49.311E-6  4.        
 0.4        1.2       -50.176E-6  4.        
 0.42       1.2       -50.968E-6  4.        
 0.44       1.2       -51.696E-6  4.        
 0.46       1.2       -52.366E-6  4.        
 0.48       1.2       -52.986E-6  4.        
 0.5        1.2       -53.562E-6  4.        
 0.52       1.2       -54.097E-6  4.        
 0.54       1.2       -54.598E-6  4.        
 0.56       1.2       -55.068E-6  4.        
 0.58       1.2       -55.51E-6   4.        
 0.6        1.2       -55.927E-6  4.        
 0.62       1.2       -56.321E-6  4.        
 0.64       1.2       -56.696E-6  4.        
 0.66       1.2       -57.053E-6  4.        
 0.68       1.2       -57.393E-6  4.        
 0.7        1.2       -57.72E-6   4.        
 0.72       1.2       -58.032E-6  4.        
 0.74       1.2       -58.333E-6  4.        
 0.76       1.2       -58.623E-6  4.        
 0.78       1.2       -58.903E-6  4.        
 0.8        1.2       -59.173E-6  4.        
 0.82       1.2       -59.436E-6  4.        
 0.84       1.2       -59.69E-6   4.        
 0.86       1.2       -59.938E-6  4.        
 0.88       1.2       -60.179E-6  4.        
 0.9        1.2       -60.414E-6  4.        
 0.92       1.2       -60.643E-6  4.        
 0.94       1.2       -60.868E-6  4.        
 0.96       1.2       -61.087E-6  4.        
 0.98       1.2       -61.302E-6  4.        
 1.         1.2       -61.513E-6  4.        
 1.02       1.2       -61.719E-6  4.        
 1.04       1.2       -61.922E-6  4.        
 1.06       1.2       -62.122E-6  4.        
 1.08       1.2       -62.319E-6  4.        
 1.1        1.2       -62.512E-6  4.        
 1.12       1.2       -62.702E-6  4.        
 1.14       1.2       -62.89E-6   4.        
 1.16       1.2       -63.076E-6  4.        
 1.18       1.2       -63.258E-6  4.        
 1.2        1.2       -63.439E-6  4.        
Gnucap   System status
iterations: op=0, dc=1464, tran=0, fourier=0, total=1464
transient timesteps: accepted=0, rejected=0, total=0
nodes: user=2, subckt=0, model=15, total=17
dctran density=40.8%, ac density=40.8%
