#           v(out)     i(tb.vdd_src) iter(0)   
open circuit: internal node 32
 0.         1.2        0.         29.       
 0.02       1.2        0.         23.       
 0.04       1.2        0.         32.       
 0.06       1.2        0.         18.       
 0.08       1.2        0.         4.        
 0.1        1.2        0.         20.       
 0.12       1.2        0.         24.       
 0.14       1.2        0.         26.       
 0.16       1.2        0.         51.       
 0.18       1.2        0.         5.        
 0.2        1.2        0.         25.       
 0.22       1.2        0.         28.       
 0.24       1.2        0.         25.       
 0.26       1.2        0.         5.        
 0.28       1.2        0.         19.       
 0.3        1.2        0.         13.       
 0.32       1.2        0.         8.        
 0.34       1.2        0.         8.        
 0.36       1.2        0.         8.        
 0.38       1.1999     0.         5.        
 0.4        1.1999     0.         5.        
 0.42       1.1998     0.         5.        
 0.44       1.1995    -15.454E-9  5.        
 0.46       1.199     -27.067E-9  5.        
 0.48       1.1979    -47.221E-9  5.        
 0.5        1.1956    -81.505E-9  6.        
 0.52       1.1904    -138.52E-9  6.        
 0.54       1.1768    -229.16E-9  6.        
 0.56       1.0584    -348.65E-9  8.        
 0.58       0.072209  -287.04E-9  11.       
 0.6        0.017648  -194.54E-9  9.        
 0.62       0.0075112 -127.15E-9  6.        
 0.64       0.0035179 -80.836E-9  6.        
 0.66       0.0017119 -50.219E-9  6.        
 0.68       851.53E-6 -30.675E-9  5.        
 0.7        430.62E-6 -18.539E-9  5.        
 0.72       220.93E-6  0.         5.        
 0.74       114.85E-6  0.         5.        
 0.76       60.447E-6  0.         5.        
 0.78       32.173E-6  0.         5.        
 0.8        17.303E-6  0.         5.        
 0.82       9.3943E-6  0.         5.        
 0.84       5.1456E-6  0.         5.        
 0.86       2.8419E-6  0.         5.        
 0.88       1.5822E-6  0.         5.        
 0.9        888.17E-9  0.         5.        
 0.92       502.99E-9  0.         5.        
 0.94       287.8E-9   0.         5.        
 0.96       166.81E-9  0.         5.        
 0.98       98.351E-9  0.         5.        
 1.         59.37E-9   0.         5.        
 1.02       37.021E-9  0.         5.        
 1.04       24.107E-9  0.         5.        
 1.06       16.575E-9  0.         4.        
 1.08       12.13E-9   0.         4.        
 1.1        9.4657E-9  0.         4.        
 1.12       7.8342E-9  0.         4.        
 1.14       6.8067E-9  0.         4.        
 1.16       6.1355E-9  0.         4.        
 1.18       5.6768E-9  0.         4.        
 1.2        5.3467E-9  0.         4.        
Gnucap   System status
iterations: op=0, dc=592, tran=0, fourier=0, total=592
transient timesteps: accepted=0, rejected=0, total=0
nodes: user=2, subckt=1, model=30, total=33
dctran density=26.8%, ac density=26.8%
