#           v(g)       i(tb.sd)   iter(0)   
 0.        -0.2        0.         4.        
-0.02      -0.2        0.         4.        
-0.04      -0.2        0.         4.        
-0.06      -0.2        0.         4.        
-0.08      -0.2        0.         4.        
-0.1       -0.2        0.         4.        
-0.12      -0.2        0.         4.        
-0.14      -0.2        0.         4.        
-0.16      -0.2        0.         4.        
-0.18      -0.2        0.         4.        
-0.2       -0.2        0.         4.        
-0.22      -0.2        0.         4.        
-0.24      -0.2        0.         4.        
-0.26      -0.2        0.         4.        
-0.28      -0.2        0.         4.        
-0.3       -0.2        0.         4.        
-0.32      -0.2        0.         4.        
-0.34      -0.2        0.         4.        
-0.36      -0.2        0.         4.        
-0.38      -0.2        0.         4.        
-0.4       -0.2        0.         4.        
-0.42      -0.2        0.         4.        
-0.44      -0.2        0.         4.        
-0.46      -0.2        0.         4.        
-0.48      -0.2        0.         4.        
-0.5       -0.2        0.         4.        
-0.52      -0.2        0.         4.        
-0.54      -0.2        0.         4.        
-0.56      -0.2        0.         4.        
-0.58      -0.2        0.         4.        
-0.6       -0.2        0.         4.        
-0.62      -0.2        0.         4.        
-0.64      -0.2        0.         4.        
-0.66      -0.2        0.         4.        
-0.68      -0.2        0.         4.        
-0.7       -0.2        0.         4.        
-0.72      -0.2        0.         4.        
-0.74      -0.2        0.         4.        
-0.76      -0.2        0.         4.        
-0.78      -0.2        0.         4.        
-0.8       -0.2        0.         4.        
-0.82      -0.2        0.         4.        
-0.84      -0.2        0.         4.        
-0.86      -0.2        0.         4.        
-0.88      -0.2        0.         4.        
-0.9       -0.2        0.         4.        
-0.92      -0.2        0.         4.        
-0.94      -0.2        0.         4.        
-0.96      -0.2        0.         4.        
-0.98      -0.2        0.         4.        
-1.        -0.2        0.         4.        
-1.02      -0.2        0.         4.        
-1.04      -0.2        0.         4.        
-1.06      -0.2        0.         4.        
-1.08      -0.2        0.         4.        
-1.1       -0.2        0.         4.        
-1.12      -0.2        0.         4.        
-1.14      -0.2        0.         4.        
-1.16      -0.2        0.         4.        
-1.18      -0.2        0.         4.        
-1.2       -0.2        0.         4.        
 0.        -0.4        0.         4.        
-0.02      -0.4        1.0139E-9  4.        
-0.04      -0.4        1.4606E-9  4.        
-0.06      -0.4        1.6626E-9  4.        
-0.08      -0.4        1.7626E-9  4.        
-0.1       -0.4        1.8208E-9  4.        
-0.12      -0.4        1.8572E-9  4.        
-0.14      -0.4        1.8845E-9  4.        
-0.16      -0.4        1.9063E-9  4.        
-0.18      -0.4        1.9245E-9  4.        
-0.2       -0.4        0.         4.        
-0.22      -0.4        0.         4.        
-0.24      -0.4        0.         4.        
-0.26      -0.4        0.         4.        
-0.28      -0.4        0.         4.        
-0.3       -0.4        0.         4.        
-0.32      -0.4        0.         4.        
-0.34      -0.4        0.         4.        
-0.36      -0.4        0.         4.        
-0.38      -0.4        0.         4.        
-0.4       -0.4        0.         4.        
-0.42      -0.4        0.         4.        
-0.44      -0.4        0.         4.        
-0.46      -0.4        0.         4.        
-0.48      -0.4        0.         4.        
-0.5       -0.4        0.         4.        
-0.52      -0.4        0.         4.        
-0.54      -0.4        0.         4.        
-0.56      -0.4        0.         4.        
-0.58      -0.4        0.         4.        
-0.6       -0.4        0.         4.        
-0.62      -0.4        0.         4.        
-0.64      -0.4        0.         4.        
-0.66      -0.4        0.         4.        
-0.68      -0.4        0.         4.        
-0.7       -0.4        0.         4.        
-0.72      -0.4        0.         4.        
-0.74      -0.4        0.         4.        
-0.76      -0.4        0.         4.        
-0.78      -0.4        0.         4.        
-0.8       -0.4        0.         4.        
-0.82      -0.4        0.         4.        
-0.84      -0.4        0.         4.        
-0.86      -0.4        0.         4.        
-0.88      -0.4        0.         4.        
-0.9       -0.4        0.         4.        
-0.92      -0.4        0.         4.        
-0.94      -0.4        0.         4.        
-0.96      -0.4        0.         4.        
-0.98      -0.4        0.         4.        
-1.        -0.4        0.         4.        
-1.02      -0.4        0.         4.        
-1.04      -0.4        0.         4.        
-1.06      -0.4        0.         4.        
-1.08      -0.4        0.         4.        
-1.1       -0.4        0.         4.        
-1.12      -0.4        0.         4.        
-1.14      -0.4        0.         4.        
-1.16      -0.4        0.         4.        
-1.18      -0.4        0.         4.        
-1.2       -0.4        0.         4.        
 0.        -0.6       -1.E-21     4.        
-0.02      -0.6        76.947E-9  4.        
-0.04      -0.6        123.81E-9  4.        
-0.06      -0.6        150.13E-9  4.        
-0.08      -0.6        164.69E-9  4.        
-0.1       -0.6        173.06E-9  4.        
-0.12      -0.6        178.23E-9  4.        
-0.14      -0.6        181.72E-9  4.        
-0.16      -0.6        184.26E-9  4.        
-0.18      -0.6        186.26E-9  4.        
-0.2       -0.6        187.92E-9  4.        
-0.22      -0.6        189.36E-9  4.        
-0.24      -0.6        190.66E-9  4.        
-0.26      -0.6        191.87E-9  4.        
-0.28      -0.6        193.E-9    4.        
-0.3       -0.6        194.08E-9  4.        
-0.32      -0.6        195.12E-9  4.        
-0.34      -0.6        196.12E-9  4.        
-0.36      -0.6        197.11E-9  4.        
-0.38      -0.6        198.09E-9  4.        
-0.4       -0.6        199.05E-9  4.        
-0.42      -0.6        199.99E-9  4.        
-0.44      -0.6        200.93E-9  4.        
-0.46      -0.6        201.87E-9  4.        
-0.48      -0.6        202.8E-9   4.        
-0.5       -0.6        203.71E-9  4.        
-0.52      -0.6        204.64E-9  4.        
-0.54      -0.6        205.55E-9  4.        
-0.56      -0.6        206.46E-9  4.        
-0.58      -0.6        207.38E-9  4.        
-0.6       -0.6        208.29E-9  4.        
-0.62      -0.6        209.2E-9   4.        
-0.64      -0.6        210.11E-9  4.        
-0.66      -0.6        211.03E-9  4.        
-0.68      -0.6        211.93E-9  4.        
-0.7       -0.6        212.84E-9  4.        
-0.72      -0.6        213.77E-9  4.        
-0.74      -0.6        214.67E-9  4.        
-0.76      -0.6        215.6E-9   4.        
-0.78      -0.6        216.5E-9   4.        
-0.8       -0.6        217.42E-9  4.        
-0.82      -0.6        218.34E-9  4.        
-0.84      -0.6        219.25E-9  4.        
-0.86      -0.6        220.19E-9  4.        
-0.88      -0.6        221.12E-9  4.        
-0.9       -0.6        222.05E-9  4.        
-0.92      -0.6        222.96E-9  4.        
-0.94      -0.6        223.88E-9  4.        
-0.96      -0.6        224.81E-9  4.        
-0.98      -0.6        225.76E-9  4.        
-1.        -0.6        226.69E-9  4.        
-1.02      -0.6        227.62E-9  4.        
-1.04      -0.6        228.57E-9  4.        
-1.06      -0.6        229.5E-9   4.        
-1.08      -0.6        230.46E-9  4.        
-1.1       -0.6        231.38E-9  4.        
-1.12      -0.6        232.34E-9  4.        
-1.14      -0.6        233.28E-9  4.        
-1.16      -0.6        234.23E-9  4.        
-1.18      -0.6        235.19E-9  4.        
-1.2       -0.6        236.13E-9  4.        
 0.        -0.8       -107.E-21   4.        
-0.02      -0.8        410.94E-9  4.        
-0.04      -0.8        753.62E-9  4.        
-0.06      -0.8        1.0288E-6  4.        
-0.08      -0.8        1.2432E-6  4.        
-0.1       -0.8        1.4062E-6  4.        
-0.12      -0.8        1.5286E-6  4.        
-0.14      -0.8        1.6199E-6  4.        
-0.16      -0.8        1.6883E-6  4.        
-0.18      -0.8        1.7398E-6  4.        
-0.2       -0.8        1.7793E-6  4.        
-0.22      -0.8        1.8101E-6  4.        
-0.24      -0.8        1.8346E-6  4.        
-0.26      -0.8        1.8545E-6  4.        
-0.28      -0.8        1.871E-6   4.        
-0.3       -0.8        1.885E-6   4.        
-0.32      -0.8        1.8971E-6  4.        
-0.34      -0.8        1.9078E-6  4.        
-0.36      -0.8        1.9173E-6  4.        
-0.38      -0.8        1.926E-6   4.        
-0.4       -0.8        1.934E-6   4.        
-0.42      -0.8        1.9414E-6  4.        
-0.44      -0.8        1.9483E-6  4.        
-0.46      -0.8        1.9549E-6  4.        
-0.48      -0.8        1.9612E-6  4.        
-0.5       -0.8        1.9672E-6  4.        
-0.52      -0.8        1.9731E-6  4.        
-0.54      -0.8        1.9787E-6  4.        
-0.56      -0.8        1.9842E-6  4.        
-0.58      -0.8        1.9895E-6  4.        
-0.6       -0.8        1.9947E-6  4.        
-0.62      -0.8        1.9999E-6  4.        
-0.64      -0.8        2.0049E-6  4.        
-0.66      -0.8        2.0099E-6  4.        
-0.68      -0.8        2.0147E-6  4.        
-0.7       -0.8        2.0196E-6  4.        
-0.72      -0.8        2.0244E-6  4.        
-0.74      -0.8        2.0291E-6  4.        
-0.76      -0.8        2.0338E-6  4.        
-0.78      -0.8        2.0384E-6  4.        
-0.8       -0.8        2.0431E-6  4.        
-0.82      -0.8        2.0477E-6  4.        
-0.84      -0.8        2.0522E-6  4.        
-0.86      -0.8        2.0567E-6  4.        
-0.88      -0.8        2.0613E-6  4.        
-0.9       -0.8        2.0658E-6  4.        
-0.92      -0.8        2.0702E-6  4.        
-0.94      -0.8        2.0747E-6  4.        
-0.96      -0.8        2.0791E-6  4.        
-0.98      -0.8        2.0836E-6  4.        
-1.        -0.8        2.088E-6   4.        
-1.02      -0.8        2.0924E-6  4.        
-1.04      -0.8        2.0968E-6  4.        
-1.06      -0.8        2.1012E-6  4.        
-1.08      -0.8        2.1055E-6  4.        
-1.1       -0.8        2.1099E-6  4.        
-1.12      -0.8        2.1143E-6  4.        
-1.14      -0.8        2.1186E-6  4.        
-1.16      -0.8        2.1229E-6  4.        
-1.18      -0.8        2.1273E-6  4.        
-1.2       -0.8        2.1316E-6  4.        
 0.        -1.        -2.385E-18  4.        
-0.02      -1.         854.56E-9  4.        
-0.04      -1.         1.6323E-6  4.        
-0.06      -1.         2.3287E-6  4.        
-0.08      -1.         2.9432E-6  4.        
-0.1       -1.         3.4781E-6  4.        
-0.12      -1.         3.9383E-6  4.        
-0.14      -1.         4.3306E-6  4.        
-0.16      -1.         4.6624E-6  4.        
-0.18      -1.         4.9417E-6  4.        
-0.2       -1.         5.1761E-6  4.        
-0.22      -1.         5.3725E-6  4.        
-0.24      -1.         5.5372E-6  4.        
-0.26      -1.         5.6756E-6  4.        
-0.28      -1.         5.7923E-6  4.        
-0.3       -1.         5.8911E-6  4.        
-0.32      -1.         5.9753E-6  4.        
-0.34      -1.         6.0475E-6  4.        
-0.36      -1.         6.1097E-6  4.        
-0.38      -1.         6.1639E-6  4.        
-0.4       -1.         6.2113E-6  4.        
-0.42      -1.         6.2532E-6  4.        
-0.44      -1.         6.2904E-6  4.        
-0.46      -1.         6.3238E-6  4.        
-0.48      -1.         6.354E-6   4.        
-0.5       -1.         6.3814E-6  4.        
-0.52      -1.         6.4066E-6  4.        
-0.54      -1.         6.4297E-6  4.        
-0.56      -1.         6.4512E-6  4.        
-0.58      -1.         6.4713E-6  4.        
-0.6       -1.         6.4902E-6  4.        
-0.62      -1.         6.508E-6   4.        
-0.64      -1.         6.5248E-6  4.        
-0.66      -1.         6.5409E-6  4.        
-0.68      -1.         6.5562E-6  4.        
-0.7       -1.         6.571E-6   4.        
-0.72      -1.         6.5852E-6  4.        
-0.74      -1.         6.5989E-6  4.        
-0.76      -1.         6.6122E-6  4.        
-0.78      -1.         6.6251E-6  4.        
-0.8       -1.         6.6376E-6  4.        
-0.82      -1.         6.6498E-6  4.        
-0.84      -1.         6.6618E-6  4.        
-0.86      -1.         6.6735E-6  4.        
-0.88      -1.         6.685E-6   4.        
-0.9       -1.         6.6963E-6  4.        
-0.92      -1.         6.7074E-6  4.        
-0.94      -1.         6.7183E-6  4.        
-0.96      -1.         6.7291E-6  4.        
-0.98      -1.         6.7397E-6  4.        
-1.        -1.         6.7502E-6  4.        
-1.02      -1.         6.7606E-6  4.        
-1.04      -1.         6.7709E-6  4.        
-1.06      -1.         6.7811E-6  4.        
-1.08      -1.         6.7911E-6  4.        
-1.1       -1.         6.8011E-6  4.        
-1.12      -1.         6.811E-6   4.        
-1.14      -1.         6.8208E-6  4.        
-1.16      -1.         6.8306E-6  4.        
-1.18      -1.         6.8403E-6  4.        
-1.2       -1.         6.8499E-6  4.        
 0.        -1.2       -6.73E-18   4.        
-0.02      -1.2        1.3031E-6  4.        
-0.04      -1.2        2.5321E-6  4.        
-0.06      -1.2        3.6815E-6  4.        
-0.08      -1.2        4.7477E-6  4.        
-0.1       -1.2        5.7292E-6  4.        
-0.12      -1.2        6.626E-6   4.        
-0.14      -1.2        7.4401E-6  4.        
-0.16      -1.2        8.1746E-6  4.        
-0.18      -1.2        8.8341E-6  4.        
-0.2       -1.2        9.4234E-6  4.        
-0.22      -1.2        9.9484E-6  4.        
-0.24      -1.2        10.415E-6  4.        
-0.26      -1.2        10.828E-6  4.        
-0.28      -1.2        11.194E-6  4.        
-0.3       -1.2        11.517E-6  4.        
-0.32      -1.2        11.804E-6  4.        
-0.34      -1.2        12.057E-6  4.        
-0.36      -1.2        12.282E-6  4.        
-0.38      -1.2        12.482E-6  4.        
-0.4       -1.2        12.659E-6  4.        
-0.42      -1.2        12.817E-6  4.        
-0.44      -1.2        12.959E-6  4.        
-0.46      -1.2        13.085E-6  4.        
-0.48      -1.2        13.199E-6  4.        
-0.5       -1.2        13.302E-6  4.        
-0.52      -1.2        13.395E-6  4.        
-0.54      -1.2        13.48E-6   4.        
-0.56      -1.2        13.557E-6  4.        
-0.58      -1.2        13.627E-6  4.        
-0.6       -1.2        13.692E-6  4.        
-0.62      -1.2        13.752E-6  4.        
-0.64      -1.2        13.807E-6  4.        
-0.66      -1.2        13.858E-6  4.        
-0.68      -1.2        13.906E-6  4.        
-0.7       -1.2        13.951E-6  4.        
-0.72      -1.2        13.993E-6  4.        
-0.74      -1.2        14.032E-6  4.        
-0.76      -1.2        14.069E-6  4.        
-0.78      -1.2        14.104E-6  4.        
-0.8       -1.2        14.138E-6  4.        
-0.82      -1.2        14.17E-6   4.        
-0.84      -1.2        14.2E-6    4.        
-0.86      -1.2        14.229E-6  4.        
-0.88      -1.2        14.257E-6  4.        
-0.9       -1.2        14.284E-6  4.        
-0.92      -1.2        14.31E-6   4.        
-0.94      -1.2        14.335E-6  4.        
-0.96      -1.2        14.359E-6  4.        
-0.98      -1.2        14.383E-6  4.        
-1.        -1.2        14.406E-6  4.        
-1.02      -1.2        14.428E-6  4.        
-1.04      -1.2        14.45E-6   4.        
-1.06      -1.2        14.471E-6  4.        
-1.08      -1.2        14.492E-6  4.        
-1.1       -1.2        14.512E-6  4.        
-1.12      -1.2        14.532E-6  4.        
-1.14      -1.2        14.551E-6  4.        
-1.16      -1.2        14.57E-6   4.        
-1.18      -1.2        14.589E-6  4.        
-1.2       -1.2        14.607E-6  4.        
Gnucap   System status
iterations: op=0, dc=1464, tran=0, fourier=0, total=1464
transient timesteps: accepted=0, rejected=0, total=0
nodes: user=2, subckt=0, model=33, total=35
dctran density=60.1%, ac density=60.1%
