#           v(g)       i(tb.sd)   iter(0)   
 0.        -0.2        0.         4.        
-0.02      -0.2        0.         4.        
-0.04      -0.2        0.         4.        
-0.06      -0.2        0.         4.        
-0.08      -0.2        0.         4.        
-0.1       -0.2        0.         4.        
-0.12      -0.2        0.         4.        
-0.14      -0.2        0.         4.        
-0.16      -0.2        0.         4.        
-0.18      -0.2        0.         4.        
-0.2       -0.2        0.         4.        
-0.22      -0.2        0.         4.        
-0.24      -0.2        0.         4.        
-0.26      -0.2        0.         4.        
-0.28      -0.2        0.         4.        
-0.3       -0.2        0.         4.        
-0.32      -0.2        0.         4.        
-0.34      -0.2        0.         4.        
-0.36      -0.2        0.         4.        
-0.38      -0.2        0.         4.        
-0.4       -0.2        0.         4.        
-0.42      -0.2        0.         4.        
-0.44      -0.2        0.         4.        
-0.46      -0.2        0.         4.        
-0.48      -0.2        0.         4.        
-0.5       -0.2        0.         4.        
-0.52      -0.2        0.         4.        
-0.54      -0.2        0.         4.        
-0.56      -0.2        0.         4.        
-0.58      -0.2        0.         4.        
-0.6       -0.2        0.         4.        
-0.62      -0.2        0.         4.        
-0.64      -0.2        0.         4.        
-0.66      -0.2        0.         4.        
-0.68      -0.2        0.         4.        
-0.7       -0.2        0.         4.        
-0.72      -0.2        0.         4.        
-0.74      -0.2        0.         4.        
-0.76      -0.2        0.         4.        
-0.78      -0.2        0.         4.        
-0.8       -0.2        0.         4.        
-0.82      -0.2        0.         4.        
-0.84      -0.2        0.         4.        
-0.86      -0.2        0.         4.        
-0.88      -0.2        0.         4.        
-0.9       -0.2        0.         4.        
-0.92      -0.2        0.         4.        
-0.94      -0.2        0.         4.        
-0.96      -0.2        0.         4.        
-0.98      -0.2        0.         4.        
-1.        -0.2        0.         4.        
-1.02      -0.2        0.         4.        
-1.04      -0.2        0.         4.        
-1.06      -0.2        0.         4.        
-1.08      -0.2        0.         4.        
-1.1       -0.2        0.         4.        
-1.12      -0.2        0.         4.        
-1.14      -0.2        0.         4.        
-1.16      -0.2        0.         4.        
-1.18      -0.2        0.         4.        
-1.2       -0.2        0.         4.        
 0.        -0.4        0.         4.        
-0.02      -0.4        2.0275E-9  4.        
-0.04      -0.4        2.9222E-9  4.        
-0.06      -0.4        3.3269E-9  4.        
-0.08      -0.4        3.5279E-9  4.        
-0.1       -0.4        3.6416E-9  4.        
-0.12      -0.4        3.7162E-9  4.        
-0.14      -0.4        3.7708E-9  4.        
-0.16      -0.4        3.8162E-9  4.        
-0.18      -0.4        3.8526E-9  4.        
-0.2       -0.4        3.889E-9   4.        
-0.22      -0.4        3.9181E-9  4.        
-0.24      -0.4        3.9545E-9  4.        
-0.26      -0.4        3.9799E-9  4.        
-0.28      -0.4        4.0091E-9  4.        
-0.3       -0.4        4.0382E-9  4.        
-0.32      -0.4        4.0636E-9  4.        
-0.34      -0.4        4.0964E-9  4.        
-0.36      -0.4        4.1327E-9  4.        
-0.38      -0.4        4.1473E-9  4.        
-0.4       -0.4        4.1764E-9  4.        
-0.42      -0.4        4.2055E-9  4.        
-0.44      -0.4        0.         4.        
-0.46      -0.4        0.         4.        
-0.48      -0.4        0.         4.        
-0.5       -0.4        0.         4.        
-0.52      -0.4        0.         4.        
-0.54      -0.4        0.         4.        
-0.56      -0.4        0.         4.        
-0.58      -0.4        0.         4.        
-0.6       -0.4        0.         4.        
-0.62      -0.4        0.         4.        
-0.64      -0.4        0.         4.        
-0.66      -0.4        0.         4.        
-0.68      -0.4        0.         4.        
-0.7       -0.4        0.         4.        
-0.72      -0.4        0.         4.        
-0.74      -0.4        0.         4.        
-0.76      -0.4        0.         4.        
-0.78      -0.4        0.         4.        
-0.8       -0.4        0.         4.        
-0.82      -0.4        0.         4.        
-0.84      -0.4        0.         4.        
-0.86      -0.4        0.         4.        
-0.88      -0.4        0.         4.        
-0.9       -0.4        0.         4.        
-0.92      -0.4        0.         4.        
-0.94      -0.4        0.         4.        
-0.96      -0.4        0.         4.        
-0.98      -0.4        0.         4.        
-1.        -0.4        0.         4.        
-1.02      -0.4        0.         4.        
-1.04      -0.4        0.         4.        
-1.06      -0.4        0.         4.        
-1.08      -0.4        0.         4.        
-1.1       -0.4        0.         4.        
-1.12      -0.4        0.         4.        
-1.14      -0.4        0.         4.        
-1.16      -0.4        0.         4.        
-1.18      -0.4        0.         4.        
-1.2       -0.4        0.         4.        
 0.        -0.6       -8.E-21     4.        
-0.02      -0.6        153.9E-9   4.        
-0.04      -0.6        247.64E-9  4.        
-0.06      -0.6        300.29E-9  4.        
-0.08      -0.6        329.41E-9  4.        
-0.1       -0.6        346.16E-9  4.        
-0.12      -0.6        356.52E-9  4.        
-0.14      -0.6        363.5E-9   4.        
-0.16      -0.6        368.6E-9   4.        
-0.18      -0.6        372.6E-9   4.        
-0.2       -0.6        375.93E-9  4.        
-0.22      -0.6        378.82E-9  4.        
-0.24      -0.6        381.43E-9  4.        
-0.26      -0.6        383.84E-9  4.        
-0.28      -0.6        386.11E-9  4.        
-0.3       -0.6        388.28E-9  4.        
-0.32      -0.6        390.37E-9  4.        
-0.34      -0.6        392.4E-9   4.        
-0.36      -0.6        394.39E-9  4.        
-0.38      -0.6        396.34E-9  4.        
-0.4       -0.6        398.26E-9  4.        
-0.42      -0.6        400.17E-9  4.        
-0.44      -0.6        402.05E-9  4.        
-0.46      -0.6        403.93E-9  4.        
-0.48      -0.6        405.79E-9  4.        
-0.5       -0.6        407.64E-9  4.        
-0.52      -0.6        409.49E-9  4.        
-0.54      -0.6        411.33E-9  4.        
-0.56      -0.6        413.17E-9  4.        
-0.58      -0.6        415.01E-9  4.        
-0.6       -0.6        416.85E-9  4.        
-0.62      -0.6        418.68E-9  4.        
-0.64      -0.6        420.51E-9  4.        
-0.66      -0.6        422.34E-9  4.        
-0.68      -0.6        424.16E-9  4.        
-0.7       -0.6        426.02E-9  4.        
-0.72      -0.6        427.84E-9  4.        
-0.74      -0.6        429.67E-9  4.        
-0.76      -0.6        431.49E-9  4.        
-0.78      -0.6        433.34E-9  4.        
-0.8       -0.6        435.2E-9   4.        
-0.82      -0.6        437.05E-9  4.        
-0.84      -0.6        438.9E-9   4.        
-0.86      -0.6        440.75E-9  4.        
-0.88      -0.6        442.6E-9   4.        
-0.9       -0.6        444.46E-9  4.        
-0.92      -0.6        446.32E-9  4.        
-0.94      -0.6        448.21E-9  4.        
-0.96      -0.6        450.09E-9  4.        
-0.98      -0.6        451.95E-9  4.        
-1.        -0.6        453.82E-9  4.        
-1.02      -0.6        455.71E-9  4.        
-1.04      -0.6        457.58E-9  4.        
-1.06      -0.6        459.48E-9  4.        
-1.08      -0.6        461.38E-9  4.        
-1.1       -0.6        463.27E-9  4.        
-1.12      -0.6        465.17E-9  4.        
-1.14      -0.6        467.07E-9  4.        
-1.16      -0.6        468.99E-9  4.        
-1.18      -0.6        470.89E-9  4.        
-1.2       -0.6        472.82E-9  4.        
 0.        -0.8       -251.E-21   4.        
-0.02      -0.8        821.89E-9  4.        
-0.04      -0.8        1.5073E-6  4.        
-0.06      -0.8        2.0577E-6  4.        
-0.08      -0.8        2.4863E-6  4.        
-0.1       -0.8        2.8125E-6  4.        
-0.12      -0.8        3.0573E-6  4.        
-0.14      -0.8        3.2399E-6  4.        
-0.16      -0.8        3.3766E-6  4.        
-0.18      -0.8        3.4797E-6  4.        
-0.2       -0.8        3.5587E-6  4.        
-0.22      -0.8        3.6203E-6  4.        
-0.24      -0.8        3.6692E-6  4.        
-0.26      -0.8        3.709E-6   4.        
-0.28      -0.8        3.7421E-6  4.        
-0.3       -0.8        3.7701E-6  4.        
-0.32      -0.8        3.7944E-6  4.        
-0.34      -0.8        3.8157E-6  4.        
-0.36      -0.8        3.8348E-6  4.        
-0.38      -0.8        3.8521E-6  4.        
-0.4       -0.8        3.8681E-6  4.        
-0.42      -0.8        3.883E-6   4.        
-0.44      -0.8        3.8969E-6  4.        
-0.46      -0.8        3.9101E-6  4.        
-0.48      -0.8        3.9227E-6  4.        
-0.5       -0.8        3.9347E-6  4.        
-0.52      -0.8        3.9464E-6  4.        
-0.54      -0.8        3.9576E-6  4.        
-0.56      -0.8        3.9686E-6  4.        
-0.58      -0.8        3.9793E-6  4.        
-0.6       -0.8        3.9897E-6  4.        
-0.62      -0.8        4.E-6      4.        
-0.64      -0.8        4.0101E-6  4.        
-0.66      -0.8        4.02E-6    4.        
-0.68      -0.8        4.0298E-6  4.        
-0.7       -0.8        4.0395E-6  4.        
-0.72      -0.8        4.049E-6   4.        
-0.74      -0.8        4.0585E-6  4.        
-0.76      -0.8        4.0679E-6  4.        
-0.78      -0.8        4.0772E-6  4.        
-0.8       -0.8        4.0865E-6  4.        
-0.82      -0.8        4.0957E-6  4.        
-0.84      -0.8        4.1048E-6  4.        
-0.86      -0.8        4.1139E-6  4.        
-0.88      -0.8        4.1229E-6  4.        
-0.9       -0.8        4.1319E-6  4.        
-0.92      -0.8        4.1409E-6  4.        
-0.94      -0.8        4.1498E-6  4.        
-0.96      -0.8        4.1587E-6  4.        
-0.98      -0.8        4.1675E-6  4.        
-1.        -0.8        4.1764E-6  4.        
-1.02      -0.8        4.1852E-6  4.        
-1.04      -0.8        4.194E-6   4.        
-1.06      -0.8        4.2028E-6  4.        
-1.08      -0.8        4.2115E-6  4.        
-1.1       -0.8        4.2203E-6  4.        
-1.12      -0.8        4.229E-6   4.        
-1.14      -0.8        4.2377E-6  4.        
-1.16      -0.8        4.2464E-6  4.        
-1.18      -0.8        4.2551E-6  4.        
-1.2       -0.8        4.2638E-6  4.        
 0.        -1.        -3.073E-18  4.        
-0.02      -1.         1.7091E-6  4.        
-0.04      -1.         3.2645E-6  4.        
-0.06      -1.         4.6575E-6  4.        
-0.08      -1.         5.8864E-6  4.        
-0.1       -1.         6.9562E-6  4.        
-0.12      -1.         7.8767E-6  4.        
-0.14      -1.         8.6612E-6  4.        
-0.16      -1.         9.3249E-6  4.        
-0.18      -1.         9.8836E-6  4.        
-0.2       -1.         10.352E-6  4.        
-0.22      -1.         10.745E-6  4.        
-0.24      -1.         11.074E-6  4.        
-0.26      -1.         11.351E-6  4.        
-0.28      -1.         11.585E-6  4.        
-0.3       -1.         11.782E-6  4.        
-0.32      -1.         11.951E-6  4.        
-0.34      -1.         12.095E-6  4.        
-0.36      -1.         12.22E-6   4.        
-0.38      -1.         12.328E-6  4.        
-0.4       -1.         12.423E-6  4.        
-0.42      -1.         12.507E-6  4.        
-0.44      -1.         12.581E-6  4.        
-0.46      -1.         12.648E-6  4.        
-0.48      -1.         12.708E-6  4.        
-0.5       -1.         12.763E-6  4.        
-0.52      -1.         12.813E-6  4.        
-0.54      -1.         12.86E-6   4.        
-0.56      -1.         12.903E-6  4.        
-0.58      -1.         12.943E-6  4.        
-0.6       -1.         12.981E-6  4.        
-0.62      -1.         13.016E-6  4.        
-0.64      -1.         13.05E-6   4.        
-0.66      -1.         13.082E-6  4.        
-0.68      -1.         13.113E-6  4.        
-0.7       -1.         13.142E-6  4.        
-0.72      -1.         13.171E-6  4.        
-0.74      -1.         13.198E-6  4.        
-0.76      -1.         13.225E-6  4.        
-0.78      -1.         13.25E-6   4.        
-0.8       -1.         13.276E-6  4.        
-0.82      -1.         13.3E-6    4.        
-0.84      -1.         13.324E-6  4.        
-0.86      -1.         13.347E-6  4.        
-0.88      -1.         13.37E-6   4.        
-0.9       -1.         13.393E-6  4.        
-0.92      -1.         13.415E-6  4.        
-0.94      -1.         13.437E-6  4.        
-0.96      -1.         13.459E-6  4.        
-0.98      -1.         13.48E-6   4.        
-1.        -1.         13.501E-6  4.        
-1.02      -1.         13.522E-6  4.        
-1.04      -1.         13.542E-6  4.        
-1.06      -1.         13.563E-6  4.        
-1.08      -1.         13.583E-6  4.        
-1.1       -1.         13.603E-6  4.        
-1.12      -1.         13.623E-6  4.        
-1.14      -1.         13.642E-6  4.        
-1.16      -1.         13.662E-6  4.        
-1.18      -1.         13.681E-6  4.        
-1.2       -1.         13.7E-6    4.        
 0.        -1.2       -18.99E-18  4.        
-0.02      -1.2        2.6063E-6  4.        
-0.04      -1.2        5.0643E-6  4.        
-0.06      -1.2        7.363E-6   4.        
-0.08      -1.2        9.4955E-6  4.        
-0.1       -1.2        11.458E-6  4.        
-0.12      -1.2        13.252E-6  4.        
-0.14      -1.2        14.88E-6   4.        
-0.16      -1.2        16.349E-6  4.        
-0.18      -1.2        17.668E-6  4.        
-0.2       -1.2        18.847E-6  4.        
-0.22      -1.2        19.897E-6  4.        
-0.24      -1.2        20.829E-6  4.        
-0.26      -1.2        21.656E-6  4.        
-0.28      -1.2        22.387E-6  4.        
-0.3       -1.2        23.035E-6  4.        
-0.32      -1.2        23.608E-6  4.        
-0.34      -1.2        24.115E-6  4.        
-0.36      -1.2        24.564E-6  4.        
-0.38      -1.2        24.963E-6  4.        
-0.4       -1.2        25.318E-6  4.        
-0.42      -1.2        25.634E-6  4.        
-0.44      -1.2        25.917E-6  4.        
-0.46      -1.2        26.171E-6  4.        
-0.48      -1.2        26.399E-6  4.        
-0.5       -1.2        26.604E-6  4.        
-0.52      -1.2        26.79E-6   4.        
-0.54      -1.2        26.96E-6   4.        
-0.56      -1.2        27.114E-6  4.        
-0.58      -1.2        27.255E-6  4.        
-0.6       -1.2        27.384E-6  4.        
-0.62      -1.2        27.504E-6  4.        
-0.64      -1.2        27.614E-6  4.        
-0.66      -1.2        27.717E-6  4.        
-0.68      -1.2        27.812E-6  4.        
-0.7       -1.2        27.902E-6  4.        
-0.72      -1.2        27.985E-6  4.        
-0.74      -1.2        28.064E-6  4.        
-0.76      -1.2        28.139E-6  4.        
-0.78      -1.2        28.209E-6  4.        
-0.8       -1.2        28.276E-6  4.        
-0.82      -1.2        28.34E-6   4.        
-0.84      -1.2        28.401E-6  4.        
-0.86      -1.2        28.459E-6  4.        
-0.88      -1.2        28.515E-6  4.        
-0.9       -1.2        28.569E-6  4.        
-0.92      -1.2        28.621E-6  4.        
-0.94      -1.2        28.671E-6  4.        
-0.96      -1.2        28.719E-6  4.        
-0.98      -1.2        28.766E-6  4.        
-1.        -1.2        28.812E-6  4.        
-1.02      -1.2        28.857E-6  4.        
-1.04      -1.2        28.9E-6    4.        
-1.06      -1.2        28.942E-6  4.        
-1.08      -1.2        28.984E-6  4.        
-1.1       -1.2        29.024E-6  4.        
-1.12      -1.2        29.064E-6  4.        
-1.14      -1.2        29.102E-6  4.        
-1.16      -1.2        29.141E-6  4.        
-1.18      -1.2        29.178E-6  4.        
-1.2       -1.2        29.215E-6  4.        
Gnucap   System status
iterations: op=0, dc=1464, tran=0, fourier=0, total=1464
transient timesteps: accepted=0, rejected=0, total=0
nodes: user=2, subckt=0, model=15, total=17
dctran density=40.8%, ac density=40.8%
