#           v(out)     i(tb.vdd_src) iter(0)   
 0.         1.2        0.         9.        
 0.02       1.2        0.         5.        
 0.04       1.2        0.         27.       
 0.06       1.2        0.         42.       
 0.08       1.2        0.         7.        
 0.1        1.2        0.         39.       
 0.12       1.2        0.         29.       
 0.14       1.2        0.         48.       
 0.16       1.2        0.         23.       
 0.18       1.2        0.         30.       
 0.2        1.2        0.         18.       
 0.22       1.2        0.         20.       
 0.24       1.2        0.         7.        
 0.26       1.2        0.         180.      
 0.28       1.2        0.         20.       
 0.3        1.2        0.         13.       
 0.32       1.2        0.         15.       
 0.34       1.2        0.         195.      
 0.36       1.2        0.         27.       
 0.38       1.2        0.         18.       
 0.4        1.2        0.         17.       
 0.42       1.2        0.         22.       
 0.44       1.2        0.         6.        
 0.46       1.1999     0.         11.       
 0.48       1.1998     0.         5.        
 0.5        1.1997     0.         5.        
 0.52       1.1994    -18.801E-9  5.        
 0.54       1.1987    -32.873E-9  5.        
 0.56       1.1973    -57.102E-9  5.        
 0.58       1.1942    -98.109E-9  6.        
 0.6        1.187     -165.31E-9  6.        
 0.62       1.165     -269.31E-9  6.        
 0.64       0.62417   -324.26E-9  7.        
 0.66       0.034258  -239.87E-9  12.       
 0.68       0.012197  -158.62E-9  7.        
 0.7        0.0054284 -101.69E-9  6.        
 0.72       0.0025739 -63.592E-9  6.        
 0.74       0.0012578 -38.985E-9  6.        
 0.76       626.91E-6 -23.574E-9  5.        
 0.78       317.55E-6 -14.115E-9  5.        
 0.8        163.18E-6  0.         5.        
 0.82       84.971E-6  0.         5.        
 0.84       44.786E-6  0.         5.        
 0.86       23.869E-6  0.         5.        
 0.88       12.851E-6  0.         5.        
 0.9        6.9839E-6  0.         5.        
 0.92       3.8285E-6  0.         5.        
 0.94       2.1163E-6  0.         5.        
 0.96       1.1795E-6  0.         5.        
 0.98       663.12E-9  0.         5.        
 1.         376.47E-9  0.         5.        
 1.02       216.29E-9  0.         5.        
 1.04       126.2E-9   0.         5.        
 1.06       75.198E-9  0.         5.        
 1.08       46.133E-9  0.         5.        
 1.1        29.443E-9  0.         5.        
 1.12       19.775E-9  0.         5.        
 1.14       14.112E-9  0.         4.        
 1.16       10.747E-9  0.         4.        
 1.18       8.7095E-9  0.         4.        
 1.2        7.4429E-9  0.         4.        
Gnucap   System status
iterations: op=0, dc=1026, tran=0, fourier=0, total=1026
transient timesteps: accepted=0, rejected=0, total=0
nodes: user=2, subckt=1, model=30, total=33
dctran density=26.8%, ac density=26.8%
