#           v(out)     i(tb.vdd_src) iter(0)   
open circuit: internal node 68
 0.         1.2        0.         315.      
 0.02       1.2        0.         38.       
 0.04       1.2        0.         33.       
 0.06       1.2        0.         6.        
 0.08       1.2        0.         5.        
 0.1        1.2        0.         33.       
 0.12       1.2        0.         18.       
 0.14       1.2        0.         20.       
 0.16       1.2        0.         4.        
 0.18       1.2        0.         6.        
 0.2        1.2        0.         39.       
 0.22       1.2        0.         265.      
 0.24       1.2        0.         30.       
 0.26       1.2        0.         11.       
 0.28       1.2        0.         37.       
 0.3        1.2        0.         20.       
 0.32       1.2        0.         23.       
 0.34       1.2        0.         300.      
 0.36       1.2        0.         6.        
 0.38       1.2        0.         21.       
 0.4        1.2        0.         206.      
 0.42       1.2        0.         19.       
 0.44       1.2        0.         23.       
 0.46       1.1999     0.         7.        
 0.48       1.1999     0.         10.       
 0.5        1.1997     0.         10.       
 0.52       1.1993     0.         5.        
 0.54       1.1984     0.         5.        
 0.56       1.1961    -20.693E-9  6.        
 0.58       1.1891    -36.06E-9   6.        
 0.6        1.1499    -61.205E-9  8.        
 0.62       0.12503   -55.719E-9  8.        
 0.64       0.013454  -34.925E-9  12.       
 0.66       0.004449  -21.246E-9  7.        
 0.68       0.0016889 -12.777E-9  6.        
 0.7        688.52E-6  0.         6.        
 0.72       296.29E-6  0.         6.        
 0.74       133.46E-6  0.         5.        
 0.76       62.488E-6  0.         5.        
 0.78       30.233E-6  0.         5.        
 0.8        15.037E-6  0.         5.        
 0.82       7.6553E-6  0.         5.        
 0.84       3.9767E-6  0.         5.        
 0.86       2.103E-6   0.         5.        
 0.88       1.1306E-6  0.         5.        
 0.9        617.81E-9  0.         5.        
 0.92       343.49E-9  0.         5.        
 0.94       194.85E-9  0.         5.        
 0.96       113.33E-9  0.         5.        
 0.98       68.09E-9   0.         5.        
 1.         42.679E-9  0.         5.        
 1.02       28.212E-9  0.         5.        
 1.04       19.845E-9  0.         4.        
 1.06       14.909E-9  0.         4.        
 1.08       11.924E-9  0.         4.        
 1.1        10.06E-9   0.         4.        
 1.12       8.8488E-9  0.         4.        
 1.14       8.0231E-9  0.         4.        
 1.16       7.43E-9    0.         4.        
 1.18       6.9808E-9  0.         4.        
 1.2        6.6233E-9  0.         4.        
Gnucap   System status
iterations: op=0, dc=1691, tran=0, fourier=0, total=1691
transient timesteps: accepted=0, rejected=0, total=0
nodes: user=2, subckt=1, model=66, total=69
dctran density=33.4%, ac density=33.4%
