#           v(out)     i(tb.vdd_src) iter(0)   
open circuit: internal node 68
 0.         1.2        0.         24.       
 0.02       1.2        0.         172.      
 0.04       1.2        0.         28.       
 0.06       1.2        0.         27.       
 0.08       1.2        0.         14.       
 0.1        1.2        0.         13.       
 0.12       1.2        0.         282.      
 0.14       1.2        0.         4.        
 0.16       1.2        0.         11.       
 0.18       1.2        0.         34.       
 0.2        1.2        0.         193.      
 0.22       1.2        0.         22.       
 0.24       1.2        0.         30.       
 0.26       1.2        0.         306.      
 0.28       1.2        0.         14.       
 0.3        1.2        0.         10.       
 0.32       1.2        0.         25.       
 0.34       1.2        0.         7.        
 0.36       1.2        0.         6.        
 0.38       1.2        0.         5.        
 0.4        1.2        0.         18.       
 0.42       1.1999     0.         10.       
 0.44       1.1999     0.         5.        
 0.46       1.1997     0.         5.        
 0.48       1.1994    -17.04E-9   5.        
 0.5        1.1989    -29.788E-9  5.        
 0.52       1.1976    -51.776E-9  5.        
 0.54       1.195     -89.145E-9  6.        
 0.56       1.1889    -150.85E-9  6.        
 0.58       1.1719    -247.79E-9  6.        
 0.6        0.86038   -338.78E-9  8.        
 0.62       0.046456  -261.93E-9  11.       
 0.64       0.014584  -175.15E-9  8.        
 0.66       0.0063639 -113.33E-9  6.        
 0.68       0.0029995 -71.406E-9  6.        
 0.7        0.0014622 -44.02E-9   6.        
 0.72       727.84E-6 -26.79E-9   5.        
 0.74       368.26E-6 -16.109E-9  5.        
 0.76       189.04E-6  0.         5.        
 0.78       98.342E-6  0.         5.        
 0.8        51.789E-6  0.         5.        
 0.82       27.581E-6  0.         5.        
 0.84       14.84E-6   0.         5.        
 0.86       8.0606E-6  0.         5.        
 0.88       4.4167E-6  0.         5.        
 0.9        2.4402E-6  0.         5.        
 0.92       1.3593E-6  0.         5.        
 0.94       763.56E-9  0.         5.        
 0.96       432.92E-9  0.         5.        
 0.98       248.19E-9  0.         5.        
 1.         144.31E-9  0.         5.        
 1.02       85.52E-9   0.         5.        
 1.04       52.032E-9  0.         5.        
 1.06       32.818E-9  0.         5.        
 1.08       21.702E-9  0.         5.        
 1.1        15.206E-9  0.         4.        
 1.12       11.36E-9   0.         4.        
 1.14       9.0422E-9  0.         4.        
 1.16       7.6129E-9  0.         4.        
 1.18       6.7034E-9  0.         4.        
 1.2        6.1012E-9  0.         4.        
Gnucap   System status
iterations: op=0, dc=1462, tran=0, fourier=0, total=1462
transient timesteps: accepted=0, rejected=0, total=0
nodes: user=2, subckt=1, model=66, total=69
dctran density=33.4%, ac density=33.4%
