#           v(vgs1)    v(vgs2)    v(vgs3)    v(vgs4)   
 1.         0.92972    0.92092   -1.1454    -1.1324    
 2.         0.92273    0.92698   -1.1492    -1.1455    
 3.         0.91896    0.91899   -1.1502    -1.134     
 4.         0.93257    0.9161    -1.1418    -1.1393    
 5.         0.92522    0.92346   -1.1524    -1.1381    
 6.         0.93329    0.92882   -1.1425    -1.1396    
 7.         0.92016    0.93578   -1.1468    -1.1472    
 8.         0.933      0.91783   -1.1355    -1.138     
 9.         0.90732    0.92887   -1.1207    -1.1477    
 10.        0.90399    0.92452   -1.1277    -1.1453    
 11.        0.90512    0.93336   -1.1571    -1.1476    
 12.        0.93307    0.93979   -1.1464    -1.1465    
 13.        0.92923    0.93138   -1.1481    -1.1391    
 14.        0.93211    0.93676   -1.1441    -1.1478    
 15.        0.91967    0.93427   -1.155     -1.1462    
 16.        0.9376     0.91376   -1.1419    -1.1394    
 17.        0.9208     0.92318   -1.1476    -1.1389    
 18.        0.92663    0.92671   -1.1434    -1.1434    
 19.        0.91797    0.92339   -1.1482    -1.1294    
 20.        0.93513    0.90945   -1.1332    -1.1481    
 21.        0.9038     0.91292   -1.1549    -1.1433    
 22.        0.9399     0.92332   -1.138     -1.1584    
 23.        0.90815    0.91779   -1.1471    -1.1583    
 24.        0.93104    0.92015   -1.1459    -1.141     
 25.        0.92883    0.90912   -1.1472    -1.1565    
 26.        0.92338    0.92648   -1.1444    -1.1468    
 27.        0.9202     0.92273   -1.1582    -1.1463    
 28.        0.94284    0.92042   -1.1464    -1.1431    
 29.        0.91978    0.92582   -1.1403    -1.1492    
 30.        0.91329    0.9327    -1.1393    -1.1335    
 31.        0.91727    0.92206   -1.1532    -1.1397    
 32.        0.9364     0.93975   -1.1295    -1.1587    
 33.        0.90599    0.9071    -1.1511    -1.1428    
 34.        0.93967    0.90831   -1.1405    -1.1436    
 35.        0.91058    0.90582   -1.1516    -1.1565    
 36.        0.93361    0.92129   -1.1427    -1.1427    
 37.        0.92109    0.93053   -1.1406    -1.1396    
 38.        0.91658    0.93009   -1.1569    -1.1353    
 39.        0.94354    0.91172   -1.1491    -1.148     
 40.        0.92826    0.91579   -1.1391    -1.1543    
 41.        0.91504    0.93552   -1.1447    -1.1333    
 42.        0.92014    0.91557   -1.1296    -1.1508    
 43.        0.9054     0.91412   -1.1429    -1.1458    
 44.        0.92092    0.94      -1.1385    -1.1442    
 45.        0.911      0.92678   -1.1509    -1.1509    
 46.        0.93523    0.92646   -1.1379    -1.1277    
 47.        0.91801    0.91994   -1.1479    -1.145     
 48.        0.93208    0.91992   -1.139     -1.1349    
 49.        0.91244    0.90463   -1.1517    -1.1545    
 50.        0.93345    0.92247   -1.1488    -1.1463    
 51.        0.92398    0.91754   -1.1475    -1.1407    
 52.        0.92991    0.93791   -1.1397    -1.1476    
 53.        0.91657    0.92917   -1.1582    -1.1451    
 54.        0.94128    0.91904   -1.1313    -1.1544    
 55.        0.90402    0.92799   -1.1445    -1.1503    
 56.        0.9252     0.92351   -1.1379    -1.1407    
 57.        0.91374    0.91008   -1.1489    -1.1285    
 58.        0.93289    0.92948   -1.1331    -1.1518    
 59.        0.90822    0.92011   -1.1514    -1.1346    
 60.        0.93648    0.9364    -1.1498    -1.148     
 61.        0.93107    0.93221   -1.1477    -1.1502    
 62.        0.92853    0.92191   -1.1456    -1.1531    
 63.        0.9342     0.92152   -1.1424    -1.1471    
 64.        0.92003    0.92887   -1.1394    -1.1438    
 65.        0.91515    0.90667   -1.1615    -1.1424    
 66.        0.94322    0.92458   -1.1436    -1.1431    
 67.        0.92159    0.9183    -1.1556    -1.1422    
 68.        0.9485     0.92696   -1.1308    -1.1306    
 69.        0.91216    0.92043   -1.1479    -1.1615    
 70.        0.93501    0.93355   -1.1389    -1.1402    
 71.        0.91432    0.94062   -1.1472    -1.1491    
 72.        0.92719    0.93875   -1.1464    -1.1507    
 73.        0.92411    0.94949   -1.1479    -1.1617    
 74.        0.92647    0.94906   -1.1376    -1.1461    
 75.        0.91697    0.92483   -1.1403    -1.1483    
 76.        0.91168    0.92278   -1.1374    -1.1404    
 77.        0.9145     0.9318    -1.146     -1.1382    
 78.        0.92167    0.91514   -1.136     -1.1301    
 79.        0.91399    0.91435   -1.1574    -1.1554    
 80.        0.9374     0.92648   -1.1405    -1.1441    
 81.        0.91616    0.9355    -1.155     -1.1331    
 82.        0.93961    0.93029   -1.14      -1.146     
 83.        0.93237    0.91744   -1.1357    -1.1422    
 84.        0.91702    0.91181   -1.1372    -1.1305    
 85.        0.91061    0.91353   -1.1465    -1.134     
 86.        0.9319     0.92933   -1.1364    -1.1448    
 87.        0.91529    0.91512   -1.1541    -1.152     
 88.        0.94267    0.93938   -1.1235    -1.1372    
 89.        0.89287    0.91935   -1.1416    -1.1544    
 90.        0.92875    0.9319    -1.1377    -1.1468    
 91.        0.91813    0.92382   -1.1502    -1.1585    
 92.        0.93093    0.91233   -1.1499    -1.1436    
 93.        0.93294    0.93007   -1.1449    -1.1488    
 94.        0.9282     0.92911   -1.15      -1.1459    
 95.        0.9318     0.91349   -1.1446    -1.136     
 96.        0.92508    0.93114   -1.1457    -1.15      
 97.        0.93086    0.92989   -1.156     -1.1401    
 98.        0.92919    0.92124   -1.1476    -1.1432    
 99.        0.92741    0.93007   -1.1629    -1.1405    
 100.       0.95084    0.91673   -1.1408    -1.1493    
 101.       0.91323    0.91657   -1.1503    -1.1633    
 102.       0.93503    0.93308   -1.1416    -1.1423    
 103.       0.92224    0.92069   -1.1414    -1.1274    
 104.       0.9258     0.92064   -1.1503    -1.1521    
 105.       0.93014    0.92749   -1.1466    -1.1317    
 106.       0.92557    0.9198    -1.152     -1.1487    
 107.       0.93127    0.91737   -1.1517    -1.1418    
 108.       0.92934    0.92499   -1.1443    -1.1563    
 109.       0.92269    0.9176    -1.1513    -1.1496    
 110.       0.93165    0.91831   -1.1543    -1.1381    
 111.       0.93593    0.93099   -1.1626    -1.1546    
 112.       0.9514     0.92689   -1.1374    -1.1421    
 113.       0.91677    0.92803   -1.1512    -1.1486    
 114.       0.93316    0.92527   -1.1335    -1.1536    
 115.       0.90816    0.93591   -1.134     -1.1478    
 116.       0.91669    0.93126   -1.1356    -1.1501    
 117.       0.92036    0.92671   -1.1373    -1.1341    
 118.       0.92284    0.93685   -1.1468    -1.1449    
 119.       0.92806    0.92301   -1.1385    -1.1437    
 120.       0.91393    0.93298   -1.1444    -1.1443    
 121.       0.92094    0.92394   -1.156     -1.1428    
 122.       0.93771    0.9154    -1.1488    -1.1464    
 123.       0.92021    0.92485   -1.1473    -1.145     
 124.       0.93225    0.91043   -1.1453    -1.1379    
 125.       0.91912    0.91887   -1.1452    -1.1385    
 126.       0.92866    0.92124   -1.147     -1.144     
 127.       0.92312    0.90127   -1.1351    -1.1382    
 128.       0.91124    0.90358   -1.1489    -1.1535    
 129.       0.92774    0.93465   -1.1433    -1.1391    
 130.       0.92367    0.92818   -1.1428    -1.1244    
 131.       0.92561    0.93744   -1.1507    -1.1345    
 132.       0.93327    0.94264   -1.1403    -1.1404    
 133.       0.91574    0.92949   -1.1518    -1.1459    
 134.       0.93639    0.9265    -1.1368    -1.1546    
 135.       0.91342    0.93438   -1.1447    -1.1507    
 136.       0.92459    0.91886   -1.1436    -1.1462    
 137.       0.91938    0.93577   -1.1433    -1.1378    
 138.       0.92285    0.91696   -1.1346    -1.1434    
 139.       0.91587    0.93768   -1.1415    -1.159     
 140.       0.91869    0.92099   -1.1518    -1.1423    
 141.       0.92824    0.92652   -1.1325    -1.1506    
 142.       0.90723    0.9408    -1.1498    -1.1473    
 143.       0.93418    0.91208   -1.1499    -1.1406    
 144.       0.92809    0.92119   -1.1297    -1.1545    
 145.       0.90892    0.92103   -1.1493    -1.1298    
 146.       0.93219    0.94485   -1.1518    -1.161     
 147.       0.92634    0.94212   -1.126     -1.1389    
 148.       0.90609    0.92875   -1.1503    -1.1482    
 149.       0.93456    0.9218    -1.1394    -1.1521    
 150.       0.91668    0.93918   -1.1537    -1.1473    
 151.       0.9376     0.9225    -1.1374    -1.1439    
 152.       0.92471    0.90892   -1.1388    -1.1368    
 153.       0.92108    0.92871   -1.1504    -1.1465    
 154.       0.93165    0.9288    -1.1493    -1.1321    
 155.       0.92959    0.92158   -1.1471    -1.1345    
 156.       0.92023    0.93337   -1.1557    -1.1481    
 157.       0.93928    0.9203    -1.134     -1.1335    
 158.       0.91052    0.94663   -1.1447    -1.1631    
 159.       0.92944    0.93721   -1.1442    -1.1449    
 160.       0.92325    0.93841   -1.1403    -1.1513    
 161.       0.91898    0.92534   -1.1339    -1.1448    
 162.       0.91749    0.9262    -1.146     -1.1487    
 163.       0.92707    0.93868   -1.141     -1.1505    
 164.       0.92127    0.92425   -1.1494    -1.1418    
 165.       0.92871    0.925     -1.1408    -1.152     
 166.       0.9175     0.91335   -1.1518    -1.1389    
 167.       0.93208    0.9233    -1.1646    -1.1398    
 168.       0.956      0.90472   -1.1568    -1.1607    
 169.       0.9354     0.91334   -1.1374    -1.1444    
 170.       0.91341    0.9143    -1.1551    -1.1516    
 171.       0.93713    0.92124   -1.1471    -1.1389    
 172.       0.92463    0.90898   -1.1478    -1.1496    
 173.       0.92295    0.93061   -1.1433    -1.1548    
 174.       0.92165    0.92957   -1.136     -1.1384    
 175.       0.91182    0.93655   -1.1454    -1.1248    
 176.       0.9275     0.92674   -1.1483    -1.1393    
 177.       0.93253    0.92443   -1.1374    -1.1646    
 178.       0.90856    0.94603   -1.1489    -1.1422    
 179.       0.93324    0.91781   -1.131     -1.1487    
 180.       0.90711    0.94328   -1.1487    -1.1602    
 181.       0.93383    0.91266   -1.1403    -1.1405    
 182.       0.9156     0.91551   -1.152     -1.1376    
 183.       0.93402    0.91865   -1.1457    -1.1466    
 184.       0.92227    0.91471   -1.1446    -1.1513    
 185.       0.91616    0.93253   -1.1478    -1.1369    
 186.       0.92467    0.92879   -1.1457    -1.136     
 187.       0.92366    0.92265   -1.1573    -1.1361    
 188.       0.94525    0.92557   -1.1531    -1.1477    
 189.       0.93763    0.92793   -1.1311    -1.1392    
 190.       0.90038    0.92843   -1.1552    -1.1498    
 191.       0.93795    0.93645   -1.1393    -1.1363    
 192.       0.91218    0.92593   -1.1535    -1.1459    
 193.       0.93152    0.90766   -1.1408    -1.1411    
 194.       0.91983    0.92353   -1.1454    -1.1444    
 195.       0.92666    0.91276   -1.151     -1.1563    
 196.       0.93261    0.91675   -1.1419    -1.1494    
 197.       0.9227     0.92469   -1.146     -1.1599    
 198.       0.92105    0.93358   -1.146     -1.1347    
 199.       0.93043    0.9228    -1.1471    -1.1439    
 200.       0.92587    0.93839   -1.1509    -1.1532    
 201.       0.92727    0.93164   -1.1245    -1.1413    
 202.       0.90344    0.9293    -1.1519    -1.1422    
 203.       0.93809    0.93959   -1.1362    -1.1399    
 204.       0.91316    0.93981   -1.1493    -1.1573    
 205.       0.92938    0.92037   -1.1444    -1.1423    
 206.       0.9233     0.93151   -1.1388    -1.1537    
 207.       0.91335    0.91822   -1.1519    -1.1476    
 208.       0.935      0.90278   -1.1437    -1.1569    
 209.       0.93055    0.9367    -1.1457    -1.1421    
 210.       0.92257    0.92445   -1.1458    -1.1482    
 211.       0.92306    0.90948   -1.1382    -1.1338    
 212.       0.91258    0.9462    -1.1609    -1.1503    
 213.       0.93805    0.91131   -1.132     -1.1356    
 214.       0.9086     0.9199    -1.1534    -1.1455    
 215.       0.93396    0.93414   -1.1412    -1.1365    
 216.       0.91772    0.91962   -1.1345    -1.1386    
 217.       0.91418    0.89873   -1.1543    -1.1447    
 218.       0.93764    0.92959   -1.1409    -1.1443    
 219.       0.91724    0.91831   -1.1531    -1.159     
 220.       0.93423    0.93305   -1.1411    -1.1409    
 221.       0.91849    0.93039   -1.144     -1.1384    
 222.       0.92203    0.92252   -1.1466    -1.1384    
 223.       0.92828    0.9212    -1.133     -1.1299    
 224.       0.90858    0.9285    -1.1554    -1.1533    
 225.       0.93789    0.90278   -1.1395    -1.1465    
 226.       0.92111    0.92613   -1.1504    -1.1491    
 227.       0.93297    0.90669   -1.1411    -1.146     
 228.       0.92303    0.93377   -1.1449    -1.1464    
 229.       0.92473    0.93189   -1.1456    -1.1428    
 230.       0.91595    0.92532   -1.1389    -1.1617    
 231.       0.91546    0.91207   -1.1399    -1.146     
 232.       0.9207     0.92514   -1.1512    -1.1353    
 233.       0.92873    0.92384   -1.1256    -1.1379    
 234.       0.90208    0.91581   -1.1624    -1.151     
 235.       0.94582    0.93104   -1.1495    -1.1282    
 236.       0.92164    0.92323   -1.1594    -1.1625    
 237.       0.93797    0.9259    -1.1409    -1.1528    
 238.       0.91756    0.92259   -1.1504    -1.1449    
 239.       0.92938    0.91794   -1.1508    -1.1555    
 240.       0.9292     0.91073   -1.1413    -1.141     
 241.       0.91574    0.90852   -1.1487    -1.1585    
 242.       0.92344    0.92496   -1.1442    -1.1612    
 243.       0.9282     0.92205   -1.1309    -1.1531    
 244.       0.907      0.94967   -1.156     -1.1455    
 245.       0.93658    0.93252   -1.1318    -1.1376    
 246.       0.90987    0.93813   -1.1605    -1.1667    
 247.       0.94618    0.9168    -1.1407    -1.1584    
 248.       0.9205     0.93171   -1.1518    -1.1513    
 249.       0.93628    0.92061   -1.1404    -1.1549    
 250.       0.91926    0.9396    -1.1481    -1.1347    
 251.       0.9259     0.92637   -1.1369    -1.1441    
 252.       0.91886    0.93765   -1.1481    -1.1401    
 253.       0.92686    0.9202    -1.15      -1.141     
 254.       0.92029    0.92009   -1.1502    -1.1478    
 255.       0.9308     0.9181    -1.1413    -1.1403    
 256.       0.91386    0.9146    -1.1548    -1.1571    
 257.       0.9429     0.91183   -1.1415    -1.1444    
 258.       0.91494    0.90551   -1.1542    -1.1457    
 259.       0.93571    0.92101   -1.15      -1.1502    
 260.       0.93646    0.91102   -1.1502    -1.139     
 261.       0.93331    0.91465   -1.1379    -1.1451    
 262.       0.91927    0.92002   -1.1363    -1.1315    
 263.       0.91907    0.92489   -1.1335    -1.1475    
 264.       0.91234    0.93033   -1.1405    -1.1474    
 265.       0.91047    0.92208   -1.1416    -1.1408    
 266.       0.92112    0.94068   -1.1531    -1.162     
 267.       0.9357     0.91182   -1.1343    -1.1475    
 268.       0.91212    0.93952   -1.1626    -1.1443    
 269.       0.94976    0.92902   -1.1408    -1.1452    
 270.       0.91591    0.92806   -1.1513    -1.1402    
 271.       0.93453    0.91214   -1.1304    -1.1468    
 272.       0.9083     0.92258   -1.1485    -1.1364    
 273.       0.92857    0.92406   -1.1553    -1.1527    
 274.       0.93493    0.91542   -1.1417    -1.1578    
 275.       0.92692    0.92882   -1.1407    -1.1434    
 276.       0.91639    0.91537   -1.1531    -1.165     
 277.       0.93698    0.9266    -1.1386    -1.1464    
 278.       0.92157    0.90711   -1.1564    -1.1433    
 279.       0.93754    0.92814   -1.1403    -1.1523    
 280.       0.91716    0.93753   -1.1573    -1.1457    
 281.       0.94796    0.92595   -1.1487    -1.1401    
 282.       0.92332    0.92605   -1.1357    -1.1422    
 283.       0.91805    0.92764   -1.1489    -1.1404    
 284.       0.92967    0.93017   -1.1465    -1.1343    
 285.       0.92306    0.91688   -1.1485    -1.1567    
 286.       0.92984    0.93808   -1.1546    -1.1537    
 287.       0.93632    0.91629   -1.1413    -1.1656    
 288.       0.91984    0.92272   -1.1466    -1.1432    
 289.       0.93025    0.93753   -1.1433    -1.1349    
 290.       0.92324    0.92101   -1.1623    -1.1448    
 291.       0.94348    0.93546   -1.146     -1.1433    
 292.       0.92593    0.93092   -1.1508    -1.1307    
 293.       0.93528    0.9312    -1.1463    -1.1379    
 294.       0.93146    0.92933   -1.1475    -1.1584    
 295.       0.93051    0.92176   -1.1483    -1.1355    
 296.       0.93078    0.95057   -1.1477    -1.1477    
 297.       0.9269     0.93302   -1.1427    -1.1512    
 298.       0.92307    0.93148   -1.1581    -1.1521    
 299.       0.93303    0.92058   -1.1479    -1.1306    
 300.       0.92461    0.915     -1.1502    -1.1492    
 301.       0.93114    0.90507   -1.15      -1.1335    
 302.       0.92494    0.92079   -1.1252    -1.145     
 303.       0.90133    0.91362   -1.1402    -1.151     
 304.       0.92385    0.92468   -1.1402    -1.1364    
 305.       0.91589    0.91804   -1.1368    -1.1614    
 306.       0.9192     0.91013   -1.1479    -1.1424    
 307.       0.92769    0.93527   -1.1521    -1.1476    
 308.       0.93742    0.93124   -1.1459    -1.1481    
 309.       0.92492    0.93189   -1.1498    -1.1319    
 310.       0.93044    0.92997   -1.1463    -1.1453    
 311.       0.92304    0.92281   -1.128     -1.1277    
 312.       0.91051    0.9096    -1.1471    -1.123     
 313.       0.92601    0.9328    -1.1486    -1.1484    
 314.       0.92412    0.90809   -1.1409    -1.1531    
 315.       0.91999    0.94239   -1.1422    -1.1427    
 316.       0.92377    0.93154   -1.1407    -1.1393    
 317.       0.92223    0.9218    -1.1458    -1.1516    
 318.       0.9256     0.92464   -1.1382    -1.1445    
 319.       0.91463    0.93209   -1.142     -1.1458    
 320.       0.91805    0.90557   -1.1477    -1.1475    
 321.       0.92612    0.90882   -1.1443    -1.1461    
 322.       0.92037    0.92271   -1.1444    -1.1466    
 323.       0.92001    0.90605   -1.1451    -1.1416    
 324.       0.93049    0.92605   -1.1283    -1.142     
 325.       0.90182    0.9274    -1.1503    -1.155     
 326.       0.92872    0.92551   -1.1445    -1.1466    
 327.       0.92416    0.92356   -1.1551    -1.1468    
 328.       0.94068    0.93637   -1.1459    -1.1401    
 329.       0.92768    0.9277    -1.1355    -1.1444    
 330.       0.91587    0.91366   -1.1415    -1.1595    
 331.       0.91376    0.92212   -1.144     -1.1563    
 332.       0.92676    0.92688   -1.1444    -1.1584    
 333.       0.92482    0.94508   -1.1455    -1.1279    
 334.       0.923      0.92188   -1.1419    -1.1503    
 335.       0.92159    0.91826   -1.1529    -1.1564    
 336.       0.93306    0.92782   -1.13      -1.1293    
 337.       0.90642    0.92879   -1.1475    -1.1499    
 338.       0.93271    0.92731   -1.1388    -1.1594    
 339.       0.91946    0.94033   -1.1412    -1.1379    
 340.       0.91507    0.9134    -1.1435    -1.1451    
 341.       0.92398    0.92336   -1.1363    -1.1366    
 342.       0.91472    0.91052   -1.1419    -1.156     
 343.       0.92264    0.91246   -1.1373    -1.1262    
 344.       0.91347    0.92253   -1.1429    -1.1453    
 345.       0.91837    0.91759   -1.1491    -1.1579    
 346.       0.93073    0.9144    -1.139     -1.1413    
 347.       0.90769    0.92344   -1.1489    -1.1501    
 348.       0.93208    0.93127   -1.1423    -1.1346    
 349.       0.91656    0.91626   -1.1501    -1.1431    
 350.       0.93402    0.93222   -1.1453    -1.142     
 351.       0.91853    0.94199   -1.1404    -1.1463    
 352.       0.90983    0.91547   -1.1408    -1.1565    
 353.       0.92533    0.94338   -1.1449    -1.1448    
 354.       0.9229     0.9306    -1.1431    -1.1468    
 355.       0.92078    0.927     -1.1399    -1.1382    
 356.       0.91585    0.92868   -1.139     -1.1431    
