#           v(g)       i(tb.sd)   iter(0)   
 0.        -0.2        0.         4.        
-0.02      -0.2        0.         4.        
-0.04      -0.2        0.         4.        
-0.06      -0.2        0.         4.        
-0.08      -0.2        0.         4.        
-0.1       -0.2        0.         4.        
-0.12      -0.2        0.         4.        
-0.14      -0.2        0.         4.        
-0.16      -0.2        0.         4.        
-0.18      -0.2        0.         4.        
-0.2       -0.2        0.         4.        
-0.22      -0.2        0.         4.        
-0.24      -0.2        0.         4.        
-0.26      -0.2        0.         4.        
-0.28      -0.2        0.         4.        
-0.3       -0.2        0.         4.        
-0.32      -0.2        0.         4.        
-0.34      -0.2        0.         4.        
-0.36      -0.2        0.         4.        
-0.38      -0.2        0.         4.        
-0.4       -0.2        0.         4.        
-0.42      -0.2        0.         4.        
-0.44      -0.2        0.         4.        
-0.46      -0.2        0.         4.        
-0.48      -0.2        0.         4.        
-0.5       -0.2        0.         4.        
-0.52      -0.2        0.         4.        
-0.54      -0.2        0.         4.        
-0.56      -0.2        0.         4.        
-0.58      -0.2        0.         4.        
-0.6       -0.2        0.         4.        
-0.62      -0.2        0.         4.        
-0.64      -0.2        0.         4.        
-0.66      -0.2        0.         4.        
-0.68      -0.2        0.         4.        
-0.7       -0.2        0.         4.        
-0.72      -0.2        0.         4.        
-0.74      -0.2        0.         4.        
-0.76      -0.2        0.         4.        
-0.78      -0.2        0.         4.        
-0.8       -0.2        0.         4.        
-0.82      -0.2        0.         4.        
-0.84      -0.2        0.         4.        
-0.86      -0.2        0.         4.        
-0.88      -0.2        0.         4.        
-0.9       -0.2        0.         4.        
-0.92      -0.2        0.         4.        
-0.94      -0.2        0.         4.        
-0.96      -0.2        0.         4.        
-0.98      -0.2        0.         4.        
-1.        -0.2        0.         4.        
-1.02      -0.2        0.         4.        
-1.04      -0.2        0.         4.        
-1.06      -0.2        0.         4.        
-1.08      -0.2        0.         4.        
-1.1       -0.2        0.         4.        
-1.12      -0.2        0.         4.        
-1.14      -0.2        0.         4.        
-1.16      -0.2        0.         4.        
-1.18      -0.2        0.         4.        
-1.2       -0.2        0.         4.        
 0.        -0.4        0.         4.        
-0.02      -0.4        1.5202E-9  4.        
-0.04      -0.4        2.1914E-9  4.        
-0.06      -0.4        2.4938E-9  4.        
-0.08      -0.4        2.6439E-9  4.        
-0.1       -0.4        2.7267E-9  4.        
-0.12      -0.4        2.7831E-9  4.        
-0.14      -0.4        2.8231E-9  4.        
-0.16      -0.4        2.8558E-9  4.        
-0.18      -0.4        2.8849E-9  4.        
-0.2       -0.4        2.9067E-9  4.        
-0.22      -0.4        2.9322E-9  4.        
-0.24      -0.4        2.954E-9   4.        
-0.26      -0.4        2.9759E-9  4.        
-0.28      -0.4        2.9977E-9  4.        
-0.3       -0.4        3.0232E-9  4.        
-0.32      -0.4        0.         4.        
-0.34      -0.4        0.         4.        
-0.36      -0.4        0.         4.        
-0.38      -0.4        0.         4.        
-0.4       -0.4        0.         4.        
-0.42      -0.4        0.         4.        
-0.44      -0.4        0.         4.        
-0.46      -0.4        0.         4.        
-0.48      -0.4        0.         4.        
-0.5       -0.4        0.         4.        
-0.52      -0.4        0.         4.        
-0.54      -0.4        0.         4.        
-0.56      -0.4        0.         4.        
-0.58      -0.4        0.         4.        
-0.6       -0.4        0.         4.        
-0.62      -0.4        0.         4.        
-0.64      -0.4        0.         4.        
-0.66      -0.4        0.         4.        
-0.68      -0.4        0.         4.        
-0.7       -0.4        0.         4.        
-0.72      -0.4        0.         4.        
-0.74      -0.4        0.         4.        
-0.76      -0.4        0.         4.        
-0.78      -0.4        0.         4.        
-0.8       -0.4        0.         4.        
-0.82      -0.4        0.         4.        
-0.84      -0.4        0.         4.        
-0.86      -0.4        0.         4.        
-0.88      -0.4        0.         4.        
-0.9       -0.4        0.         4.        
-0.92      -0.4        0.         4.        
-0.94      -0.4        0.         4.        
-0.96      -0.4        0.         4.        
-0.98      -0.4        0.         4.        
-1.        -0.4        0.         4.        
-1.02      -0.4        0.         4.        
-1.04      -0.4        0.         4.        
-1.06      -0.4        0.         4.        
-1.08      -0.4        0.         4.        
-1.1       -0.4        0.         4.        
-1.12      -0.4        0.         4.        
-1.14      -0.4        0.         4.        
-1.16      -0.4        0.         4.        
-1.18      -0.4        0.         4.        
-1.2       -0.4        0.         4.        
 0.        -0.6        0.         4.        
-0.02      -0.6        115.42E-9  4.        
-0.04      -0.6        185.72E-9  4.        
-0.06      -0.6        225.21E-9  4.        
-0.08      -0.6        247.04E-9  4.        
-0.1       -0.6        259.6E-9   4.        
-0.12      -0.6        267.37E-9  4.        
-0.14      -0.6        272.59E-9  4.        
-0.16      -0.6        276.41E-9  4.        
-0.18      -0.6        279.41E-9  4.        
-0.2       -0.6        281.9E-9   4.        
-0.22      -0.6        284.06E-9  4.        
-0.24      -0.6        286.01E-9  4.        
-0.26      -0.6        287.82E-9  4.        
-0.28      -0.6        289.51E-9  4.        
-0.3       -0.6        291.13E-9  4.        
-0.32      -0.6        292.69E-9  4.        
-0.34      -0.6        294.2E-9   4.        
-0.36      -0.6        295.7E-9   4.        
-0.38      -0.6        297.16E-9  4.        
-0.4       -0.6        298.59E-9  4.        
-0.42      -0.6        300.01E-9  4.        
-0.44      -0.6        301.42E-9  4.        
-0.46      -0.6        302.83E-9  4.        
-0.48      -0.6        304.22E-9  4.        
-0.5       -0.6        305.61E-9  4.        
-0.52      -0.6        306.99E-9  4.        
-0.54      -0.6        308.37E-9  4.        
-0.56      -0.6        309.74E-9  4.        
-0.58      -0.6        311.11E-9  4.        
-0.6       -0.6        312.49E-9  4.        
-0.62      -0.6        313.86E-9  4.        
-0.64      -0.6        315.22E-9  4.        
-0.66      -0.6        316.59E-9  4.        
-0.68      -0.6        317.97E-9  4.        
-0.7       -0.6        319.34E-9  4.        
-0.72      -0.6        320.71E-9  4.        
-0.74      -0.6        322.09E-9  4.        
-0.76      -0.6        323.47E-9  4.        
-0.78      -0.6        324.83E-9  4.        
-0.8       -0.6        326.22E-9  4.        
-0.82      -0.6        327.59E-9  4.        
-0.84      -0.6        328.99E-9  4.        
-0.86      -0.6        330.37E-9  4.        
-0.88      -0.6        331.77E-9  4.        
-0.9       -0.6        333.14E-9  4.        
-0.92      -0.6        334.55E-9  4.        
-0.94      -0.6        335.93E-9  4.        
-0.96      -0.6        337.33E-9  4.        
-0.98      -0.6        338.74E-9  4.        
-1.        -0.6        340.14E-9  4.        
-1.02      -0.6        341.55E-9  4.        
-1.04      -0.6        342.94E-9  4.        
-1.06      -0.6        344.39E-9  4.        
-1.08      -0.6        345.78E-9  4.        
-1.1       -0.6        347.19E-9  4.        
-1.12      -0.6        348.62E-9  4.        
-1.14      -0.6        350.05E-9  4.        
-1.16      -0.6        351.47E-9  4.        
-1.18      -0.6        352.91E-9  4.        
-1.2       -0.6        354.35E-9  4.        
 0.        -0.8       -171.E-21   4.        
-0.02      -0.8        616.41E-9  4.        
-0.04      -0.8        1.1304E-6  4.        
-0.06      -0.8        1.5433E-6  4.        
-0.08      -0.8        1.8647E-6  4.        
-0.1       -0.8        2.1094E-6  4.        
-0.12      -0.8        2.2929E-6  4.        
-0.14      -0.8        2.4299E-6  4.        
-0.16      -0.8        2.5324E-6  4.        
-0.18      -0.8        2.6098E-6  4.        
-0.2       -0.8        2.669E-6   4.        
-0.22      -0.8        2.7151E-6  4.        
-0.24      -0.8        2.7519E-6  4.        
-0.26      -0.8        2.7817E-6  4.        
-0.28      -0.8        2.8065E-6  4.        
-0.3       -0.8        2.8275E-6  4.        
-0.32      -0.8        2.8457E-6  4.        
-0.34      -0.8        2.8617E-6  4.        
-0.36      -0.8        2.876E-6   4.        
-0.38      -0.8        2.889E-6   4.        
-0.4       -0.8        2.901E-6   4.        
-0.42      -0.8        2.9121E-6  4.        
-0.44      -0.8        2.9226E-6  4.        
-0.46      -0.8        2.9324E-6  4.        
-0.48      -0.8        2.9419E-6  4.        
-0.5       -0.8        2.9509E-6  4.        
-0.52      -0.8        2.9596E-6  4.        
-0.54      -0.8        2.9681E-6  4.        
-0.56      -0.8        2.9763E-6  4.        
-0.58      -0.8        2.9843E-6  4.        
-0.6       -0.8        2.9921E-6  4.        
-0.62      -0.8        2.9998E-6  4.        
-0.64      -0.8        3.0074E-6  4.        
-0.66      -0.8        3.0148E-6  4.        
-0.68      -0.8        3.0222E-6  4.        
-0.7       -0.8        3.0294E-6  4.        
-0.72      -0.8        3.0366E-6  4.        
-0.74      -0.8        3.0437E-6  4.        
-0.76      -0.8        3.0507E-6  4.        
-0.78      -0.8        3.0577E-6  4.        
-0.8       -0.8        3.0646E-6  4.        
-0.82      -0.8        3.0715E-6  4.        
-0.84      -0.8        3.0784E-6  4.        
-0.86      -0.8        3.0852E-6  4.        
-0.88      -0.8        3.0919E-6  4.        
-0.9       -0.8        3.0987E-6  4.        
-0.92      -0.8        3.1054E-6  4.        
-0.94      -0.8        3.1121E-6  4.        
-0.96      -0.8        3.1187E-6  4.        
-0.98      -0.8        3.1254E-6  4.        
-1.        -0.8        3.132E-6   4.        
-1.02      -0.8        3.1386E-6  4.        
-1.04      -0.8        3.1452E-6  4.        
-1.06      -0.8        3.1518E-6  4.        
-1.08      -0.8        3.1584E-6  4.        
-1.1       -0.8        3.1649E-6  4.        
-1.12      -0.8        3.1714E-6  4.        
-1.14      -0.8        3.178E-6   4.        
-1.16      -0.8        3.1845E-6  4.        
-1.18      -0.8        3.191E-6   4.        
-1.2       -0.8        3.1975E-6  4.        
 0.        -1.        -4.245E-18  4.        
-0.02      -1.         1.2818E-6  4.        
-0.04      -1.         2.4484E-6  4.        
-0.06      -1.         3.4931E-6  4.        
-0.08      -1.         4.4148E-6  4.        
-0.1       -1.         5.2171E-6  4.        
-0.12      -1.         5.9075E-6  4.        
-0.14      -1.         6.4959E-6  4.        
-0.16      -1.         6.9937E-6  4.        
-0.18      -1.         7.4126E-6  4.        
-0.2       -1.         7.7642E-6  4.        
-0.22      -1.         8.0588E-6  4.        
-0.24      -1.         8.3058E-6  4.        
-0.26      -1.         8.5134E-6  4.        
-0.28      -1.         8.6884E-6  4.        
-0.3       -1.         8.8367E-6  4.        
-0.32      -1.         8.963E-6   4.        
-0.34      -1.         9.0712E-6  4.        
-0.36      -1.         9.1646E-6  4.        
-0.38      -1.         9.2459E-6  4.        
-0.4       -1.         9.317E-6   4.        
-0.42      -1.         9.3798E-6  4.        
-0.44      -1.         9.4357E-6  4.        
-0.46      -1.         9.4858E-6  4.        
-0.48      -1.         9.531E-6   4.        
-0.5       -1.         9.5722E-6  4.        
-0.52      -1.         9.6099E-6  4.        
-0.54      -1.         9.6446E-6  4.        
-0.56      -1.         9.6769E-6  4.        
-0.58      -1.         9.707E-6   4.        
-0.6       -1.         9.7353E-6  4.        
-0.62      -1.         9.762E-6   4.        
-0.64      -1.         9.7873E-6  4.        
-0.66      -1.         9.8114E-6  4.        
-0.68      -1.         9.8344E-6  4.        
-0.7       -1.         9.8566E-6  4.        
-0.72      -1.         9.8778E-6  4.        
-0.74      -1.         9.8984E-6  4.        
-0.76      -1.         9.9183E-6  4.        
-0.78      -1.         9.9377E-6  4.        
-0.8       -1.         9.9565E-6  4.        
-0.82      -1.         9.9748E-6  4.        
-0.84      -1.         9.9928E-6  4.        
-0.86      -1.         10.01E-6   4.        
-0.88      -1.         10.028E-6  4.        
-0.9       -1.         10.045E-6  4.        
-0.92      -1.         10.061E-6  4.        
-0.94      -1.         10.078E-6  4.        
-0.96      -1.         10.094E-6  4.        
-0.98      -1.         10.11E-6   4.        
-1.        -1.         10.125E-6  4.        
-1.02      -1.         10.141E-6  4.        
-1.04      -1.         10.156E-6  4.        
-1.06      -1.         10.172E-6  4.        
-1.08      -1.         10.187E-6  4.        
-1.1       -1.         10.202E-6  4.        
-1.12      -1.         10.217E-6  4.        
-1.14      -1.         10.231E-6  4.        
-1.16      -1.         10.246E-6  4.        
-1.18      -1.         10.26E-6   4.        
-1.2       -1.         10.275E-6  4.        
 0.        -1.2       -15.44E-18  4.        
-0.02      -1.2        1.9547E-6  4.        
-0.04      -1.2        3.7982E-6  4.        
-0.06      -1.2        5.5223E-6  4.        
-0.08      -1.2        7.1216E-6  4.        
-0.1       -1.2        8.5937E-6  4.        
-0.12      -1.2        9.939E-6   4.        
-0.14      -1.2        11.16E-6   4.        
-0.16      -1.2        12.262E-6  4.        
-0.18      -1.2        13.251E-6  4.        
-0.2       -1.2        14.135E-6  4.        
-0.22      -1.2        14.923E-6  4.        
-0.24      -1.2        15.622E-6  4.        
-0.26      -1.2        16.242E-6  4.        
-0.28      -1.2        16.791E-6  4.        
-0.3       -1.2        17.276E-6  4.        
-0.32      -1.2        17.706E-6  4.        
-0.34      -1.2        18.086E-6  4.        
-0.36      -1.2        18.423E-6  4.        
-0.38      -1.2        18.722E-6  4.        
-0.4       -1.2        18.988E-6  4.        
-0.42      -1.2        19.226E-6  4.        
-0.44      -1.2        19.438E-6  4.        
-0.46      -1.2        19.628E-6  4.        
-0.48      -1.2        19.799E-6  4.        
-0.5       -1.2        19.953E-6  4.        
-0.52      -1.2        20.093E-6  4.        
-0.54      -1.2        20.22E-6   4.        
-0.56      -1.2        20.335E-6  4.        
-0.58      -1.2        20.441E-6  4.        
-0.6       -1.2        20.538E-6  4.        
-0.62      -1.2        20.628E-6  4.        
-0.64      -1.2        20.711E-6  4.        
-0.66      -1.2        20.787E-6  4.        
-0.68      -1.2        20.859E-6  4.        
-0.7       -1.2        20.926E-6  4.        
-0.72      -1.2        20.989E-6  4.        
-0.74      -1.2        21.048E-6  4.        
-0.76      -1.2        21.104E-6  4.        
-0.78      -1.2        21.157E-6  4.        
-0.8       -1.2        21.207E-6  4.        
-0.82      -1.2        21.255E-6  4.        
-0.84      -1.2        21.3E-6    4.        
-0.86      -1.2        21.344E-6  4.        
-0.88      -1.2        21.386E-6  4.        
-0.9       -1.2        21.426E-6  4.        
-0.92      -1.2        21.465E-6  4.        
-0.94      -1.2        21.503E-6  4.        
-0.96      -1.2        21.539E-6  4.        
-0.98      -1.2        21.575E-6  4.        
-1.        -1.2        21.609E-6  4.        
-1.02      -1.2        21.642E-6  4.        
-1.04      -1.2        21.675E-6  4.        
-1.06      -1.2        21.706E-6  4.        
-1.08      -1.2        21.737E-6  4.        
-1.1       -1.2        21.768E-6  4.        
-1.12      -1.2        21.797E-6  4.        
-1.14      -1.2        21.826E-6  4.        
-1.16      -1.2        21.855E-6  4.        
-1.18      -1.2        21.883E-6  4.        
-1.2       -1.2        21.911E-6  4.        
Gnucap   System status
iterations: op=0, dc=1464, tran=0, fourier=0, total=1464
transient timesteps: accepted=0, rejected=0, total=0
nodes: user=2, subckt=0, model=15, total=17
dctran density=40.8%, ac density=40.8%
