#           v(g)       i(tb.sd)   iter(0)   
 0.         0.2        0.         4.        
 0.02       0.2        0.         4.        
 0.04       0.2        0.         4.        
 0.06       0.2        0.         4.        
 0.08       0.2        0.         4.        
 0.1        0.2        0.         4.        
 0.12       0.2        0.         4.        
 0.14       0.2        0.         4.        
 0.16       0.2        0.         4.        
 0.18       0.2        0.         4.        
 0.2        0.2        0.         4.        
 0.22       0.2        0.         4.        
 0.24       0.2        0.         4.        
 0.26       0.2        0.         4.        
 0.28       0.2        0.         4.        
 0.3        0.2        0.         4.        
 0.32       0.2        0.         4.        
 0.34       0.2        0.         4.        
 0.36       0.2        0.         4.        
 0.38       0.2        0.         4.        
 0.4        0.2        0.         4.        
 0.42       0.2        0.         4.        
 0.44       0.2        0.         4.        
 0.46       0.2        0.         4.        
 0.48       0.2        0.         4.        
 0.5        0.2        0.         4.        
 0.52       0.2        0.         4.        
 0.54       0.2        0.         4.        
 0.56       0.2        0.         4.        
 0.58       0.2        0.         4.        
 0.6        0.2        0.         4.        
 0.62       0.2        0.         4.        
 0.64       0.2        0.         4.        
 0.66       0.2        0.         4.        
 0.68       0.2        0.         4.        
 0.7        0.2        0.         4.        
 0.72       0.2        0.         4.        
 0.74       0.2        0.         4.        
 0.76       0.2        0.         4.        
 0.78       0.2        0.         4.        
 0.8        0.2        0.         4.        
 0.82       0.2        0.         4.        
 0.84       0.2        0.         4.        
 0.86       0.2        0.         4.        
 0.88       0.2        0.         4.        
 0.9        0.2        0.         4.        
 0.92       0.2        0.         4.        
 0.94       0.2        0.         4.        
 0.96       0.2        0.         4.        
 0.98       0.2        0.         4.        
 1.         0.2        0.         4.        
 1.02       0.2        0.         4.        
 1.04       0.2        0.         4.        
 1.06       0.2        0.         4.        
 1.08       0.2        0.         4.        
 1.1        0.2        0.         4.        
 1.12       0.2        0.         4.        
 1.14       0.2        0.         4.        
 1.16       0.2        0.         4.        
 1.18       0.2        0.         4.        
 1.2        0.2        0.         4.        
 0.         0.4        0.         4.        
 0.02       0.4       -581.2E-12  4.        
 0.04       0.4       -849.5E-12  4.        
 0.06       0.4       -978.6E-12  4.        
 0.08       0.4       -1.0468E-9  4.        
 0.1        0.4       -1.0896E-9  4.        
 0.12       0.4        0.         4.        
 0.14       0.4        0.         4.        
 0.16       0.4        0.         4.        
 0.18       0.4        0.         4.        
 0.2        0.4        0.         4.        
 0.22       0.4        0.         4.        
 0.24       0.4        0.         4.        
 0.26       0.4        0.         4.        
 0.28       0.4        0.         4.        
 0.3        0.4        0.         4.        
 0.32       0.4        0.         4.        
 0.34       0.4        0.         4.        
 0.36       0.4        0.         4.        
 0.38       0.4        0.         4.        
 0.4        0.4        0.         4.        
 0.42       0.4        0.         4.        
 0.44       0.4        0.         4.        
 0.46       0.4        0.         4.        
 0.48       0.4        0.         4.        
 0.5        0.4        0.         4.        
 0.52       0.4        0.         4.        
 0.54       0.4        0.         4.        
 0.56       0.4        0.         4.        
 0.58       0.4        0.         4.        
 0.6        0.4        0.         4.        
 0.62       0.4        0.         4.        
 0.64       0.4        0.         4.        
 0.66       0.4        0.         4.        
 0.68       0.4        0.         4.        
 0.7        0.4        0.         4.        
 0.72       0.4        0.         4.        
 0.74       0.4        0.         4.        
 0.76       0.4        0.         4.        
 0.78       0.4        0.         4.        
 0.8        0.4        0.         4.        
 0.82       0.4        0.         4.        
 0.84       0.4        0.         4.        
 0.86       0.4        0.         4.        
 0.88       0.4        0.         4.        
 0.9        0.4        0.         4.        
 0.92       0.4        0.         4.        
 0.94       0.4        0.         4.        
 0.96       0.4        0.         4.        
 0.98       0.4        0.         4.        
 1.         0.4        0.         4.        
 1.02       0.4        0.         4.        
 1.04       0.4        0.         4.        
 1.06       0.4        0.         4.        
 1.08       0.4        0.         4.        
 1.1        0.4        0.         4.        
 1.12       0.4        0.         4.        
 1.14       0.4        0.         4.        
 1.16       0.4        0.         4.        
 1.18       0.4        0.         4.        
 1.2        0.4        0.         4.        
 0.         0.6        8.E-21     4.        
 0.02       0.6       -131.39E-9  4.        
 0.04       0.6       -199.67E-9  4.        
 0.06       0.6       -234.48E-9  4.        
 0.08       0.6       -253.59E-9  4.        
 0.1        0.6       -265.5E-9   4.        
 0.12       0.6       -274.02E-9  4.        
 0.14       0.6       -280.85E-9  4.        
 0.16       0.6       -286.79E-9  4.        
 0.18       0.6       -292.22E-9  4.        
 0.2        0.6       -297.37E-9  4.        
 0.22       0.6       -302.35E-9  4.        
 0.24       0.6       -307.21E-9  4.        
 0.26       0.6       -312.E-9    4.        
 0.28       0.6       -316.77E-9  4.        
 0.3        0.6       -321.51E-9  4.        
 0.32       0.6       -326.25E-9  4.        
 0.34       0.6       -330.99E-9  4.        
 0.36       0.6       -335.73E-9  4.        
 0.38       0.6       -340.5E-9   4.        
 0.4        0.6       -345.3E-9   4.        
 0.42       0.6       -350.1E-9   4.        
 0.44       0.6       -354.94E-9  4.        
 0.46       0.6       -359.82E-9  4.        
 0.48       0.6       -364.71E-9  4.        
 0.5        0.6       -369.65E-9  4.        
 0.52       0.6       -374.61E-9  4.        
 0.54       0.6       -379.62E-9  4.        
 0.56       0.6       -384.67E-9  4.        
 0.58       0.6       -389.75E-9  4.        
 0.6        0.6       -394.87E-9  4.        
 0.62       0.6       -400.04E-9  4.        
 0.64       0.6       -405.24E-9  4.        
 0.66       0.6       -410.49E-9  4.        
 0.68       0.6       -415.79E-9  4.        
 0.7        0.6       -421.15E-9  4.        
 0.72       0.6       -426.55E-9  4.        
 0.74       0.6       -432.E-9    4.        
 0.76       0.6       -437.47E-9  4.        
 0.78       0.6       -443.02E-9  4.        
 0.8        0.6       -448.59E-9  4.        
 0.82       0.6       -454.27E-9  4.        
 0.84       0.6       -459.93E-9  4.        
 0.86       0.6       -465.69E-9  4.        
 0.88       0.6       -471.48E-9  4.        
 0.9        0.6       -477.33E-9  4.        
 0.92       0.6       -483.24E-9  4.        
 0.94       0.6       -489.21E-9  4.        
 0.96       0.6       -495.22E-9  4.        
 0.98       0.6       -501.3E-9   4.        
 1.         0.6       -507.41E-9  4.        
 1.02       0.6       -513.61E-9  4.        
 1.04       0.6       -519.82E-9  4.        
 1.06       0.6       -526.15E-9  4.        
 1.08       0.6       -532.53E-9  4.        
 1.1        0.6       -538.93E-9  4.        
 1.12       0.6       -545.42E-9  4.        
 1.14       0.6       -551.94E-9  4.        
 1.16       0.6       -558.53E-9  4.        
 1.18       0.6       -565.21E-9  4.        
 1.2        0.6       -571.92E-9  4.        
 0.         0.8        295.E-21   4.        
 0.02       0.8       -1.7684E-6  4.        
 0.04       0.8       -3.2164E-6  4.        
 0.06       0.8       -4.354E-6   4.        
 0.08       0.8       -5.2232E-6  4.        
 0.1        0.8       -5.8787E-6  4.        
 0.12       0.8       -6.3738E-6  4.        
 0.14       0.8       -6.7528E-6  4.        
 0.16       0.8       -7.0495E-6  4.        
 0.18       0.8       -7.2884E-6  4.        
 0.2        0.8       -7.4865E-6  4.        
 0.22       0.8       -7.6554E-6  4.        
 0.24       0.8       -7.8033E-6  4.        
 0.26       0.8       -7.9356E-6  4.        
 0.28       0.8       -8.0563E-6  4.        
 0.3        0.8       -8.168E-6   4.        
 0.32       0.8       -8.2728E-6  4.        
 0.34       0.8       -8.372E-6   4.        
 0.36       0.8       -8.4668E-6  4.        
 0.38       0.8       -8.5578E-6  4.        
 0.4        0.8       -8.6458E-6  4.        
 0.42       0.8       -8.7312E-6  4.        
 0.44       0.8       -8.8144E-6  4.        
 0.46       0.8       -8.8956E-6  4.        
 0.48       0.8       -8.9752E-6  4.        
 0.5        0.8       -9.0533E-6  4.        
 0.52       0.8       -9.1301E-6  4.        
 0.54       0.8       -9.2058E-6  4.        
 0.56       0.8       -9.2804E-6  4.        
 0.58       0.8       -9.3541E-6  4.        
 0.6        0.8       -9.427E-6   4.        
 0.62       0.8       -9.4991E-6  4.        
 0.64       0.8       -9.5705E-6  4.        
 0.66       0.8       -9.6412E-6  4.        
 0.68       0.8       -9.7114E-6  4.        
 0.7        0.8       -9.7811E-6  4.        
 0.72       0.8       -9.8502E-6  4.        
 0.74       0.8       -9.9189E-6  4.        
 0.76       0.8       -9.9872E-6  4.        
 0.78       0.8       -10.055E-6  4.        
 0.8        0.8       -10.123E-6  4.        
 0.82       0.8       -10.19E-6   4.        
 0.84       0.8       -10.257E-6  4.        
 0.86       0.8       -10.323E-6  4.        
 0.88       0.8       -10.39E-6   4.        
 0.9        0.8       -10.456E-6  4.        
 0.92       0.8       -10.522E-6  4.        
 0.94       0.8       -10.588E-6  4.        
 0.96       0.8       -10.653E-6  4.        
 0.98       0.8       -10.718E-6  4.        
 1.         0.8       -10.784E-6  4.        
 1.02       0.8       -10.849E-6  4.        
 1.04       0.8       -10.913E-6  4.        
 1.06       0.8       -10.978E-6  4.        
 1.08       0.8       -11.043E-6  4.        
 1.1        0.8       -11.107E-6  4.        
 1.12       0.8       -11.172E-6  4.        
 1.14       0.8       -11.236E-6  4.        
 1.16       0.8       -11.3E-6    4.        
 1.18       0.8       -11.364E-6  4.        
 1.2        0.8       -11.428E-6  4.        
 0.         1.         20.26E-18  4.        
 0.02       1.        -4.1558E-6  4.        
 0.04       1.        -7.962E-6   4.        
 0.06       1.        -11.389E-6  4.        
 0.08       1.        -14.43E-6   4.        
 0.1        1.        -17.097E-6  4.        
 0.12       1.        -19.416E-6  4.        
 0.14       1.        -21.42E-6   4.        
 0.16       1.        -23.146E-6  4.        
 0.18       1.        -24.631E-6  4.        
 0.2        1.        -25.911E-6  4.        
 0.22       1.        -27.017E-6  4.        
 0.24       1.        -27.976E-6  4.        
 0.26       1.        -28.814E-6  4.        
 0.28       1.        -29.551E-6  4.        
 0.3        1.        -30.203E-6  4.        
 0.32       1.        -30.784E-6  4.        
 0.34       1.        -31.306E-6  4.        
 0.36       1.        -31.779E-6  4.        
 0.38       1.        -32.211E-6  4.        
 0.4        1.        -32.608E-6  4.        
 0.42       1.        -32.974E-6  4.        
 0.44       1.        -33.316E-6  4.        
 0.46       1.        -33.636E-6  4.        
 0.48       1.        -33.937E-6  4.        
 0.5        1.        -34.222E-6  4.        
 0.52       1.        -34.493E-6  4.        
 0.54       1.        -34.751E-6  4.        
 0.56       1.        -34.999E-6  4.        
 0.58       1.        -35.237E-6  4.        
 0.6        1.        -35.467E-6  4.        
 0.62       1.        -35.689E-6  4.        
 0.64       1.        -35.904E-6  4.        
 0.66       1.        -36.113E-6  4.        
 0.68       1.        -36.316E-6  4.        
 0.7        1.        -36.515E-6  4.        
 0.72       1.        -36.708E-6  4.        
 0.74       1.        -36.898E-6  4.        
 0.76       1.        -37.084E-6  4.        
 0.78       1.        -37.266E-6  4.        
 0.8        1.        -37.445E-6  4.        
 0.82       1.        -37.622E-6  4.        
 0.84       1.        -37.795E-6  4.        
 0.86       1.        -37.966E-6  4.        
 0.88       1.        -38.134E-6  4.        
 0.9        1.        -38.3E-6    4.        
 0.92       1.        -38.465E-6  4.        
 0.94       1.        -38.627E-6  4.        
 0.96       1.        -38.787E-6  4.        
 0.98       1.        -38.946E-6  4.        
 1.         1.        -39.103E-6  4.        
 1.02       1.        -39.258E-6  4.        
 1.04       1.        -39.412E-6  4.        
 1.06       1.        -39.565E-6  4.        
 1.08       1.        -39.717E-6  4.        
 1.1        1.        -39.867E-6  4.        
 1.12       1.        -40.016E-6  4.        
 1.14       1.        -40.164E-6  4.        
 1.16       1.        -40.311E-6  4.        
 1.18       1.        -40.457E-6  4.        
 1.2        1.        -40.602E-6  4.        
 0.         1.2        92.6E-18   5.        
 0.02       1.2       -6.5152E-6  4.        
 0.04       1.2       -12.699E-6  4.        
 0.06       1.2       -18.513E-6  4.        
 0.08       1.2       -23.934E-6  4.        
 0.1        1.2       -28.949E-6  4.        
 0.12       1.2       -33.558E-6  4.        
 0.14       1.2       -37.772E-6  4.        
 0.16       1.2       -41.606E-6  4.        
 0.18       1.2       -45.081E-6  4.        
 0.2        1.2       -48.224E-6  4.        
 0.22       1.2       -51.059E-6  4.        
 0.24       1.2       -53.616E-6  4.        
 0.26       1.2       -55.919E-6  4.        
 0.28       1.2       -57.995E-6  4.        
 0.3        1.2       -59.868E-6  4.        
 0.32       1.2       -61.561E-6  4.        
 0.34       1.2       -63.093E-6  4.        
 0.36       1.2       -64.483E-6  4.        
 0.38       1.2       -65.747E-6  4.        
 0.4        1.2       -66.901E-6  4.        
 0.42       1.2       -67.957E-6  4.        
 0.44       1.2       -68.927E-6  4.        
 0.46       1.2       -69.821E-6  4.        
 0.48       1.2       -70.648E-6  4.        
 0.5        1.2       -71.415E-6  4.        
 0.52       1.2       -72.13E-6   4.        
 0.54       1.2       -72.797E-6  4.        
 0.56       1.2       -73.424E-6  4.        
 0.58       1.2       -74.013E-6  4.        
 0.6        1.2       -74.569E-6  4.        
 0.62       1.2       -75.095E-6  4.        
 0.64       1.2       -75.594E-6  4.        
 0.66       1.2       -76.07E-6   4.        
 0.68       1.2       -76.524E-6  4.        
 0.7        1.2       -76.959E-6  4.        
 0.72       1.2       -77.376E-6  4.        
 0.74       1.2       -77.777E-6  4.        
 0.76       1.2       -78.164E-6  4.        
 0.78       1.2       -78.537E-6  4.        
 0.8        1.2       -78.898E-6  4.        
 0.82       1.2       -79.247E-6  4.        
 0.84       1.2       -79.587E-6  4.        
 0.86       1.2       -79.917E-6  4.        
 0.88       1.2       -80.238E-6  4.        
 0.9        1.2       -80.552E-6  4.        
 0.92       1.2       -80.857E-6  4.        
 0.94       1.2       -81.156E-6  4.        
 0.96       1.2       -81.449E-6  4.        
 0.98       1.2       -81.735E-6  4.        
 1.         1.2       -82.016E-6  4.        
 1.02       1.2       -82.292E-6  4.        
 1.04       1.2       -82.563E-6  4.        
 1.06       1.2       -82.829E-6  4.        
 1.08       1.2       -83.091E-6  4.        
 1.1        1.2       -83.349E-6  4.        
 1.12       1.2       -83.603E-6  4.        
 1.14       1.2       -83.853E-6  4.        
 1.16       1.2       -84.1E-6    4.        
 1.18       1.2       -84.344E-6  4.        
 1.2        1.2       -84.585E-6  4.        
Gnucap   System status
iterations: op=0, dc=1465, tran=0, fourier=0, total=1465
transient timesteps: accepted=0, rejected=0, total=0
nodes: user=2, subckt=0, model=33, total=35
dctran density=60.1%, ac density=60.1%
