#           v(vgs1)    v(vgs2)    v(vgs3)    v(vgs4)   
 1.         0.8171     0.80982   -1.1031    -1.0899    
 2.         0.81168    0.81463   -1.1071    -1.1031    
 3.         0.80639    0.80648   -1.1079    -1.0913    
 4.         0.82031    0.8034    -1.0992    -1.0969    
 5.         0.81378    0.81055   -1.11      -1.0957    
 6.         0.82076    0.81647   -1.1001    -1.0971    
 7.         0.80814    0.82253   -1.1041    -1.1048    
 8.         0.82077    0.80556   -1.0932    -1.0958    
 9.         0.79399    0.81706   -1.0779    -1.1052    
 10.        0.79216    0.81346   -1.0849    -1.1025    
 11.        0.79308    0.82176   -1.1147    -1.1055    
 12.        0.81955    0.82894   -1.1039    -1.104     
 13.        0.81619    0.81948   -1.1057    -1.0965    
 14.        0.82095    0.82506   -1.1017    -1.1056    
 15.        0.80712    0.82251   -1.1126    -1.1037    
 16.        0.82578    0.80166   -1.0994    -1.097     
 17.        0.80858    0.81184   -1.1054    -1.0964    
 18.        0.81538    0.81428   -1.1011    -1.1009    
 19.        0.80675    0.81087   -1.1054    -1.087     
 20.        0.82274    0.79621   -1.0909    -1.1058    
 21.        0.79088    0.80086   -1.1124    -1.1008    
 22.        0.82809    0.81212   -1.0957    -1.1158    
 23.        0.79559    0.80569   -1.1047    -1.1159    
 24.        0.8182     0.80745   -1.1034    -1.0986    
 25.        0.81781    0.79737   -1.1047    -1.1141    
 26.        0.80943    0.81465   -1.1022    -1.1045    
 27.        0.80693    0.81039   -1.1157    -1.1041    
 28.        0.83112    0.8084    -1.104     -1.1007    
 29.        0.80653    0.8131    -1.098     -1.1068    
 30.        0.79942    0.82067   -1.0969    -1.091     
 31.        0.8066     0.81025   -1.1106    -1.0973    
 32.        0.824      0.82748   -1.0869    -1.1162    
 33.        0.79411    0.79446   -1.1083    -1.1002    
 34.        0.82769    0.79577   -1.0984    -1.1013    
 35.        0.79785    0.79337   -1.1092    -1.1142    
 36.        0.82191    0.80761   -1.1002    -1.1003    
 37.        0.80878    0.81853   -1.0982    -1.0971    
 38.        0.80319    0.81851   -1.1144    -1.0929    
 39.        0.83202    0.79849   -1.1066    -1.1054    
 40.        0.81598    0.80325   -1.0966    -1.1119    
 41.        0.80207    0.82161   -1.1023    -1.0909    
 42.        0.8085     0.80233   -1.0869    -1.1082    
 43.        0.79099    0.80191   -1.1006    -1.1035    
 44.        0.80809    0.82727   -1.0962    -1.1016    
 45.        0.79963    0.81436   -1.1084    -1.1085    
 46.        0.82261    0.81398   -1.0955    -1.0851    
 47.        0.80624    0.80734   -1.1053    -1.1025    
 48.        0.82091    0.80705   -1.0967    -1.0922    
 49.        0.8001     0.79158   -1.1092    -1.112     
 50.        0.82074    0.80941   -1.1064    -1.1041    
 51.        0.81195    0.80528   -1.1049    -1.0983    
 52.        0.81683    0.82646   -1.0972    -1.105     
 53.        0.8035     0.81669   -1.1158    -1.1027    
 54.        0.82906    0.80675   -1.0887    -1.1122    
 55.        0.79028    0.8155    -1.1021    -1.1078    
 56.        0.81419    0.81176   -1.0954    -1.0983    
 57.        0.80238    0.7979    -1.1062    -1.086     
 58.        0.81999    0.81772   -1.0907    -1.1094    
 59.        0.79568    0.80792   -1.1089    -1.0921    
 60.        0.82496    0.82487   -1.1073    -1.1056    
 61.        0.81896    0.82169   -1.1053    -1.1081    
 62.        0.81707    0.80985   -1.1028    -1.1106    
 63.        0.82189    0.80856   -1.0999    -1.1049    
 64.        0.80712    0.81627   -1.0971    -1.1011    
 65.        0.80354    0.79446   -1.119     -1.1       
 66.        0.83081    0.81237   -1.1012    -1.1006    
 67.        0.80848    0.80708   -1.1128    -1.0998    
 68.        0.83727    0.8144    -1.088     -1.0881    
 69.        0.7991     0.80676   -1.1053    -1.1189    
 70.        0.82318    0.82156   -1.0965    -1.0973    
 71.        0.80247    0.82837   -1.1046    -1.1065    
 72.        0.81365    0.8265    -1.1041    -1.1082    
 73.        0.81167    0.83727   -1.1056    -1.1193    
 74.        0.81556    0.83686   -1.095     -1.1034    
 75.        0.80465    0.81272   -1.0982    -1.106     
 76.        0.79954    0.81058   -1.0949    -1.0979    
 77.        0.80296    0.81987   -1.1038    -1.0956    
 78.        0.80912    0.80336   -1.0935    -1.0877    
 79.        0.80218    0.80256   -1.115     -1.1131    
 80.        0.82512    0.8132    -1.098     -1.1016    
 81.        0.80278    0.82226   -1.1125    -1.0905    
 82.        0.82736    0.81792   -1.0971    -1.1036    
 83.        0.82025    0.80452   -1.0932    -1.0998    
 84.        0.80467    0.79954   -1.0948    -1.0879    
 85.        0.79902    0.80183   -1.1039    -1.0915    
 86.        0.82031    0.81551   -1.0939    -1.1022    
 87.        0.80292    0.80281   -1.1115    -1.1096    
 88.        0.83095    0.82617   -1.0811    -1.0948    
 89.        0.78046    0.80699   -1.099     -1.1121    
 90.        0.81727    0.81721   -1.0953    -1.1045    
 91.        0.807      0.81071   -1.1077    -1.1159    
 92.        0.81855    0.80019   -1.1075    -1.1013    
 93.        0.82054    0.81651   -1.1023    -1.1063    
 94.        0.81639    0.81708   -1.1076    -1.1036    
 95.        0.81908    0.80047   -1.1021    -1.0936    
 96.        0.81244    0.82014   -1.103     -1.1073    
 97.        0.81954    0.81699   -1.1136    -1.0974    
 98.        0.8152     0.80875   -1.1052    -1.1007    
 99.        0.81402    0.81834   -1.1205    -1.0981    
 100.       0.83912    0.80517   -1.0984    -1.1071    
 101.       0.8001     0.80505   -1.108     -1.121     
 102.       0.82265    0.82022   -1.0993    -1.1       
 103.       0.81171    0.80878   -1.0988    -1.0848    
 104.       0.81463    0.80923   -1.108     -1.1097    
 105.       0.81842    0.81598   -1.1042    -1.089     
 106.       0.81348    0.80704   -1.1097    -1.1064    
 107.       0.81847    0.80436   -1.1094    -1.0992    
 108.       0.81774    0.81154   -1.1018    -1.1137    
 109.       0.81036    0.8048    -1.1088    -1.1072    
 110.       0.81828    0.80631   -1.1119    -1.0956    
 111.       0.82345    0.81832   -1.12      -1.112     
 112.       0.83884    0.81549   -1.0949    -1.0998    
 113.       0.80389    0.81533   -1.1086    -1.1063    
 114.       0.82095    0.8136    -1.0909    -1.1113    
 115.       0.79395    0.8252    -1.0915    -1.1055    
 116.       0.80412    0.81922   -1.093     -1.1078    
 117.       0.80909    0.81501   -1.0945    -1.0916    
 118.       0.8102     0.82486   -1.1044    -1.1024    
 119.       0.8166     0.80939   -1.0961    -1.1011    
 120.       0.80155    0.81907   -1.102     -1.102     
 121.       0.80855    0.81162   -1.1138    -1.1005    
 122.       0.82603    0.80192   -1.1066    -1.1041    
 123.       0.80815    0.81352   -1.1047    -1.1025    
 124.       0.81907    0.79808   -1.1031    -1.0954    
 125.       0.80619    0.8062    -1.1026    -1.0958    
 126.       0.81646    0.80813   -1.1045    -1.1017    
 127.       0.80943    0.78851   -1.0926    -1.0958    
 128.       0.7985     0.79104   -1.1065    -1.1111    
 129.       0.81527    0.82248   -1.1008    -1.0967    
 130.       0.81085    0.8144    -1.1002    -1.0819    
 131.       0.81358    0.82368   -1.1083    -1.0921    
 132.       0.82129    0.82991   -1.0979    -1.0981    
 133.       0.80379    0.81652   -1.1094    -1.1033    
 134.       0.82503    0.81513   -1.0943    -1.1122    
 135.       0.80108    0.82196   -1.1022    -1.1081    
 136.       0.81171    0.80685   -1.1013    -1.1036    
 137.       0.80777    0.82333   -1.1007    -1.095     
 138.       0.81042    0.80341   -1.0919    -1.101     
 139.       0.80285    0.826     -1.099     -1.1167    
 140.       0.8063     0.80795   -1.1094    -1.0999    
 141.       0.81477    0.81454   -1.0901    -1.1082    
 142.       0.79485    0.82813   -1.1073    -1.1047    
 143.       0.82232    0.79953   -1.1076    -1.0984    
 144.       0.81461    0.80912   -1.0872    -1.1119    
 145.       0.79662    0.80841   -1.1069    -1.0873    
 146.       0.82144    0.83257   -1.1096    -1.1186    
 147.       0.81396    0.82983   -1.0834    -1.0963    
 148.       0.79393    0.817     -1.1077    -1.1058    
 149.       0.82283    0.81032   -1.0968    -1.1097    
 150.       0.8041     0.8256    -1.1112    -1.1049    
 151.       0.82589    0.81098   -1.0944    -1.1014    
 152.       0.81241    0.79712   -1.0961    -1.0943    
 153.       0.80771    0.81658   -1.108     -1.1042    
 154.       0.81953    0.81548   -1.1068    -1.0896    
 155.       0.81737    0.80793   -1.1049    -1.0921    
 156.       0.80782    0.82131   -1.1131    -1.1057    
 157.       0.82743    0.80914   -1.0914    -1.091     
 158.       0.79717    0.83585   -1.1023    -1.1207    
 159.       0.81733    0.8256    -1.1018    -1.1027    
 160.       0.81168    0.82644   -1.0977    -1.1089    
 161.       0.80635    0.81355   -1.0912    -1.1024    
 162.       0.80583    0.81402   -1.1036    -1.1061    
 163.       0.81601    0.82633   -1.0985    -1.1081    
 164.       0.80891    0.81123   -1.1069    -1.0991    
 165.       0.81628    0.81127   -1.0984    -1.1097    
 166.       0.80565    0.79954   -1.1093    -1.0961    
 167.       0.81925    0.81133   -1.122     -1.0974    
 168.       0.84322    0.79057   -1.1143    -1.1184    
 169.       0.82309    0.80027   -1.0947    -1.102     
 170.       0.79948    0.80154   -1.1127    -1.1093    
 171.       0.82375    0.80867   -1.1047    -1.0966    
 172.       0.81294    0.79637   -1.1054    -1.1072    
 173.       0.80986    0.81794   -1.1009    -1.1124    
 174.       0.80926    0.81671   -1.0937    -1.0959    
 175.       0.80116    0.82326   -1.1029    -1.0822    
 176.       0.8161     0.81435   -1.1058    -1.0966    
 177.       0.82095    0.81057   -1.0951    -1.1222    
 178.       0.79637    0.83397   -1.1063    -1.1       
 179.       0.82044    0.80497   -1.0885    -1.1063    
 180.       0.7956     0.83195   -1.1061    -1.1179    
 181.       0.82147    0.80095   -1.0978    -1.0982    
 182.       0.80237    0.80367   -1.1096    -1.095     
 183.       0.82151    0.80654   -1.1033    -1.104     
 184.       0.80952    0.80226   -1.1024    -1.1088    
 185.       0.80344    0.81965   -1.1054    -1.0944    
 186.       0.81258    0.81612   -1.1033    -1.0933    
 187.       0.80966    0.81082   -1.1149    -1.0937    
 188.       0.83369    0.81279   -1.1105    -1.1053    
 189.       0.82648    0.8162    -1.0888    -1.0967    
 190.       0.78777    0.81538   -1.1129    -1.1074    
 191.       0.82677    0.82348   -1.097     -1.0939    
 192.       0.79979    0.81299   -1.1113    -1.1036    
 193.       0.81907    0.79611   -1.0983    -1.0989    
 194.       0.80791    0.81216   -1.1028    -1.1018    
 195.       0.81451    0.80143   -1.1086    -1.1139    
 196.       0.8194     0.80391   -1.0995    -1.107     
 197.       0.81062    0.81227   -1.1036    -1.1175    
 198.       0.80888    0.82197   -1.1033    -1.0921    
 199.       0.81685    0.81048   -1.1047    -1.1014    
 200.       0.81282    0.82679   -1.1086    -1.1107    
 201.       0.81478    0.81982   -1.0818    -1.0989    
 202.       0.79076    0.81741   -1.1094    -1.0996    
 203.       0.82617    0.82859   -1.0937    -1.0976    
 204.       0.80079    0.83022   -1.1071    -1.115     
 205.       0.81752    0.80874   -1.1019    -1.0998    
 206.       0.8121     0.81957   -1.0963    -1.1112    
 207.       0.80096    0.80608   -1.1094    -1.1053    
 208.       0.82217    0.79086   -1.1011    -1.1146    
 209.       0.81891    0.82438   -1.1034    -1.0998    
 210.       0.81013    0.81258   -1.1033    -1.1058    
 211.       0.81014    0.79695   -1.0957    -1.0913    
 212.       0.79887    0.83337   -1.1185    -1.1078    
 213.       0.82432    0.79922   -1.0894    -1.0931    
 214.       0.79608    0.80738   -1.1109    -1.1031    
 215.       0.82212    0.82119   -1.0986    -1.094     
 216.       0.80433    0.8077    -1.092     -1.0962    
 217.       0.8019     0.78636   -1.112     -1.1023    
 218.       0.82706    0.81487   -1.0985    -1.1018    
 219.       0.80488    0.80624   -1.1108    -1.1167    
 220.       0.82227    0.81995   -1.0985    -1.0984    
 221.       0.80661    0.81686   -1.1017    -1.0955    
 222.       0.80942    0.80903   -1.1041    -1.0959    
 223.       0.81669    0.80786   -1.0905    -1.0874    
 224.       0.79628    0.81629   -1.113     -1.111     
 225.       0.82455    0.79025   -1.0969    -1.1038    
 226.       0.80905    0.81364   -1.1078    -1.1066    
 227.       0.82061    0.7934    -1.0985    -1.1038    
 228.       0.81059    0.82184   -1.1024    -1.1042    
 229.       0.81241    0.81959   -1.1033    -1.1004    
 230.       0.80129    0.81383   -1.0965    -1.1193    
 231.       0.80335    0.79943   -1.0973    -1.1036    
 232.       0.80922    0.81246   -1.109     -1.0926    
 233.       0.81597    0.81343   -1.083     -1.0953    
 234.       0.79022    0.80328   -1.1201    -1.1085    
 235.       0.83476    0.81866   -1.1073    -1.0855    
 236.       0.80886    0.81164   -1.1172    -1.1203    
 237.       0.82551    0.81327   -1.0986    -1.1105    
 238.       0.80564    0.80845   -1.108     -1.1027    
 239.       0.81645    0.80407   -1.1085    -1.1131    
 240.       0.81643    0.79825   -1.0988    -1.0986    
 241.       0.8035     0.79722   -1.1064    -1.116     
 242.       0.80962    0.81338   -1.1016    -1.1186    
 243.       0.81502    0.80892   -1.0884    -1.1108    
 244.       0.79529    0.83743   -1.1136    -1.1029    
 245.       0.82355    0.81965   -1.0892    -1.095     
 246.       0.79748    0.82577   -1.1181    -1.1245    
 247.       0.83492    0.80513   -1.0982    -1.1162    
 248.       0.80882    0.82033   -1.1093    -1.1089    
 249.       0.82481    0.81009   -1.0979    -1.1125    
 250.       0.80695    0.82546   -1.1057    -1.0922    
 251.       0.81313    0.81432   -1.0943    -1.1015    
 252.       0.80737    0.82545   -1.1056    -1.0974    
 253.       0.81447    0.80904   -1.1078    -1.0985    
 254.       0.80716    0.80777   -1.1077    -1.1054    
 255.       0.8183     0.80672   -1.0989    -1.0977    
 256.       0.80087    0.80191   -1.1122    -1.1145    
 257.       0.8304     0.79953   -1.0991    -1.1019    
 258.       0.80294    0.79113   -1.1119    -1.1032    
 259.       0.82191    0.8084    -1.1076    -1.1077    
 260.       0.82615    0.79791   -1.1076    -1.0965    
 261.       0.82232    0.80077   -1.0953    -1.1026    
 262.       0.80663    0.80844   -1.0937    -1.0888    
 263.       0.80797    0.81371   -1.0909    -1.1049    
 264.       0.79997    0.81893   -1.0982    -1.105     
 265.       0.79815    0.80912   -1.0991    -1.0985    
 266.       0.80938    0.8297    -1.1105    -1.1197    
 267.       0.82347    0.79832   -1.0917    -1.1052    
 268.       0.79892    0.82715   -1.1201    -1.1018    
 269.       0.83773    0.81719   -1.0984    -1.1025    
 270.       0.80369    0.81554   -1.1087    -1.0976    
 271.       0.82107    0.8003    -1.0877    -1.1043    
 272.       0.79502    0.81091   -1.106     -1.0938    
 273.       0.81611    0.81148   -1.1129    -1.1102    
 274.       0.82254    0.80209   -1.099     -1.1155    
 275.       0.81513    0.81623   -1.0983    -1.101     
 276.       0.80372    0.80217   -1.1107    -1.1225    
 277.       0.82515    0.81446   -1.0959    -1.1041    
 278.       0.81049    0.79359   -1.114     -1.1006    
 279.       0.82509    0.81571   -1.0978    -1.1099    
 280.       0.80446    0.82472   -1.1147    -1.1033    
 281.       0.83625    0.81347   -1.1064    -1.0976    
 282.       0.81092    0.8144    -1.0931    -1.0995    
 283.       0.80568    0.81412   -1.1063    -1.098     
 284.       0.81803    0.81696   -1.104     -1.0917    
 285.       0.80933    0.80565   -1.106     -1.1143    
 286.       0.8172     0.82705   -1.1122    -1.1112    
 287.       0.82447    0.80312   -1.0987    -1.1233    
 288.       0.80653    0.81089   -1.1041    -1.1004    
 289.       0.81805    0.82571   -1.1008    -1.0923    
 290.       0.81288    0.80846   -1.1201    -1.1024    
 291.       0.8311     0.82364   -1.1035    -1.101     
 292.       0.81351    0.81856   -1.1083    -1.0883    
 293.       0.82317    0.81977   -1.1036    -1.0955    
 294.       0.81881    0.81881   -1.1051    -1.1159    
 295.       0.81901    0.80957   -1.1056    -1.0931    
 296.       0.81843    0.83864   -1.1051    -1.1052    
 297.       0.81365    0.82079   -1.1002    -1.1091    
 298.       0.81103    0.81823   -1.1158    -1.1096    
 299.       0.82051    0.80821   -1.1056    -1.088     
 300.       0.8122     0.8026    -1.1076    -1.1069    
 301.       0.81859    0.79225   -1.1076    -1.0911    
 302.       0.81038    0.80848   -1.0827    -1.1027    
 303.       0.78918    0.79949   -1.0976    -1.1087    
 304.       0.81245    0.81341   -1.0979    -1.094     
 305.       0.80312    0.8058    -1.0944    -1.1191    
 306.       0.80804    0.79908   -1.1055    -1.1003    
 307.       0.81671    0.82269   -1.1094    -1.1051    
 308.       0.82477    0.8186    -1.1034    -1.1055    
 309.       0.81251    0.81917   -1.1074    -1.0893    
 310.       0.81795    0.8179    -1.1039    -1.1027    
 311.       0.81005    0.80957   -1.0852    -1.0849    
 312.       0.79852    0.79497   -1.1046    -1.0805    
 313.       0.81378    0.82074   -1.1061    -1.1061    
 314.       0.81043    0.79544   -1.0984    -1.1108    
 315.       0.80709    0.82975   -1.0996    -1.1004    
 316.       0.81191    0.81868   -1.098     -1.0967    
 317.       0.80931    0.81018   -1.1033    -1.1096    
 318.       0.81319    0.81155   -1.0958    -1.102     
 319.       0.80219    0.8203    -1.0997    -1.1035    
 320.       0.80586    0.79179   -1.1055    -1.105     
 321.       0.81478    0.79652   -1.1019    -1.1035    
 322.       0.80798    0.81026   -1.102     -1.1041    
 323.       0.80729    0.79174   -1.1025    -1.0992    
 324.       0.819      0.81428   -1.0858    -1.0994    
 325.       0.78941    0.8145    -1.1079    -1.1125    
 326.       0.81572    0.81426   -1.1022    -1.1042    
 327.       0.81177    0.81078   -1.1124    -1.1043    
 328.       0.82815    0.82495   -1.1035    -1.0976    
 329.       0.8145     0.81607   -1.0929    -1.1019    
 330.       0.80389    0.80243   -1.0991    -1.1172    
 331.       0.80012    0.81111   -1.1017    -1.1138    
 332.       0.81608    0.81427   -1.1019    -1.1159    
 333.       0.81397    0.83323   -1.1032    -1.0854    
 334.       0.81038    0.8098    -1.0995    -1.1081    
 335.       0.8104     0.8059    -1.1106    -1.1139    
 336.       0.82149    0.81471   -1.0875    -1.087     
 337.       0.79403    0.81602   -1.105     -1.1077    
 338.       0.82108    0.81586   -1.0962    -1.1169    
 339.       0.80721    0.8294    -1.0988    -1.0952    
 340.       0.80187    0.80271   -1.101     -1.1026    
 341.       0.81206    0.81147   -1.0937    -1.0942    
 342.       0.80243    0.79834   -1.0992    -1.1137    
 343.       0.80932    0.80014   -1.0948    -1.0834    
 344.       0.79984    0.81012   -1.1004    -1.1031    
 345.       0.80524    0.80408   -1.1067    -1.1157    
 346.       0.81824    0.80181   -1.0968    -1.0987    
 347.       0.79602    0.81      -1.1063    -1.1077    
 348.       0.8192     0.81962   -1.1001    -1.0925    
 349.       0.80474    0.80452   -1.1076    -1.1005    
 350.       0.82303    0.82139   -1.1031    -1.0995    
 351.       0.8061     0.83119   -1.0983    -1.1038    
 352.       0.7973     0.80288   -1.0981    -1.1141    
 353.       0.81358    0.83091   -1.1024    -1.1023    
 354.       0.81018    0.81896   -1.1008    -1.1046    
 355.       0.8083     0.8151    -1.0974    -1.0958    
 356.       0.80381    0.81705   -1.0966    -1.1007    
