#           v(vgs1)    v(vgs2)    v(vgs3)    v(vgs4)   
 1.         0.89215    0.88386   -1.0186    -1.0051    
 2.         0.88569    0.88949   -1.0229    -1.0183    
 3.         0.8814     0.88145   -1.0233    -1.0061    
 4.         0.89512    0.87849   -1.014     -1.0122    
 5.         0.88805    0.88578   -1.0253    -1.0109    
 6.         0.89574    0.89133   -1.0156    -1.0122    
 7.         0.88279    0.89799   -1.0187    -1.0201    
 8.         0.89556    0.88037   -1.0087    -1.0116    
 9.         0.86951    0.89157   -0.99236   -1.0201    
 10.        0.86668    0.88748   -0.99926   -1.017     
 11.        0.86774    0.89613   -1.03      -1.0213    
 12.        0.89519    0.90282   -1.0191    -1.0192    
 13.        0.89151    0.89405   -1.0209    -1.0114    
 14.        0.89503    0.8995    -1.0171    -1.0211    
 15.        0.88212    0.89699   -1.0281    -1.0187    
 16.        0.90029    0.87636   -1.0145    -1.0124    
 17.        0.88336    0.88604   -1.021     -1.0113    
 18.        0.88952    0.8892    -1.0166    -1.0158    
 19.        0.88087    0.88585   -1.0199    -1.0024    
 20.        0.89763    0.87167   -1.0065    -1.0212    
 21.        0.86612    0.87553   -1.0275    -1.016     
 22.        0.9026     0.88623   -1.0111    -1.0308    
 23.        0.87059    0.88039   -1.0199    -1.0312    
 24.        0.89339    0.88255   -1.0184    -1.0137    
 25.        0.89179    0.87183   -1.0197    -1.0294    
 26.        0.88535    0.88917   -1.0178    -1.0199    
 27.        0.8824     0.88525   -1.0307    -1.0197    
 28.        0.90557    0.88304   -1.0194    -1.016     
 29.        0.88199    0.88821   -1.0137    -1.0219    
 30.        0.87529    0.89532   -1.0121    -1.0061    
 31.        0.88035    0.88476   -1.0256    -1.0125    
 32.        0.8989     0.9023    -1.0018    -1.0311    
 33.        0.86867    0.86951   -1.0229    -1.0152    
 34.        0.90231    0.87076   -1.0141    -1.0168    
 35.        0.87297    0.8683    -1.0246    -1.0296    
 36.        0.89635    0.88336   -1.0152    -1.0157    
 37.        0.88362    0.89316   -1.0134    -1.0122    
 38.        0.87874    0.89286   -1.0295    -1.008     
 39.        0.90634    0.87394   -1.0216    -1.0202    
 40.        0.8908     0.87824   -1.0118    -1.0272    
 41.        0.87735    0.89751   -1.0176    -1.0062    
 42.        0.88289    0.87778   -1.0017    -1.0231    
 43.        0.86721    0.87668   -1.0162    -1.0189    
 44.        0.88327    0.90238   -1.0118    -1.0166    
 45.        0.87385    0.88927   -1.0234    -1.0238    
 46.        0.89765    0.88893   -1.0107    -0.99994   
 47.        0.88072    0.88237   -1.0203    -1.0176    
 48.        0.895      0.88226   -1.0121    -1.0069    
 49.        0.87496    0.8669    -1.0242    -1.027     
 50.        0.89585    0.88474   -1.0219    -1.0197    
 51.        0.8866     0.88008   -1.0197    -1.0138    
 52.        0.89218    0.90073   -1.0123    -1.0199    
 53.        0.87884    0.89164   -1.0309    -1.018     
 54.        0.90384    0.88157   -1.0037    -1.0279    
 55.        0.86606    0.89045   -1.0175    -1.0228    
 56.        0.88817    0.88623   -1.0103    -1.0136    
 57.        0.87659    0.87265   -1.021     -1.001     
 58.        0.89522    0.8922    -1.0061    -1.0246    
 59.        0.87067    0.88268   -1.024     -1.0071    
 60.        0.89928    0.89919   -1.0224    -1.021     
 61.        0.89367    0.89535   -1.0205    -1.0241    
 62.        0.89135    0.88452   -1.0173    -1.0255    
 63.        0.89672    0.88383   -1.0151    -1.0205    
 64.        0.88236    0.8913    -1.0126    -1.0157    
 65.        0.87792    0.86924   -1.0342    -1.0154    
 66.        0.90571    0.88714   -1.0165    -1.0158    
 67.        0.88385    0.8812    -1.0274    -1.0152    
 68.        0.9114     0.8894    -1.0023    -1.0033    
 69.        0.87444    0.8825    -1.0202    -1.0338    
 70.        0.8977     0.89619   -1.0116    -1.0117    
 71.        0.87701    0.90317   -1.0195    -1.0214    
 72.        0.8893     0.9013    -1.0196    -1.0232    
 73.        0.88659    0.91205   -1.0211    -1.0345    
 74.        0.88948    0.91163   -1.0099    -1.0182    
 75.        0.87949    0.88743   -1.0139    -1.0213    
 76.        0.87427    0.88535   -1.0101    -1.0129    
 77.        0.87729    0.89446   -1.0194    -1.0107    
 78.        0.88412    0.87785   -1.0086    -1.0031    
 79.        0.87669    0.87706   -1.0304    -1.0288    
 80.        0.89994    0.88868   -1.0132    -1.0168    
 81.        0.87832    0.89772   -1.0277    -1.0054    
 82.        0.90216    0.8928    -1.0114    -1.0188    
 83.        0.89497    0.87976   -1.0082    -1.0151    
 84.        0.87953    0.87435   -1.0103    -1.0029    
 85.        0.87338    0.87627   -1.0188    -1.0066    
 86.        0.89468    0.89135   -1.009     -1.0172    
 87.        0.8778     0.87765   -1.0265    -1.0249    
 88.        0.9054     0.9016    -0.99653   -1.0099    
 89.        0.85537    0.88186   -1.0138    -1.0274    
 90.        0.89156    0.89362   -1.0105    -1.02      
 91.        0.88106    0.88607   -1.0229    -1.0309    
 92.        0.89344    0.87491   -1.0226    -1.0167    
 93.        0.89543    0.89218   -1.0174    -1.0215    
 94.        0.8909     0.89174   -1.0229    -1.0192    
 95.        0.89419    0.87578   -1.0173    -1.0089    
 96.        0.8875     0.89412   -1.0179    -1.0222    
 97.        0.89373    0.89222   -1.0289    -1.0122    
 98.        0.89115    0.8837    -1.0205    -1.0158    
 99.        0.88958    0.89279   -1.0357    -1.0134    
 100.       0.91357    0.87952   -1.0139    -1.0227    
 101.       0.87548    0.87936   -1.0233    -1.0367    
 102.       0.89753    0.89543   -1.0148    -1.0154    
 103.       0.88537    0.88335   -1.0136    -0.99973   
 104.       0.88872    0.88348   -1.0234    -1.0252    
 105.       0.89287    0.89029   -1.0194    -1.0037    
 106.       0.88817    0.88218   -1.0253    -1.0219    
 107.       0.89363    0.87966   -1.0249    -1.014     
 108.       0.89211    0.88713   -1.017     -1.0288    
 109.       0.88521    0.87996   -1.024     -1.0225    
 110.       0.89382    0.88095   -1.0273    -1.0108    
 111.       0.8984     0.8934    -1.035     -1.0267    
 112.       0.91385    0.88973   -1.0098    -1.0151    
 113.       0.87911    0.89043   -1.0236    -1.022     
 114.       0.89572    0.88802   -1.0058    -1.0268    
 115.       0.87004    0.89898   -1.0063    -1.021     
 116.       0.87913    0.89388   -1.0077    -1.0232    
 117.       0.88324    0.88945   -1.009     -1.0066    
 118.       0.88526    0.89949   -1.0198    -1.0175    
 119.       0.89088    0.8851    -1.0114    -1.0158    
 120.       0.87644    0.89497   -1.0174    -1.0174    
 121.       0.88344    0.88647   -1.0295    -1.0159    
 122.       0.90045    0.87753   -1.0224    -1.0194    
 123.       0.88282    0.88771   -1.0194    -1.0175    
 124.       0.89448    0.87294   -1.0186    -1.0105    
 125.       0.88143    0.88128   -1.0175    -1.0103    
 126.       0.89122    0.8835    -1.0198    -1.0173    
 127.       0.88518    0.86365   -1.0078    -1.0111    
 128.       0.87362    0.86603   -1.0217    -1.0263    
 129.       0.89022    0.89723   -1.0158    -1.0121    
 130.       0.88603    0.89021   -1.0153    -0.99703   
 131.       0.88823    0.89948   -1.0234    -1.0073    
 132.       0.89591    0.90502   -1.0133    -1.0137    
 133.       0.87839    0.8918    -1.0247    -1.0182    
 134.       0.89924    0.88935   -1.0094    -1.0274    
 135.       0.87594    0.89687   -1.0173    -1.023     
 136.       0.88693    0.88149   -1.0167    -1.0184    
 137.       0.88215    0.89825   -1.0156    -1.0096    
 138.       0.88534    0.87907   -1.0066    -1.0164    
 139.       0.87816    0.90043   -1.0142    -1.0322    
 140.       0.88119    0.88327   -1.0247    -1.0152    
 141.       0.89038    0.88916   -1.0052    -1.0237    
 142.       0.86973    0.90321   -1.0222    -1.0197    
 143.       0.89687    0.87453   -1.0231    -1.0141    
 144.       0.89022    0.8838    -1.0022    -1.027     
 145.       0.87145    0.88345   -1.0223    -1.0023    
 146.       0.89525    0.90739   -1.0253    -1.0339    
 147.       0.88885    0.90466   -0.99815   -1.0112    
 148.       0.86867    0.89147   -1.0227    -1.0209    
 149.       0.89729    0.88461   -1.0118    -1.0248    
 150.       0.87912    0.90128   -1.0264    -1.0203    
 151.       0.90034    0.88529   -1.0086    -1.0166    
 152.       0.88724    0.87162   -1.0107    -1.0094    
 153.       0.88325    0.8913    -1.0233    -1.0196    
 154.       0.89425    0.89098   -1.0219    -1.0046    
 155.       0.89215    0.88365   -1.0207    -1.0075    
 156.       0.88272    0.89598   -1.0281    -1.0209    
 157.       0.90196    0.88322   -1.0062    -1.0062    
 158.       0.8727     0.90968   -1.0175    -1.0361    
 159.       0.89204    0.89998   -1.0172    -1.0183    
 160.       0.88603    0.90106   -1.0126    -1.0242    
 161.       0.8814     0.88804   -1.0061    -1.0176    
 162.       0.88024    0.88878   -1.0187    -1.021     
 163.       0.89003    0.9012    -1.0135    -1.0235    
 164.       0.88378    0.88654   -1.0222    -1.014     
 165.       0.8912     0.88704   -1.0137    -1.0253    
 166.       0.88019    0.87537   -1.0244    -1.0106    
 167.       0.89443    0.88594   -1.0368    -1.0126    
 168.       0.91837    0.86662   -1.0295    -1.0338    
 169.       0.89793    0.87561   -1.0094    -1.0175    
 170.       0.87539    0.87668   -1.0279    -1.0248    
 171.       0.89929    0.88368   -1.02      -1.0119    
 172.       0.88737    0.87141   -1.0208    -1.0226    
 173.       0.88521    0.89301   -1.0162    -1.0278    
 174.       0.88415    0.89191   -1.0092    -1.0108    
 175.       0.87491    0.89875   -1.018     -0.99686   
 176.       0.89034    0.88924   -1.0207    -1.0113    
 177.       0.89531    0.88643   -1.0105    -1.0375    
 178.       0.87113    0.90865   -1.0212    -1.0155    
 179.       0.8956     0.88016   -1.0038    -1.0217    
 180.       0.86991    0.90614   -1.021     -1.0334    
 181.       0.89634    0.87539   -1.0129    -1.0135    
 182.       0.87782    0.8782    -1.0249    -1.0099    
 183.       0.89648    0.88125   -1.0188    -1.0191    
 184.       0.88465    0.87719   -1.0181    -1.0237    
 185.       0.87855    0.89487   -1.0206    -1.0093    
 186.       0.88727    0.8912    -1.0186    -1.008     
 187.       0.88561    0.88534   -1.0302    -1.0088    
 188.       0.90804    0.88794   -1.0254    -1.0207    
 189.       0.90056    0.89066   -1.0044    -1.0117    
 190.       0.86281    0.89071   -1.0283    -1.0227    
 191.       0.90086    0.89875   -1.0126    -1.0092    
 192.       0.87468    0.88824   -1.0269    -1.0189    
 193.       0.894      0.87045   -1.0134    -1.0147    
 194.       0.88249    0.88638   -1.0176    -1.0168    
 195.       0.88925    0.87562   -1.0239    -1.0293    
 196.       0.89483    0.87909   -1.0146    -1.0222    
 197.       0.88531    0.88718   -1.0188    -1.0328    
 198.       0.88362    0.89635   -1.018     -1.0069    
 199.       0.89253    0.88532   -1.02      -1.0164    
 200.       0.88814    0.90116   -1.0241    -1.0259    
 201.       0.88974    0.89433   -0.9964    -1.0141    
 202.       0.86584    0.89198   -1.0246    -1.0145    
 203.       0.90075    0.90256   -1.0088    -1.0132    
 204.       0.87567    0.90326   -1.0226    -1.0304    
 205.       0.89207    0.88313   -1.0171    -1.0148    
 206.       0.88621    0.89417   -1.0116    -1.0264    
 207.       0.87585    0.88081   -1.0245    -1.0207    
 208.       0.89735    0.86544   -1.0161    -1.0302    
 209.       0.89331    0.89922   -1.0188    -1.0153    
 210.       0.88505    0.88713   -1.0183    -1.0211    
 211.       0.88538    0.87193   -1.0108    -1.0063    
 212.       0.87463    0.90855   -1.034     -1.0229    
 213.       0.9001     0.87391   -1.0043    -1.0083    
 214.       0.87106    0.88236   -1.026     -1.0186    
 215.       0.89665    0.89645   -1.0136    -1.0091    
 216.       0.87988    0.88228   -1.0071    -1.0113    
 217.       0.87672    0.86124   -1.0273    -1.0177    
 218.       0.90076    0.8913    -1.0138    -1.0168    
 219.       0.87975    0.88092   -1.0261    -1.0322    
 220.       0.89688    0.89531   -1.0135    -1.0136    
 221.       0.88117    0.8925    -1.0171    -1.0098    
 222.       0.88446    0.88465   -1.0193    -1.011     
 223.       0.89105    0.88338   -1.0056    -1.0025    
 224.       0.87111    0.89107   -1.0283    -1.0265    
 225.       0.90007    0.86523   -1.0117    -1.0184    
 226.       0.88372    0.8886    -1.0229    -1.0218    
 227.       0.89548    0.86889   -1.0135    -1.0194    
 228.       0.88551    0.89643   -1.0173    -1.0197    
 229.       0.88726    0.89443   -1.0187    -1.0156    
 230.       0.87768    0.88813   -1.0118    -1.0347    
 231.       0.87805    0.87449   -1.0123    -1.019     
 232.       0.88351    0.88754   -1.0245    -1.0075    
 233.       0.8911     0.88701   -0.99794   -1.0101    
 234.       0.86476    0.87827   -1.0356    -1.0237    
 235.       0.90878    0.89355   -1.0231    -1.0001    
 236.       0.88401    0.88601   -1.0329    -1.036     
 237.       0.90045    0.88832   -1.014     -1.026     
 238.       0.88022    0.88449   -1.0233    -1.0182    
 239.       0.8917     0.87994   -1.024     -1.0283    
 240.       0.89158    0.8732    -1.014     -1.014     
 241.       0.87829    0.87139   -1.0217    -1.0312    
 242.       0.88546    0.88774   -1.0166    -1.0336    
 243.       0.89043    0.8843    -1.0034    -1.0263    
 244.       0.86973    0.91223   -1.0289    -1.0179    
 245.       0.89886    0.89486   -1.0042    -1.0096    
 246.       0.87237    0.90064   -1.0335    -1.0402    
 247.       0.90907    0.87954   -1.0132    -1.0319    
 248.       0.88324    0.89456   -1.0243    -1.0244    
 249.       0.8991     0.88374   -1.0128    -1.0278    
 250.       0.88179    0.90151   -1.021     -1.0073    
 251.       0.88827    0.88899   -1.0091    -1.0164    
 252.       0.88167    0.90022   -1.0207    -1.012     
 253.       0.88936    0.88312   -1.0236    -1.0137    
 254.       0.88254    0.88262   -1.0227    -1.0206    
 255.       0.89326    0.88094   -1.0141    -1.0124    
 256.       0.87615    0.877     -1.0271    -1.0293    
 257.       0.90537    0.87436   -1.0143    -1.0169    
 258.       0.87758    0.86733   -1.0273    -1.0183    
 259.       0.89774    0.88344   -1.0229    -1.023     
 260.       0.89967    0.87327   -1.0226    -1.0116    
 261.       0.89629    0.87664   -1.0102    -1.0177    
 262.       0.88169    0.88279   -1.0085    -1.0034    
 263.       0.88201    0.8878    -1.0057    -1.0197    
 264.       0.87485    0.89317   -1.0139    -1.0203    
 265.       0.87299    0.88439   -1.0141    -1.0141    
 266.       0.88385    0.90366   -1.0254    -1.0352    
 267.       0.89826    0.87394   -1.0066    -1.0207    
 268.       0.87435    0.90203   -1.0354    -1.0169    
 269.       0.91238    0.89172   -1.0137    -1.0174    
 270.       0.87847    0.89052   -1.0235    -1.0126    
 271.       0.89667    0.87483   -1.0024    -1.0195    
 272.       0.8705     0.88532   -1.021     -1.0089    
 273.       0.89105    0.8865    -1.0284    -1.0253    
 274.       0.89743    0.8776    -1.0137    -1.031     
 275.       0.88963    0.89126   -1.0135    -1.0162    
 276.       0.8788     0.8776    -1.0258    -1.0376    
 277.       0.89968    0.88919   -1.0106    -1.0195    
 278.       0.88452    0.86923   -1.0291    -1.0152    
 279.       0.90002    0.89063   -1.0131    -1.0254    
 280.       0.87956    0.89989   -1.0295    -1.0186    
 281.       0.9107     0.88842   -1.0219    -1.0127    
 282.       0.88582    0.8888    -1.008     -1.0142    
 283.       0.88056    0.88976   -1.0213    -1.0134    
 284.       0.89243    0.89239   -1.0191    -1.0065    
 285.       0.88511    0.87978   -1.0212    -1.0296    
 286.       0.89226    0.90104   -1.0275    -1.0264    
 287.       0.899      0.87852   -1.0135    -1.0389    
 288.       0.88203    0.88541   -1.0193    -1.015     
 289.       0.89282    0.90022   -1.0161    -1.0073    
 290.       0.88643    0.88346   -1.0357    -1.0175    
 291.       0.90599    0.89815   -1.0187    -1.0164    
 292.       0.88842    0.89344   -1.0234    -1.0036    
 293.       0.89788    0.89403   -1.0184    -1.0107    
 294.       0.89387    0.89247   -1.0202    -1.031     
 295.       0.89332    0.88433   -1.0204    -1.0083    
 296.       0.89329    0.91323   -1.0202    -1.0205    
 297.       0.88911    0.89558   -1.0154    -1.0249    
 298.       0.88569    0.89369   -1.0314    -1.0246    
 299.       0.89549    0.88309   -1.0212    -1.0027    
 300.       0.88711    0.8775    -1.0227    -1.0224    
 301.       0.89359    0.86743   -1.023     -1.0064    
 302.       0.8867     0.88332   -0.99779   -1.0181    
 303.       0.86391    0.87553   -1.0124    -1.0242    
 304.       0.88669    0.88756   -1.0132    -1.0095    
 305.       0.87826    0.88059   -1.0098    -1.0346    
 306.       0.88212    0.87309   -1.0208    -1.0161    
 307.       0.89068    0.89771   -1.0241    -1.0201    
 308.       0.89983    0.89366   -1.0187    -1.0204    
 309.       0.88742    0.89428   -1.0226    -1.0041    
 310.       0.89291    0.89258   -1.0192    -1.0175    
 311.       0.88534    0.88502   -0.99956   -0.99939   
 312.       0.87315    0.87134   -1.0197    -0.99563   
 313.       0.88857    0.89541   -1.0212    -1.0216    
 314.       0.88618    0.8705    -1.0135    -1.0262    
 315.       0.88232    0.90481   -1.0145    -1.0159    
 316.       0.88646    0.89388   -1.0125    -1.0117    
 317.       0.88455    0.88456   -1.0184    -1.0256    
 318.       0.88809    0.88691   -1.011     -1.0169    
 319.       0.87711    0.89479   -1.0152    -1.019     
 320.       0.88062    0.8676    -1.0211    -1.0202    
 321.       0.88898    0.87135   -1.0173    -1.0184    
 322.       0.88287    0.88519   -1.0172    -1.0192    
 323.       0.8824     0.8679    -1.0176    -1.0146    
 324.       0.89329    0.88876   -1.0008    -1.0142    
 325.       0.86431    0.88973   -1.0231    -1.0276    
 326.       0.89101    0.8884    -1.0176    -1.0197    
 327.       0.88666    0.88593   -1.0273    -1.0194    
 328.       0.90314    0.89921   -1.0187    -1.0126    
 329.       0.88991    0.89046   -1.0079    -1.0171    
 330.       0.87851    0.87656   -1.0145    -1.0327    
 331.       0.87584    0.88509   -1.0171    -1.0288    
 332.       0.88985    0.88931   -1.017     -1.031     
 333.       0.88785    0.90776   -1.0187    -1.0004    
 334.       0.88542    0.88449   -1.0147    -1.0236    
 335.       0.8845     0.88077   -1.026     -1.0291    
 336.       0.89584    0.89008   -1.0025    -1.0025    
 337.       0.86892    0.89116   -1.02      -1.0235    
 338.       0.89547    0.89013   -1.0109    -1.0319    
 339.       0.88201    0.90333   -1.0141    -1.0099    
 340.       0.87729    0.87648   -1.016     -1.0178    
 341.       0.88664    0.88603   -1.0085    -1.0093    
 342.       0.87725    0.87309   -1.014     -1.029     
 343.       0.88482    0.87498   -1.0098    -0.99782   
 344.       0.87555    0.88502   -1.0157    -1.0188    
 345.       0.88062    0.87971   -1.0221    -1.0312    
 346.       0.8932     0.87684   -1.0126    -1.0137    
 347.       0.87044    0.88559   -1.0213    -1.023     
 348.       0.89442    0.89402   -1.0159    -1.0082    
 349.       0.87925    0.87898   -1.0226    -1.0154    
 350.       0.897      0.89525   -1.0186    -1.0146    
 351.       0.88102    0.90503   -1.014     -1.0188    
 352.       0.87229    0.8779    -1.0126    -1.0294    
 353.       0.88805    0.90586   -1.0176    -1.0175    
 354.       0.88529    0.89335   -1.0162    -1.0203    
 355.       0.88325    0.88967   -1.0126    -1.0112    
 356.       0.87847    0.89144   -1.0119    -1.0159    
