#           v(vgs1)    v(vgs2)    v(vgs3)    v(vgs4)   
 1.         0.82706    0.82706   -1.0594    -1.0594    
 2.         0.84957    0.84957   -1.0839    -1.0839    
 3.         0.84516    0.84516   -1.0324    -1.0324    
 4.         0.84433    0.84433   -1.075     -1.075     
 5.         0.88843    0.88843   -1.0766    -1.0766    
 6.         0.84189    0.84189   -1.0317    -1.0317    
 7.         0.8392     0.8392    -1.0636    -1.0636    
 8.         0.88315    0.88315   -1.0961    -1.0961    
 9.         0.88334    0.88334   -1.0378    -1.0378    
 10.        0.80172    0.80172   -1.0747    -1.0747    
 11.        0.8551     0.8551    -1.032     -1.032     
 12.        0.84413    0.84413   -1.053     -1.053     
 13.        0.83967    0.83967   -1.0765    -1.0765    
 14.        0.80143    0.80143   -1.0501    -1.0501    
 15.        0.8189     0.8189    -1.0577    -1.0577    
 16.        0.84251    0.84251   -1.0941    -1.0941    
 17.        0.86189    0.86189   -1.0545    -1.0545    
 18.        0.8368     0.8368    -1.0459    -1.0459    
 19.        0.85125    0.85125   -1.0793    -1.0793    
 20.        0.87321    0.87321   -1.0321    -1.0321    
 21.        0.80605    0.80605   -1.0564    -1.0564    
 22.        0.89849    0.89849   -1.0752    -1.0752    
 23.        0.88814    0.88814   -1.0283    -1.0283    
 24.        0.82935    0.82935   -1.0861    -1.0861    
 25.        0.86436    0.86436   -1.0923    -1.0923    
 26.        0.91711    0.91711   -1.0428    -1.0428    
 27.        0.79186    0.79186   -1.0494    -1.0494    
 28.        0.84569    0.84569   -1.082     -1.082     
 29.        0.84573    0.84573   -1.0518    -1.0518    
 30.        0.82907    0.82907   -1.0696    -1.0696    
 31.        0.85497    0.85497   -1.0691    -1.0691    
 32.        0.83483    0.83483   -1.0384    -1.0384    
 33.        0.8433     0.8433    -1.0933    -1.0933    
 34.        0.88948    0.88948   -1.0604    -1.0604    
 35.        0.82934    0.82934   -1.0385    -1.0385    
 36.        0.84355    0.84355   -1.0831    -1.0831    
 37.        0.87383    0.87383   -1.0619    -1.0619    
 38.        0.82944    0.82944   -1.0549    -1.0549    
 39.        0.91119    0.91119   -1.0695    -1.0695    
 40.        0.86132    0.86132   -1.0369    -1.0369    
 41.        0.81958    0.81958   -1.0541    -1.0541    
 42.        0.84626    0.84626   -1.091     -1.091     
 43.        0.84976    0.84976   -1.0514    -1.0514    
 44.        0.81721    0.81721   -1.052     -1.052     
 45.        0.84301    0.84301   -1.0897    -1.0897    
 46.        0.864      0.864     -1.0424    -1.0424    
 47.        0.84233    0.84233   -1.0757    -1.0757    
 48.        0.87006    0.87006   -1.0629    -1.0629    
 49.        0.88301    0.88301   -1.0332    -1.0332    
 50.        0.84201    0.84201   -1.0647    -1.0647    
 51.        0.89415    0.89415   -1.0798    -1.0798    
 52.        0.81071    0.81071   -1.0432    -1.0432    
 53.        0.82037    0.82037   -1.0715    -1.0715    
 54.        0.86221    0.86221   -1.084     -1.084     
 55.        0.8729     0.8729    -1.0496    -1.0496    
 56.        0.80816    0.80816   -1.07      -1.07      
 57.        0.8429     0.8429    -1.0545    -1.0545    
 58.        0.82594    0.82594   -1.064     -1.064     
 59.        0.841      0.841     -1.0855    -1.0855    
 60.        0.8668     0.8668    -1.0605    -1.0605    
 61.        0.83412    0.83412   -1.0536    -1.0536    
 62.        0.84503    0.84503   -1.0754    -1.0754    
 63.        0.88028    0.88028   -1.0595    -1.0595    
 64.        0.81429    0.81429   -1.047     -1.047     
 65.        0.87219    0.87219   -1.0834    -1.0834    
 66.        0.83645    0.83645   -1.0262    -1.0262    
 67.        0.83711    0.83711   -1.0466    -1.0466    
 68.        0.87718    0.87718   -1.0708    -1.0708    
 69.        0.85892    0.85892   -1.0365    -1.0365    
 70.        0.79724    0.79724   -1.0556    -1.0556    
 71.        0.84797    0.84797   -1.096     -1.096     
 72.        0.85535    0.85535   -1.0654    -1.0654    
 73.        0.82711    0.82711   -1.0646    -1.0646    
 74.        0.85197    0.85197   -1.0774    -1.0774    
 75.        0.83812    0.83812   -1.0316    -1.0316    
 76.        0.84443    0.84443   -1.076     -1.076     
 77.        0.88817    0.88817   -1.077     -1.077     
 78.        0.85458    0.85458   -1.0319    -1.0319    
 79.        0.83867    0.83867   -1.059     -1.059     
 80.        0.85042    0.85042   -1.0806    -1.0806    
 81.        0.83416    0.83416   -1.0491    -1.0491    
 82.        0.81997    0.81997   -1.0566    -1.0566    
 83.        0.85084    0.85084   -1.0316    -1.0316    
 84.        0.83331    0.83331   -1.0499    -1.0499    
 85.        0.84155    0.84155   -1.078     -1.078     
 86.        0.81121    0.81121   -1.0421    -1.0421    
 87.        0.81381    0.81381   -1.0646    -1.0646    
 88.        0.84307    0.84307   -1.0658    -1.0658    
 89.        0.853      0.853     -1.0606    -1.0606    
 90.        0.8392     0.8392    -1.0655    -1.0655    
 91.        0.86317    0.86317   -1.0727    -1.0727    
 92.        0.86777    0.86777   -1.0367    -1.0367    
 93.        0.81403    0.81403   -1.0645    -1.0645    
 94.        0.89924    0.89924   -1.0749    -1.0749    
 95.        0.89286    0.89286   -1.0295    -1.0295    
 96.        0.82594    0.82594   -1.064     -1.064     
 97.        0.86473    0.86473   -1.0605    -1.0605    
 98.        0.85799    0.85799   -1.0525    -1.0525    
 99.        0.78903    0.78903   -1.0657    -1.0657    
 100.       0.80437    0.80437   -1.0647    -1.0647    
 101.       0.83537    0.83537   -1.0527    -1.0527    
 102.       0.82868    0.82868   -1.0806    -1.0806    
 103.       0.85712    0.85712   -1.0669    -1.0669    
 104.       0.82682    0.82682   -1.0357    -1.0357    
 105.       0.84382    0.84382   -1.0801    -1.0801    
 106.       0.88987    0.88987   -1.0659    -1.0659    
 107.       0.85527    0.85527   -1.0489    -1.0489    
 108.       0.85087    0.85087   -1.0661    -1.0661    
 109.       0.87603    0.87603   -1.0491    -1.0491    
 110.       0.84808    0.84808   -1.0607    -1.0607    
 111.       0.90746    0.90746   -1.0755    -1.0755    
 112.       0.85522    0.85522   -1.0354    -1.0354    
 113.       0.81438    0.81438   -1.0541    -1.0541    
 114.       0.85339    0.85339   -1.096     -1.096     
 115.       0.82375    0.82375   -1.0496    -1.0496    
 116.       0.85287    0.85287   -1.0532    -1.0532    
 117.       0.84427    0.84427   -1.0777    -1.0777    
 118.       0.83086    0.83086   -1.0495    -1.0495    
 119.       0.83919    0.83919   -1.0761    -1.0761    
 120.       0.8801     0.8801    -1.0674    -1.0674    
 121.       0.87871    0.87871   -1.0335    -1.0335    
 122.       0.83921    0.83921   -1.0741    -1.0741    
 123.       0.89105    0.89105   -1.0806    -1.0806    
 124.       0.87242    0.87242   -1.044     -1.044     
 125.       0.85478    0.85478   -1.0694    -1.0694    
 126.       0.86103    0.86103   -1.0529    -1.0529    
 127.       0.84477    0.84477   -1.0556    -1.0556    
 128.       0.83116    0.83116   -1.0723    -1.0723    
 129.       0.83882    0.83882   -1.0503    -1.0503    
 130.       0.82105    0.82105   -1.0613    -1.0613    
 131.       0.84138    0.84138   -1.0887    -1.0887    
 132.       0.86826    0.86826   -1.059     -1.059     
 133.       0.83402    0.83402   -1.0537    -1.0537    
 134.       0.8481     0.8481    -1.0746    -1.0746    
 135.       0.87604    0.87604   -1.0451    -1.0451    
 136.       0.85701    0.85701   -1.0629    -1.0629    
 137.       0.88221    0.88221   -1.0654    -1.0654    
 138.       0.85796    0.85796   -1.0256    -1.0256    
 139.       0.8345     0.8345    -1.0489    -1.0489    
 140.       0.88073    0.88073   -1.0823    -1.0823    
 141.       0.85736    0.85736   -1.0349    -1.0349    
 142.       0.79342    0.79342   -1.0544    -1.0544    
 143.       0.84966    0.84966   -1.0945    -1.0945    
 144.       0.85503    0.85503   -1.0627    -1.0627    
 145.       0.8204     0.8204    -1.0675    -1.0675    
 146.       0.85491    0.85491   -1.068     -1.068     
 147.       0.83395    0.83395   -1.0404    -1.0404    
 148.       0.84441    0.84441   -1.0771    -1.0771    
 149.       0.88701    0.88701   -1.0767    -1.0767    
 150.       0.85098    0.85098   -1.0352    -1.0352    
 151.       0.84163    0.84163   -1.0635    -1.0635    
 152.       0.85408    0.85408   -1.0752    -1.0752    
 153.       0.83805    0.83805   -1.0511    -1.0511    
 154.       0.88106    0.88106   -1.0612    -1.0612    
 155.       0.83892    0.83892   -1.032     -1.032     
 156.       0.82351    0.82351   -1.0686    -1.0686    
 157.       0.84831    0.84831   -1.0814    -1.0814    
 158.       0.82655    0.82655   -1.042     -1.042     
 159.       0.80888    0.80888   -1.0702    -1.0702    
 160.       0.84297    0.84297   -1.0652    -1.0652    
 161.       0.855      0.855     -1.0583    -1.0583    
 162.       0.84108    0.84108   -1.0637    -1.0637    
 163.       0.86642    0.86642   -1.0704    -1.0704    
 164.       0.87002    0.87002   -1.0352    -1.0352    
 165.       0.84834    0.84834   -1.0851    -1.0851    
 166.       0.89699    0.89699   -1.0677    -1.0677    
 167.       0.89269    0.89269   -1.0296    -1.0296    
 168.       0.82643    0.82643   -1.0613    -1.0613    
 169.       0.86791    0.86791   -1.0561    -1.0561    
 170.       0.85891    0.85891   -1.0483    -1.0483    
 171.       0.79252    0.79252   -1.0659    -1.0659    
 172.       0.81384    0.81384   -1.0589    -1.0589    
 173.       0.8304     0.8304    -1.0527    -1.0527    
 174.       0.83444    0.83444   -1.0895    -1.0895    
 175.       0.86486    0.86486   -1.0593    -1.0593    
 176.       0.82615    0.82615   -1.0399    -1.0399    
 177.       0.84419    0.84419   -1.077     -1.077     
 178.       0.88934    0.88934   -1.0675    -1.0675    
 179.       0.85586    0.85586   -1.0479    -1.0479    
 180.       0.85889    0.85889   -1.0453    -1.0453    
 181.       0.86861    0.86861   -1.0408    -1.0408    
 182.       0.84267    0.84267   -1.0643    -1.0643    
 183.       0.90085    0.90085   -1.0757    -1.0757    
 184.       0.82503    0.82503   -1.0345    -1.0345    
 185.       0.80898    0.80898   -1.0548    -1.0548    
 186.       0.85489    0.85489   -1.1007    -1.1007    
 187.       0.81077    0.81077   -1.0495    -1.0495    
 188.       0.84915    0.84915   -1.0587    -1.0587    
 189.       0.8457     0.8457    -1.0642    -1.0642    
 190.       0.84175    0.84175   -1.0579    -1.0579    
 191.       0.83625    0.83625   -1.0786    -1.0786    
 192.       0.8832     0.8832    -1.068     -1.068     
 193.       0.8499     0.8499    -1.0346    -1.0346    
 194.       0.84159    0.84159   -1.0817    -1.0817    
 195.       0.88711    0.88711   -1.0806    -1.0806    
 196.       0.88233    0.88233   -1.0431    -1.0431    
 197.       0.85124    0.85124   -1.0637    -1.0637    
 198.       0.85937    0.85937   -1.029     -1.029     
 199.       0.83035    0.83035   -1.0569    -1.0569    
 200.       0.84607    0.84607   -1.0739    -1.0739    
 201.       0.83405    0.83405   -1.0471    -1.0471    
 202.       0.81601    0.81601   -1.0571    -1.0571    
 203.       0.84306    0.84306   -1.0909    -1.0909    
 204.       0.86796    0.86796   -1.051     -1.051     
 205.       0.8351     0.8351    -1.0549    -1.0549    
 206.       0.84944    0.84944   -1.0706    -1.0706    
 207.       0.8727     0.8727    -1.0378    -1.0378    
 208.       0.90074    0.90074   -1.072     -1.072     
 209.       0.88864    0.88864   -1.0673    -1.0673    
 210.       0.86358    0.86358   -1.026     -1.026     
 211.       0.83275    0.83275   -1.0547    -1.0547    
 212.       0.88405    0.88405   -1.0903    -1.0903    
 213.       0.85791    0.85791   -1.0324    -1.0324    
 214.       0.78623    0.78623   -1.0576    -1.0576    
 215.       0.85002    0.85002   -1.0854    -1.0854    
 216.       0.84273    0.84273   -1.0591    -1.0591    
 217.       0.81865    0.81865   -1.0702    -1.0702    
 218.       0.8551     0.8551    -1.0687    -1.0687    
 219.       0.83035    0.83035   -1.0413    -1.0413    
 220.       0.8435     0.8435    -1.0788    -1.0788    
 221.       0.88481    0.88481   -1.0745    -1.0745    
 222.       0.8496     0.8496    -1.0387    -1.0387    
 223.       0.84354    0.84354   -1.0632    -1.0632    
 224.       0.85573    0.85573   -1.0661    -1.0661    
 225.       0.85329    0.85329   -1.0571    -1.0571    
 226.       0.92187    0.92187   -1.0657    -1.0657    
 227.       0.83886    0.83886   -1.032     -1.032     
 228.       0.82044    0.82044   -1.0912    -1.0912    
 229.       0.85458    0.85458   -1.0869    -1.0869    
 230.       0.84126    0.84126   -1.0426    -1.0426    
 231.       0.80617    0.80617   -1.072     -1.072     
 232.       0.85774    0.85774   -1.0652    -1.0652    
 233.       0.85552    0.85552   -1.0576    -1.0576    
 234.       0.84094    0.84094   -1.0704    -1.0704    
 235.       0.86779    0.86779   -1.067     -1.067     
 236.       0.87387    0.87387   -1.0342    -1.0342    
 237.       0.84627    0.84627   -1.0952    -1.0952    
 238.       0.89388    0.89388   -1.0585    -1.0585    
 239.       0.88719    0.88719   -1.0293    -1.0293    
 240.       0.82846    0.82846   -1.0569    -1.0569    
 241.       0.86664    0.86664   -1.0543    -1.0543    
 242.       0.85863    0.85863   -1.0473    -1.0473    
 243.       0.80947    0.80947   -1.0677    -1.0677    
 244.       0.82576    0.82576   -1.0519    -1.0519    
 245.       0.82557    0.82557   -1.0536    -1.0536    
 246.       0.83926    0.83926   -1.0924    -1.0924    
 247.       0.87512    0.87512   -1.0568    -1.0568    
 248.       0.82651    0.82651   -1.0421    -1.0421    
 249.       0.84524    0.84524   -1.0735    -1.0735    
 250.       0.88673    0.88673   -1.0701    -1.0701    
 251.       0.85518    0.85518   -1.0572    -1.0572    
 252.       0.86824    0.86824   -1.078     -1.078     
 253.       0.86055    0.86055   -1.0358    -1.0358    
 254.       0.83816    0.83816   -1.0673    -1.0673    
 255.       0.89522    0.89522   -1.0758    -1.0758    
 256.       0.78201    0.78201   -1.0327    -1.0327    
 257.       0.80308    0.80308   -1.0569    -1.0569    
 258.       0.85554    0.85554   -1.1044    -1.1044    
 259.       0.80617    0.80617   -1.0489    -1.0489    
 260.       0.84281    0.84281   -1.0527    -1.0527    
 261.       0.84419    0.84419   -1.073     -1.073     
 262.       0.83609    0.83609   -1.0398    -1.0398    
 263.       0.83616    0.83616   -1.0806    -1.0806    
 264.       0.88461    0.88461   -1.0677    -1.0677    
 265.       0.84638    0.84638   -1.0323    -1.0323    
 266.       0.84283    0.84283   -1.0707    -1.0707    
 267.       0.88345    0.88345   -1.0795    -1.0795    
 268.       0.891      0.891     -1.043     -1.043     
 269.       0.85002    0.85002   -1.0566    -1.0566    
 270.       0.85123    0.85123   -1.0326    -1.0326    
 271.       0.83914    0.83914   -1.0564    -1.0564    
 272.       0.85698    0.85698   -1.075     -1.075     
 273.       0.83148    0.83148   -1.0453    -1.0453    
 274.       0.81052    0.81052   -1.073     -1.073     
 275.       0.84431    0.84431   -1.0919    -1.0919    
 276.       0.86635    0.86635   -1.0522    -1.0522    
 277.       0.83718    0.83718   -1.0569    -1.0569    
 278.       0.84566    0.84566   -1.0598    -1.0598    
 279.       0.85425    0.85425   -1.0386    -1.0386    
 280.       0.8269     0.8269    -1.0828    -1.0828    
 281.       0.89185    0.89185   -1.069     -1.069     
 282.       0.86678    0.86678   -1.0264    -1.0264    
 283.       0.83061    0.83061   -1.066     -1.066     
 284.       0.8722     0.8722    -1.0814    -1.0814    
 285.       0.85522    0.85522   -1.0354    -1.0354    
 286.       0.77863    0.77863   -1.0575    -1.0575    
 287.       0.84942    0.84942   -1.0601    -1.0601    
 288.       0.85729    0.85729   -1.0506    -1.0506    
 289.       0.82519    0.82519   -1.0783    -1.0783    
 290.       0.85401    0.85401   -1.06      -1.06      
 291.       0.82725    0.82725   -1.043     -1.043     
 292.       0.84598    0.84598   -1.083     -1.083     
 293.       0.88828    0.88828   -1.0703    -1.0703    
 294.       0.84893    0.84893   -1.0392    -1.0392    
 295.       0.85007    0.85007   -1.0648    -1.0648    
 296.       0.85476    0.85476   -1.0646    -1.0646    
 297.       0.85691    0.85691   -1.0505    -1.0505    
 298.       0.91728    0.91728   -1.0718    -1.0718    
 299.       0.84717    0.84717   -1.032     -1.032     
 300.       0.81587    0.81587   -1.0858    -1.0858    
 301.       0.85823    0.85823   -1.0959    -1.0959    
 302.       0.81609    0.81609   -1.0449    -1.0449    
 303.       0.80489    0.80489   -1.0703    -1.0703    
 304.       0.85326    0.85326   -1.0795    -1.0795    
 305.       0.85465    0.85465   -1.059     -1.059     
 306.       0.84769    0.84769   -1.0631    -1.0631    
 307.       0.86731    0.86731   -1.0726    -1.0726    
 308.       0.84792    0.84792   -1.0343    -1.0343    
 309.       0.84503    0.84503   -1.0912    -1.0912    
 310.       0.89259    0.89259   -1.0593    -1.0593    
 311.       0.87853    0.87853   -1.0339    -1.0339    
 312.       0.82949    0.82949   -1.0502    -1.0502    
 313.       0.86596    0.86596   -1.0503    -1.0503    
 314.       0.85715    0.85715   -1.0403    -1.0403    
 315.       0.85454    0.85454   -1.0706    -1.0706    
 316.       0.83865    0.83865   -1.0471    -1.0471    
 317.       0.8207     0.8207    -1.0539    -1.0539    
 318.       0.84316    0.84316   -1.0901    -1.0901    
 319.       0.8761     0.8761    -1.0561    -1.0561    
 320.       0.82879    0.82879   -1.0461    -1.0461    
 321.       0.84675    0.84675   -1.0697    -1.0697    
 322.       0.88081    0.88081   -1.0625    -1.0625    
 323.       0.85876    0.85876   -1.0604    -1.0604    
 324.       0.84905    0.84905   -1.0725    -1.0725    
 325.       0.88636    0.88636   -1.0331    -1.0331    
 326.       0.83663    0.83663   -1.0707    -1.0707    
 327.       0.89003    0.89003   -1.0798    -1.0798    
 328.       0.79494    0.79494   -1.0335    -1.0335    
 329.       0.80101    0.80101   -1.0609    -1.0609    
 330.       0.85446    0.85446   -1.1065    -1.1065    
 331.       0.80847    0.80847   -1.0436    -1.0436    
 332.       0.81039    0.81039   -1.0532    -1.0532    
 333.       0.84705    0.84705   -1.0675    -1.0675    
 334.       0.8315     0.8315    -1.0427    -1.0427    
 335.       0.83745    0.83745   -1.0824    -1.0824    
 336.       0.88053    0.88053   -1.0687    -1.0687    
 337.       0.84531    0.84531   -1.0354    -1.0354    
 338.       0.84534    0.84534   -1.0738    -1.0738    
 339.       0.88102    0.88102   -1.0763    -1.0763    
 340.       0.90125    0.90125   -1.0338    -1.0338    
 341.       0.87052    0.87052   -1.0573    -1.0573    
 342.       0.85434    0.85434   -1.0351    -1.0351    
 343.       0.83234    0.83234   -1.0506    -1.0506    
 344.       0.86444    0.86444   -1.0762    -1.0762    
 345.       0.83531    0.83531   -1.0455    -1.0455    
 346.       0.80624    0.80624   -1.0615    -1.0615    
 347.       0.84497    0.84497   -1.0916    -1.0916    
 348.       0.86307    0.86307   -1.0534    -1.0534    
 349.       0.84089    0.84089   -1.0634    -1.0634    
 350.       0.85495    0.85495   -1.0617    -1.0617    
 351.       0.85648    0.85648   -1.0395    -1.0395    
 352.       0.84065    0.84065   -1.0804    -1.0804    
 353.       0.89214    0.89214   -1.074     -1.074     
 354.       0.86856    0.86856   -1.03      -1.03      
 355.       0.83189    0.83189   -1.0647    -1.0647    
 356.       0.87147    0.87147   -1.082     -1.082     
