#           v(out)     i(tb.vdd_src) iter(0)   
 0.         1.2        0.         14.       
 0.02       1.2        0.         10.       
 0.04       1.2        0.         5.        
 0.06       1.2        0.         6.        
 0.08       1.2        0.         11.       
 0.1        1.2        0.         41.       
 0.12       1.2        0.         237.      
 0.14       1.2        0.         12.       
 0.16       1.2        0.         15.       
 0.18       1.2        0.         41.       
 0.2        1.2        0.         34.       
 0.22       1.2        0.         7.        
 0.24       1.2        0.         8.        
 0.26       1.2        0.         15.       
 0.28       1.2        0.         11.       
 0.3        1.2        0.         10.       
 0.32       1.2        0.         17.       
 0.34       1.2        0.         7.        
 0.36       1.1999     0.         5.        
 0.38       1.1999     0.         5.        
 0.4        1.1998    -14.115E-9  5.        
 0.42       1.1996    -24.753E-9  5.        
 0.44       1.1993    -43.074E-9  5.        
 0.46       1.1986    -74.549E-9  5.        
 0.48       1.1974    -127.29E-9  5.        
 0.5        1.195     -212.87E-9  5.        
 0.52       1.1907    -345.52E-9  5.        
 0.54       1.1825    -540.43E-9  6.        
 0.56       1.1657    -810.15E-9  6.        
 0.58       1.1086    -1.1493E-6  7.        
 0.6        0.30067   -1.1354E-6  7.        
 0.62       0.043016  -882.09E-9  10.       
 0.64       0.021114  -651.68E-9  6.        
 0.66       0.011758  -467.35E-9  6.        
 0.68       0.0067523 -324.92E-9  6.        
 0.7        0.0038872 -218.8E-9   5.        
 0.72       0.0022187 -142.83E-9  5.        
 0.74       0.0012513 -90.673E-9  5.        
 0.76       697.86E-6 -56.214E-9  5.        
 0.78       386.13E-6 -34.226E-9  5.        
 0.8        212.76E-6 -20.62E-9   5.        
 0.82       117.13E-6 -12.296E-9  5.        
 0.84       64.583E-6  0.         5.        
 0.86       35.716E-6  0.         5.        
 0.88       19.829E-6  0.         5.        
 0.9        11.056E-6  0.         5.        
 0.92       6.1928E-6  0.         5.        
 0.94       3.4849E-6  0.         5.        
 0.96       1.9705E-6  0.         5.        
 0.98       1.1199E-6  0.         5.        
 1.         640.07E-9  0.         5.        
 1.02       368.24E-9  0.         5.        
 1.04       213.62E-9  0.         5.        
 1.06       125.3E-9   0.         5.        
 1.08       74.644E-9  0.         5.        
 1.1        45.455E-9  0.         5.        
 1.12       28.555E-9  0.         5.        
 1.14       18.712E-9  0.         5.        
 1.16       12.94E-9   0.         4.        
 1.18       9.5227E-9  0.         4.        
 1.2        7.4747E-9  0.         4.        
Gnucap   System status
iterations: op=0, dc=727, tran=0, fourier=0, total=727
transient timesteps: accepted=0, rejected=0, total=0
nodes: user=2, subckt=1, model=66, total=69
dctran density=33.4%, ac density=33.4%
