#           v(g)       i(tb.sd)   iter(0)   
 0.         0.2        0.         4.        
 0.02       0.2        0.         4.        
 0.04       0.2        0.         4.        
 0.06       0.2        0.         4.        
 0.08       0.2        0.         4.        
 0.1        0.2        0.         4.        
 0.12       0.2        0.         4.        
 0.14       0.2        0.         4.        
 0.16       0.2        0.         4.        
 0.18       0.2        0.         4.        
 0.2        0.2        0.         4.        
 0.22       0.2        0.         4.        
 0.24       0.2        0.         4.        
 0.26       0.2        0.         4.        
 0.28       0.2        0.         4.        
 0.3        0.2        0.         4.        
 0.32       0.2        0.         4.        
 0.34       0.2        0.         4.        
 0.36       0.2        0.         4.        
 0.38       0.2        0.         4.        
 0.4        0.2        0.         4.        
 0.42       0.2        0.         4.        
 0.44       0.2        0.         4.        
 0.46       0.2        0.         4.        
 0.48       0.2        0.         4.        
 0.5        0.2        0.         4.        
 0.52       0.2        0.         4.        
 0.54       0.2        0.         4.        
 0.56       0.2        0.         4.        
 0.58       0.2        0.         4.        
 0.6        0.2        0.         4.        
 0.62       0.2        0.         4.        
 0.64       0.2        0.         4.        
 0.66       0.2        0.         4.        
 0.68       0.2        0.         4.        
 0.7        0.2        0.         4.        
 0.72       0.2        0.         4.        
 0.74       0.2        0.         4.        
 0.76       0.2        0.         4.        
 0.78       0.2        0.         4.        
 0.8        0.2        0.         4.        
 0.82       0.2        0.         4.        
 0.84       0.2        0.         4.        
 0.86       0.2        0.         4.        
 0.88       0.2        0.         4.        
 0.9        0.2        0.         4.        
 0.92       0.2        0.         4.        
 0.94       0.2        0.         4.        
 0.96       0.2        0.         4.        
 0.98       0.2        0.         4.        
 1.         0.2        0.         4.        
 1.02       0.2        0.         4.        
 1.04       0.2        0.         4.        
 1.06       0.2        0.         4.        
 1.08       0.2        0.         4.        
 1.1        0.2        0.         4.        
 1.12       0.2        0.         4.        
 1.14       0.2        0.         4.        
 1.16       0.2        0.         4.        
 1.18       0.2        0.         4.        
 1.2        0.2        0.         4.        
 0.         0.4        0.         4.        
 0.02       0.4       -290.4E-12  4.        
 0.04       0.4       -423.8E-12  4.        
 0.06       0.4        0.         4.        
 0.08       0.4        0.         4.        
 0.1        0.4        0.         4.        
 0.12       0.4        0.         4.        
 0.14       0.4        0.         4.        
 0.16       0.4        0.         4.        
 0.18       0.4        0.         4.        
 0.2        0.4        0.         4.        
 0.22       0.4        0.         4.        
 0.24       0.4        0.         4.        
 0.26       0.4        0.         4.        
 0.28       0.4        0.         4.        
 0.3        0.4        0.         4.        
 0.32       0.4        0.         4.        
 0.34       0.4        0.         4.        
 0.36       0.4        0.         4.        
 0.38       0.4        0.         4.        
 0.4        0.4        0.         4.        
 0.42       0.4        0.         4.        
 0.44       0.4        0.         4.        
 0.46       0.4        0.         4.        
 0.48       0.4        0.         4.        
 0.5        0.4        0.         4.        
 0.52       0.4        0.         4.        
 0.54       0.4        0.         4.        
 0.56       0.4        0.         4.        
 0.58       0.4        0.         4.        
 0.6        0.4        0.         4.        
 0.62       0.4        0.         4.        
 0.64       0.4        0.         4.        
 0.66       0.4        0.         4.        
 0.68       0.4        0.         4.        
 0.7        0.4        0.         4.        
 0.72       0.4        0.         4.        
 0.74       0.4        0.         4.        
 0.76       0.4        0.         4.        
 0.78       0.4        0.         4.        
 0.8        0.4        0.         4.        
 0.82       0.4        0.         4.        
 0.84       0.4        0.         4.        
 0.86       0.4        0.         4.        
 0.88       0.4        0.         4.        
 0.9        0.4        0.         4.        
 0.92       0.4        0.         4.        
 0.94       0.4        0.         4.        
 0.96       0.4        0.         4.        
 0.98       0.4        0.         4.        
 1.         0.4        0.         4.        
 1.02       0.4        0.         4.        
 1.04       0.4        0.         4.        
 1.06       0.4        0.         4.        
 1.08       0.4        0.         4.        
 1.1        0.4        0.         4.        
 1.12       0.4        0.         4.        
 1.14       0.4        0.         4.        
 1.16       0.4        0.         4.        
 1.18       0.4        0.         4.        
 1.2        0.4        0.         4.        
 0.         0.6        2.E-21     4.        
 0.02       0.6       -65.695E-9  4.        
 0.04       0.6       -99.832E-9  4.        
 0.06       0.6       -117.24E-9  4.        
 0.08       0.6       -126.79E-9  4.        
 0.1        0.6       -132.74E-9  4.        
 0.12       0.6       -137.E-9    4.        
 0.14       0.6       -140.42E-9  4.        
 0.16       0.6       -143.39E-9  4.        
 0.18       0.6       -146.1E-9   4.        
 0.2        0.6       -148.67E-9  4.        
 0.22       0.6       -151.16E-9  4.        
 0.24       0.6       -153.59E-9  4.        
 0.26       0.6       -155.99E-9  4.        
 0.28       0.6       -158.37E-9  4.        
 0.3        0.6       -160.74E-9  4.        
 0.32       0.6       -163.1E-9   4.        
 0.34       0.6       -165.47E-9  4.        
 0.36       0.6       -167.85E-9  4.        
 0.38       0.6       -170.23E-9  4.        
 0.4        0.6       -172.61E-9  4.        
 0.42       0.6       -175.03E-9  4.        
 0.44       0.6       -177.44E-9  4.        
 0.46       0.6       -179.88E-9  4.        
 0.48       0.6       -182.32E-9  4.        
 0.5        0.6       -184.79E-9  4.        
 0.52       0.6       -187.28E-9  4.        
 0.54       0.6       -189.78E-9  4.        
 0.56       0.6       -192.3E-9   4.        
 0.58       0.6       -194.84E-9  4.        
 0.6        0.6       -197.4E-9   4.        
 0.62       0.6       -199.99E-9  4.        
 0.64       0.6       -202.58E-9  4.        
 0.66       0.6       -205.23E-9  4.        
 0.68       0.6       -207.85E-9  4.        
 0.7        0.6       -210.54E-9  4.        
 0.72       0.6       -213.21E-9  4.        
 0.74       0.6       -215.95E-9  4.        
 0.76       0.6       -218.69E-9  4.        
 0.78       0.6       -221.47E-9  4.        
 0.8        0.6       -224.25E-9  4.        
 0.82       0.6       -227.08E-9  4.        
 0.84       0.6       -229.92E-9  4.        
 0.86       0.6       -232.79E-9  4.        
 0.88       0.6       -235.68E-9  4.        
 0.9        0.6       -238.58E-9  4.        
 0.92       0.6       -241.53E-9  4.        
 0.94       0.6       -244.5E-9   4.        
 0.96       0.6       -247.53E-9  4.        
 0.98       0.6       -250.55E-9  4.        
 1.         0.6       -253.64E-9  4.        
 1.02       0.6       -256.72E-9  4.        
 1.04       0.6       -259.85E-9  4.        
 1.06       0.6       -263.01E-9  4.        
 1.08       0.6       -266.18E-9  4.        
 1.1        0.6       -269.37E-9  4.        
 1.12       0.6       -272.62E-9  4.        
 1.14       0.6       -275.86E-9  4.        
 1.16       0.6       -279.18E-9  4.        
 1.18       0.6       -282.5E-9   4.        
 1.2        0.6       -285.86E-9  4.        
 0.         0.8        454.E-21   4.        
 0.02       0.8       -884.18E-9  4.        
 0.04       0.8       -1.6082E-6  4.        
 0.06       0.8       -2.177E-6   4.        
 0.08       0.8       -2.6116E-6  4.        
 0.1        0.8       -2.9393E-6  4.        
 0.12       0.8       -3.1869E-6  4.        
 0.14       0.8       -3.3764E-6  4.        
 0.16       0.8       -3.5248E-6  4.        
 0.18       0.8       -3.6442E-6  4.        
 0.2        0.8       -3.7432E-6  4.        
 0.22       0.8       -3.8277E-6  4.        
 0.24       0.8       -3.9016E-6  4.        
 0.26       0.8       -3.9678E-6  4.        
 0.28       0.8       -4.0281E-6  4.        
 0.3        0.8       -4.084E-6   4.        
 0.32       0.8       -4.1364E-6  4.        
 0.34       0.8       -4.186E-6   4.        
 0.36       0.8       -4.2334E-6  4.        
 0.38       0.8       -4.2789E-6  4.        
 0.4        0.8       -4.3229E-6  4.        
 0.42       0.8       -4.3656E-6  4.        
 0.44       0.8       -4.4071E-6  4.        
 0.46       0.8       -4.4478E-6  4.        
 0.48       0.8       -4.4875E-6  4.        
 0.5        0.8       -4.5266E-6  4.        
 0.52       0.8       -4.565E-6   4.        
 0.54       0.8       -4.6028E-6  4.        
 0.56       0.8       -4.6401E-6  4.        
 0.58       0.8       -4.677E-6   4.        
 0.6        0.8       -4.7134E-6  4.        
 0.62       0.8       -4.7495E-6  4.        
 0.64       0.8       -4.7852E-6  4.        
 0.66       0.8       -4.8206E-6  4.        
 0.68       0.8       -4.8556E-6  4.        
 0.7        0.8       -4.8904E-6  4.        
 0.72       0.8       -4.925E-6   4.        
 0.74       0.8       -4.9594E-6  4.        
 0.76       0.8       -4.9935E-6  4.        
 0.78       0.8       -5.0275E-6  4.        
 0.8        0.8       -5.0613E-6  4.        
 0.82       0.8       -5.0949E-6  4.        
 0.84       0.8       -5.1283E-6  4.        
 0.86       0.8       -5.1617E-6  4.        
 0.88       0.8       -5.1948E-6  4.        
 0.9        0.8       -5.2279E-6  4.        
 0.92       0.8       -5.2609E-6  4.        
 0.94       0.8       -5.2937E-6  4.        
 0.96       0.8       -5.3265E-6  4.        
 0.98       0.8       -5.3591E-6  4.        
 1.         0.8       -5.3917E-6  4.        
 1.02       0.8       -5.4242E-6  4.        
 1.04       0.8       -5.4566E-6  4.        
 1.06       0.8       -5.489E-6   4.        
 1.08       0.8       -5.5213E-6  4.        
 1.1        0.8       -5.5535E-6  4.        
 1.12       0.8       -5.5857E-6  4.        
 1.14       0.8       -5.6178E-6  4.        
 1.16       0.8       -5.6499E-6  4.        
 1.18       0.8       -5.682E-6   4.        
 1.2        0.8       -5.714E-6   4.        
 0.         1.         9.988E-18  4.        
 0.02       1.        -2.0779E-6  4.        
 0.04       1.        -3.981E-6   4.        
 0.06       1.        -5.6945E-6  4.        
 0.08       1.        -7.215E-6   4.        
 0.1        1.        -8.5486E-6  4.        
 0.12       1.        -9.708E-6   4.        
 0.14       1.        -10.71E-6   4.        
 0.16       1.        -11.573E-6  4.        
 0.18       1.        -12.316E-6  4.        
 0.2        1.        -12.955E-6  4.        
 0.22       1.        -13.508E-6  4.        
 0.24       1.        -13.988E-6  4.        
 0.26       1.        -14.407E-6  4.        
 0.28       1.        -14.775E-6  4.        
 0.3        1.        -15.101E-6  4.        
 0.32       1.        -15.392E-6  4.        
 0.34       1.        -15.653E-6  4.        
 0.36       1.        -15.89E-6   4.        
 0.38       1.        -16.105E-6  4.        
 0.4        1.        -16.304E-6  4.        
 0.42       1.        -16.487E-6  4.        
 0.44       1.        -16.658E-6  4.        
 0.46       1.        -16.818E-6  4.        
 0.48       1.        -16.968E-6  4.        
 0.5        1.        -17.111E-6  4.        
 0.52       1.        -17.246E-6  4.        
 0.54       1.        -17.376E-6  4.        
 0.56       1.        -17.499E-6  4.        
 0.58       1.        -17.618E-6  4.        
 0.6        1.        -17.733E-6  4.        
 0.62       1.        -17.844E-6  4.        
 0.64       1.        -17.952E-6  4.        
 0.66       1.        -18.056E-6  4.        
 0.68       1.        -18.158E-6  4.        
 0.7        1.        -18.257E-6  4.        
 0.72       1.        -18.354E-6  4.        
 0.74       1.        -18.449E-6  4.        
 0.76       1.        -18.542E-6  4.        
 0.78       1.        -18.633E-6  4.        
 0.8        1.        -18.723E-6  4.        
 0.82       1.        -18.811E-6  4.        
 0.84       1.        -18.897E-6  4.        
 0.86       1.        -18.983E-6  4.        
 0.88       1.        -19.067E-6  4.        
 0.9        1.        -19.15E-6   4.        
 0.92       1.        -19.232E-6  4.        
 0.94       1.        -19.313E-6  4.        
 0.96       1.        -19.393E-6  4.        
 0.98       1.        -19.473E-6  4.        
 1.         1.        -19.551E-6  4.        
 1.02       1.        -19.629E-6  4.        
 1.04       1.        -19.706E-6  4.        
 1.06       1.        -19.782E-6  4.        
 1.08       1.        -19.858E-6  4.        
 1.1        1.        -19.933E-6  4.        
 1.12       1.        -20.008E-6  4.        
 1.14       1.        -20.082E-6  4.        
 1.16       1.        -20.155E-6  4.        
 1.18       1.        -20.228E-6  4.        
 1.2        1.        -20.301E-6  4.        
 0.         1.2        46.76E-18  4.        
 0.02       1.2       -3.2576E-6  4.        
 0.04       1.2       -6.3494E-6  4.        
 0.06       1.2       -9.2565E-6  4.        
 0.08       1.2       -11.967E-6  4.        
 0.1        1.2       -14.474E-6  4.        
 0.12       1.2       -16.779E-6  4.        
 0.14       1.2       -18.886E-6  4.        
 0.16       1.2       -20.803E-6  4.        
 0.18       1.2       -22.541E-6  4.        
 0.2        1.2       -24.112E-6  4.        
 0.22       1.2       -25.53E-6   4.        
 0.24       1.2       -26.808E-6  4.        
 0.26       1.2       -27.959E-6  4.        
 0.28       1.2       -28.998E-6  4.        
 0.3        1.2       -29.934E-6  4.        
 0.32       1.2       -30.78E-6   4.        
 0.34       1.2       -31.546E-6  4.        
 0.36       1.2       -32.241E-6  4.        
 0.38       1.2       -32.874E-6  4.        
 0.4        1.2       -33.451E-6  4.        
 0.42       1.2       -33.979E-6  4.        
 0.44       1.2       -34.464E-6  4.        
 0.46       1.2       -34.911E-6  4.        
 0.48       1.2       -35.324E-6  4.        
 0.5        1.2       -35.708E-6  4.        
 0.52       1.2       -36.065E-6  4.        
 0.54       1.2       -36.399E-6  4.        
 0.56       1.2       -36.712E-6  4.        
 0.58       1.2       -37.006E-6  4.        
 0.6        1.2       -37.284E-6  4.        
 0.62       1.2       -37.547E-6  4.        
 0.64       1.2       -37.797E-6  4.        
 0.66       1.2       -38.035E-6  4.        
 0.68       1.2       -38.262E-6  4.        
 0.7        1.2       -38.48E-6   4.        
 0.72       1.2       -38.688E-6  4.        
 0.74       1.2       -38.889E-6  4.        
 0.76       1.2       -39.082E-6  4.        
 0.78       1.2       -39.268E-6  4.        
 0.8        1.2       -39.449E-6  4.        
 0.82       1.2       -39.624E-6  4.        
 0.84       1.2       -39.793E-6  4.        
 0.86       1.2       -39.958E-6  4.        
 0.88       1.2       -40.119E-6  4.        
 0.9        1.2       -40.276E-6  4.        
 0.92       1.2       -40.429E-6  4.        
 0.94       1.2       -40.578E-6  4.        
 0.96       1.2       -40.724E-6  4.        
 0.98       1.2       -40.868E-6  4.        
 1.         1.2       -41.008E-6  4.        
 1.02       1.2       -41.146E-6  4.        
 1.04       1.2       -41.281E-6  4.        
 1.06       1.2       -41.414E-6  4.        
 1.08       1.2       -41.545E-6  4.        
 1.1        1.2       -41.674E-6  4.        
 1.12       1.2       -41.801E-6  4.        
 1.14       1.2       -41.927E-6  4.        
 1.16       1.2       -42.05E-6   4.        
 1.18       1.2       -42.172E-6  4.        
 1.2        1.2       -42.292E-6  4.        
Gnucap   System status
iterations: op=0, dc=1464, tran=0, fourier=0, total=1464
transient timesteps: accepted=0, rejected=0, total=0
nodes: user=2, subckt=0, model=33, total=35
dctran density=60.1%, ac density=60.1%
