#           v(vgs1)    v(vgs2)    v(vgs3)    v(vgs4)   
 1.         0.77964    0.77286   -0.97647   -0.96271   
 2.         0.77472    0.77726   -0.98096   -0.97599   
 3.         0.76894    0.76906   -0.98105   -0.9635    
 4.         0.78297    0.76591   -0.97151   -0.96999   
 5.         0.7767     0.773     -0.98303   -0.9686    
 6.         0.78333    0.77911   -0.97339   -0.96983   
 7.         0.77087    0.78487   -0.9761    -0.9778    
 8.         0.78344    0.76822   -0.96645   -0.96958   
 9.         0.75631    0.77986   -0.94964   -0.97762   
 10.        0.75496    0.7765    -0.9565    -0.97432   
 11.        0.75581    0.78463   -0.98774   -0.9793    
 12.        0.7818     0.79205   -0.97672   -0.97684   
 13.        0.77859    0.78225   -0.97864   -0.96896   
 14.        0.78396    0.78789   -0.97483   -0.97893   
 15.        0.76968    0.78533   -0.98583   -0.97622   
 16.        0.78857    0.76436   -0.97214   -0.97015   
 17.        0.77125    0.77479   -0.9789    -0.96883   
 18.        0.77837    0.77688   -0.97441   -0.9733    
 19.        0.76975    0.77344   -0.97719   -0.96015   
 20.        0.78535    0.75856   -0.9644    -0.97893   
 21.        0.75333    0.76359   -0.98516   -0.97361   
 22.        0.7909     0.77512   -0.96896   -0.98836   
 23.        0.75815    0.7684    -0.97762   -0.9889    
 24.        0.78067    0.76997   -0.97604   -0.97131   
 25.        0.78087    0.7602    -0.97732   -0.98709   
 26.        0.77154    0.77745   -0.97571   -0.9777    
 27.        0.76926    0.77302   -0.98835   -0.97755   
 28.        0.79395    0.77113   -0.97713   -0.97366   
 29.        0.76888    0.77561   -0.97155   -0.97957   
 30.        0.76157    0.78341   -0.96981   -0.96377   
 31.        0.76978    0.77306   -0.98319   -0.97022   
 32.        0.78662    0.79014   -0.95937   -0.98859   
 33.        0.75688    0.757     -0.9803    -0.97281   
 34.        0.79044    0.75835   -0.97205   -0.9746    
 35.        0.76036    0.75597   -0.98235   -0.98731   
 36.        0.78475    0.76981   -0.97284   -0.9734    
 37.        0.77142    0.78127   -0.97103   -0.96976   
 38.        0.76548    0.78139   -0.9871    -0.96561   
 39.        0.79492    0.76083   -0.97921   -0.97771   
 40.        0.77863    0.76582   -0.96951   -0.98497   
 41.        0.76449    0.78374   -0.97532   -0.96386   
 42.        0.77136    0.76467   -0.95908   -0.98057   
 43.        0.75295    0.76458   -0.97398   -0.97669   
 44.        0.77057    0.78978   -0.96968   -0.97421   
 45.        0.76258    0.77696   -0.98099   -0.98155   
 46.        0.78515    0.77657   -0.96838   -0.95744   
 47.        0.76905    0.7699    -0.97787   -0.97518   
 48.        0.78392    0.76952   -0.96992   -0.96435   
 49.        0.76273    0.75399   -0.98175   -0.98461   
 50.        0.78325    0.77181   -0.97967   -0.97761   
 51.        0.77468    0.76794   -0.97721   -0.97155   
 52.        0.77923    0.78938   -0.96996   -0.97738   
 53.        0.7659     0.77927   -0.98854   -0.97573   
 54.        0.79174    0.7694    -0.9613    -0.98576   
 55.        0.75247    0.77809   -0.97525   -0.98038   
 56.        0.77725    0.77459   -0.96786   -0.97136   
 57.        0.76533    0.76059   -0.97847   -0.95862   
 58.        0.78244    0.78054   -0.96381   -0.98233   
 59.        0.75825    0.7706    -0.98155   -0.96469   
 60.        0.78785    0.78776   -0.98003   -0.97873   
 61.        0.78167    0.78491   -0.97814   -0.98222   
 62.        0.77998    0.77257   -0.97463   -0.98306   
 63.        0.78453    0.771     -0.97272   -0.97843   
 64.        0.76957    0.77882   -0.97045   -0.9731    
 65.        0.7664     0.75714   -0.99188   -0.97319   
 66.        0.79342    0.77505   -0.97418   -0.97344   
 67.        0.77086    0.77008   -0.98473   -0.9729    
 68.        0.80026    0.77696   -0.95958   -0.96092   
 69.        0.7615     0.76896   -0.97775   -0.99128   
 70.        0.78597    0.78431   -0.96927   -0.96891   
 71.        0.76526    0.79103   -0.97704   -0.97888   
 72.        0.77589    0.78916   -0.97737   -0.98081   
 73.        0.77426    0.79994   -0.97894   -0.99223   
 74.        0.77866    0.79953   -0.96743   -0.97563   
 75.        0.76729    0.77543   -0.97187   -0.97907   
 76.        0.76224    0.77326   -0.96781   -0.97044   
 77.        0.76585    0.78263   -0.97733   -0.96826   
 78.        0.77168    0.76617   -0.96627   -0.96084   
 79.        0.76498    0.76538   -0.98817   -0.98666   
 80.        0.78777    0.77553   -0.97085   -0.97443   
 81.        0.76508    0.7846    -0.9853    -0.96294   
 82.        0.79001    0.78054   -0.96862   -0.97645   
 83.        0.78295    0.76697   -0.96578   -0.97284   
 84.        0.7673     0.7622    -0.96811   -0.96046   
 85.        0.76189    0.76468   -0.97631   -0.96419   
 86.        0.78319    0.77766   -0.96663   -0.97473   
 87.        0.76554    0.76546   -0.98401   -0.9827    
 88.        0.79378    0.78853   -0.95429   -0.9675    
 89.        0.74307    0.76961   -0.9712    -0.98511   
 90.        0.78017    0.7791    -0.96824   -0.97789   
 91.        0.77002    0.7731    -0.98055   -0.9884    
 92.        0.78117    0.76289   -0.98019   -0.97454   
 93.        0.78315    0.77875   -0.97497   -0.97916   
 94.        0.77919    0.77982   -0.98061   -0.97701   
 95.        0.7816     0.76289   -0.97495   -0.96659   
 96.        0.77497    0.78321   -0.97536   -0.97964   
 97.        0.78251    0.77944   -0.98659   -0.96969   
 98.        0.7773     0.77134   -0.97818   -0.97334   
 99.        0.77631    0.78117   -0.99345   -0.97109   
 100.       0.80195    0.76806   -0.97166   -0.98058   
 101.       0.76248    0.76795   -0.981     -0.99454   
 102.       0.78526    0.78269   -0.97257   -0.97326   
 103.       0.77493    0.77155   -0.971     -0.95724   
 104.       0.77763    0.77217   -0.98112   -0.98293   
 105.       0.78125    0.77888   -0.97701   -0.96105   
 106.       0.77619    0.76954   -0.9832    -0.97973   
 107.       0.78095    0.76678   -0.98276   -0.97154   
 108.       0.7806     0.77382   -0.97461   -0.98632   
 109.       0.773      0.76729   -0.9816    -0.98018   
 110.       0.78058    0.76906   -0.98507   -0.96847   
 111.       0.78604    0.78084   -0.99248   -0.98417   
 112.       0.8014     0.77843   -0.96727   -0.97288   
 113.       0.76635    0.77785   -0.9811    -0.97995   
 114.       0.78362    0.77645   -0.96324   -0.98457   
 115.       0.75598    0.78836   -0.96385   -0.97879   
 116.       0.76668    0.78196   -0.96516   -0.98105   
 117.       0.77206    0.77785   -0.96631   -0.9642    
 118.       0.77274    0.78761   -0.97751   -0.97512   
 119.       0.77951    0.77161   -0.96907   -0.97327   
 120.       0.76417    0.7812    -0.97516   -0.9752    
 121.       0.77117    0.77426   -0.98736   -0.97368   
 122.       0.78887    0.76419   -0.98031   -0.97715   
 123.       0.77087    0.77648   -0.9768    -0.97511   
 124.       0.78143    0.76071   -0.97647   -0.96805   
 125.       0.76863    0.76873   -0.97505   -0.96765   
 126.       0.77915    0.77052   -0.97745   -0.97516   
 127.       0.77163    0.75101   -0.9654    -0.96878   
 128.       0.761      0.75361   -0.97934   -0.98394   
 129.       0.77787    0.78516   -0.9734    -0.96982   
 130.       0.77333    0.77658   -0.97284   -0.95464   
 131.       0.77631    0.78586   -0.98101   -0.96497   
 132.       0.78403    0.79241   -0.97101   -0.9715    
 133.       0.76655    0.77895   -0.98247   -0.97569   
 134.       0.78798    0.77808   -0.967     -0.98505   
 135.       0.76371    0.78457   -0.97493   -0.98049   
 136.       0.77417    0.76959   -0.97455   -0.97582   
 137.       0.77063    0.78593   -0.97317   -0.96696   
 138.       0.77302    0.76566   -0.96398   -0.97417   
 139.       0.76527    0.78884   -0.97183   -0.99      
 140.       0.76891    0.77036   -0.98238   -0.97288   
 141.       0.77704    0.77729   -0.96287   -0.98147   
 142.       0.75748    0.79065   -0.97979   -0.97725   
 143.       0.78511    0.7621    -0.98089   -0.97198   
 144.       0.77687    0.77184   -0.95979   -0.98459   
 145.       0.75927    0.77095   -0.98006   -0.95993   
 146.       0.78457    0.79523   -0.98327   -0.9916    
 147.       0.77657    0.79248   -0.95558   -0.96868   
 148.       0.75662    0.77982   -0.9803    -0.97859   
 149.       0.78565    0.77323   -0.96929   -0.98243   
 150.       0.76665    0.78783   -0.9841    -0.978     
 151.       0.78872    0.77387   -0.96569   -0.97428   
 152.       0.77506    0.75993   -0.96801   -0.96694   
 153.       0.77001    0.77928   -0.98099   -0.97745   
 154.       0.78223    0.77779   -0.97954   -0.96218   
 155.       0.78004    0.77015   -0.97869   -0.96528   
 156.       0.77043    0.78404   -0.9856    -0.97858   
 157.       0.79022    0.77215   -0.96371   -0.9638    
 158.       0.75948    0.79898   -0.97522   -0.99384   
 159.       0.78004    0.78847   -0.9749    -0.97624   
 160.       0.77455    0.78919   -0.97014   -0.98191   
 161.       0.76888    0.77637   -0.96357   -0.97522   
 162.       0.76868    0.77671   -0.97637   -0.97856   
 163.       0.77905    0.78896   -0.97114   -0.98123   
 164.       0.77154    0.77365   -0.97992   -0.97147   
 165.       0.77888    0.77345   -0.97147   -0.98309   
 166.       0.76844    0.7617    -0.98207   -0.96796   
 167.       0.78172    0.77409   -0.99425   -0.97028   
 168.       0.80571    0.75263   -0.98713   -0.99164   
 169.       0.78574    0.76267   -0.96684   -0.97522   
 170.       0.76161    0.76404   -0.98556   -0.98264   
 171.       0.78605    0.77124   -0.97768   -0.96969   
 172.       0.77579    0.75891   -0.9785    -0.98041   
 173.       0.77225    0.78047   -0.97396   -0.98551   
 174.       0.77187    0.77917   -0.96698   -0.96837   
 175.       0.76433    0.78559   -0.97556   -0.95425   
 176.       0.77902    0.77697   -0.97821   -0.96871   
 177.       0.78382    0.77272   -0.9683    -0.99527   
 178.       0.75906    0.7967    -0.97877   -0.97331   
 179.       0.78292    0.76744   -0.9615    -0.97946   
 180.       0.7585     0.79491   -0.97845   -0.99116   
 181.       0.78409    0.7638    -0.97047   -0.97128   
 182.       0.76471    0.76647   -0.98255   -0.96742   
 183.       0.78409    0.76924   -0.97653   -0.97669   
 184.       0.77202    0.76486   -0.97599   -0.98124   
 185.       0.76595    0.78212   -0.97826   -0.96687   
 186.       0.77529    0.77865   -0.97637   -0.96543   
 187.       0.77176    0.77361   -0.98797   -0.96645   
 188.       0.79657    0.77528   -0.98285   -0.97847   
 189.       0.78949    0.77903   -0.96221   -0.96927   
 190.       0.75032    0.77778   -0.98609   -0.98043   
 191.       0.78977    0.78591   -0.97042   -0.96689   
 192.       0.76241    0.77543   -0.98482   -0.97663   
 193.       0.78166    0.75899   -0.97104   -0.97261   
 194.       0.77067    0.7751    -0.97503   -0.97429   
 195.       0.77721    0.76439   -0.98159   -0.98705   
 196.       0.78175    0.76638   -0.97227   -0.97988   
 197.       0.77334    0.77488   -0.97653   -0.99052   
 198.       0.77156    0.78483   -0.97537   -0.96443   
 199.       0.77909    0.77312   -0.9777    -0.97391   
 200.       0.77522    0.78965   -0.98188   -0.98355   
 201.       0.77737    0.78262   -0.95377   -0.97176   
 202.       0.75328    0.78019   -0.98221   -0.97195   
 203.       0.78894    0.79165   -0.96646   -0.9711    
 204.       0.76341    0.79373   -0.98047   -0.98815   
 205.       0.7803     0.7716    -0.97473   -0.97239   
 206.       0.77509    0.78233   -0.96923   -0.98404   
 207.       0.76358    0.76878   -0.98215   -0.97851   
 208.       0.78464    0.75364   -0.97362   -0.98803   
 209.       0.78176    0.78702   -0.97657   -0.97308   
 210.       0.77273    0.77537   -0.9759    -0.97879   
 211.       0.77258    0.75952   -0.96838   -0.96393   
 212.       0.76107    0.79584   -0.99181   -0.98058   
 213.       0.78651    0.76194   -0.96186   -0.96594   
 214.       0.75865    0.76996   -0.98366   -0.97641   
 215.       0.78491    0.78362   -0.97118   -0.96675   
 216.       0.76662    0.77046   -0.96467   -0.96898   
 217.       0.76455    0.74899   -0.9851    -0.97543   
 218.       0.79025    0.77674   -0.97147   -0.97433   
 219.       0.76751    0.76897   -0.9839    -0.99006   
 220.       0.78502    0.78234   -0.97111   -0.97129   
 221.       0.76939    0.77911   -0.97493   -0.967     
 222.       0.77196    0.7713    -0.97693   -0.9686    
 223.       0.77956    0.77018   -0.96314   -0.9601    
 224.       0.75893    0.77897   -0.98598   -0.98435   
 225.       0.78686    0.75282   -0.96919   -0.9758    
 226.       0.77178    0.77623   -0.98046   -0.97947   
 227.       0.78324    0.75573   -0.97099   -0.97728   
 228.       0.77319    0.7846    -0.9748    -0.97761   
 229.       0.77505    0.78224   -0.9765    -0.97321   
 230.       0.76318    0.77673   -0.96958   -0.99241   
 231.       0.76606    0.76196   -0.96981   -0.97678   
 232.       0.77213    0.77499   -0.98229   -0.96497   
 233.       0.77846    0.77669   -0.95548   -0.96758   
 234.       0.75301    0.76585   -0.99346   -0.98135   
 235.       0.7978     0.78128   -0.98111   -0.9574    
 236.       0.77135    0.77451   -0.99088   -0.9939    
 237.       0.7881     0.77581   -0.97178   -0.98377   
 238.       0.7684     0.7705    -0.981     -0.976     
 239.       0.77889    0.76621   -0.98176   -0.98599   
 240.       0.77892    0.76085   -0.97163   -0.97179   
 241.       0.76616    0.76019   -0.97944   -0.98884   
 242.       0.77178    0.77626   -0.97413   -0.99116   
 243.       0.77738    0.7713    -0.96102   -0.98415   
 244.       0.75813    0.80009   -0.98667   -0.97551   
 245.       0.78595    0.78212   -0.96176   -0.96703   
 246.       0.7601     0.7884    -0.99118   -0.99817   
 247.       0.7979     0.76799   -0.97073   -0.98986   
 248.       0.77166    0.78327   -0.98191   -0.98218   
 249.       0.78772    0.77331   -0.97037   -0.98547   
 250.       0.76959    0.78752   -0.97876   -0.96496   
 251.       0.77562    0.77705   -0.9665    -0.97396   
 252.       0.77028    0.78813   -0.97828   -0.96933   
 253.       0.77708    0.77205   -0.98153   -0.97131   
 254.       0.76954    0.77041   -0.98033   -0.97827   
 255.       0.78088    0.76966   -0.97182   -0.96987   
 256.       0.76329    0.76444   -0.9846    -0.98683   
 257.       0.79298    0.76218   -0.97198   -0.97453   
 258.       0.76569    0.75311   -0.98508   -0.97594   
 259.       0.78407    0.77094   -0.98065   -0.98068   
 260.       0.78942    0.7603    -0.98016   -0.96926   
 261.       0.78538    0.76292   -0.96771   -0.97529   
 262.       0.76917    0.77132   -0.96599   -0.96076   
 263.       0.77101    0.77671   -0.96316   -0.97724   
 264.       0.76259    0.78186   -0.97174   -0.97798   
 265.       0.76079    0.77156   -0.97163   -0.97192   
 266.       0.7722     0.79276   -0.98292   -0.99301   
 267.       0.78614    0.76058   -0.96413   -0.97857   
 268.       0.76128    0.78977   -0.99308   -0.97455   
 269.       0.80046    0.77999   -0.97139   -0.97483   
 270.       0.76637    0.77812   -0.98091   -0.97015   
 271.       0.78335    0.76309   -0.95976   -0.97712   
 272.       0.75735    0.77376   -0.97861   -0.96649   
 273.       0.7787     0.77403   -0.98616   -0.98293   
 274.       0.78516    0.7644    -0.97113   -0.98881   
 275.       0.77794    0.77878   -0.97119   -0.97389   
 276.       0.76625    0.76452   -0.98348   -0.99526   
 277.       0.78795    0.77716   -0.96797   -0.97722   
 278.       0.77352    0.75585   -0.98681   -0.97251   
 279.       0.78768    0.77832   -0.97074   -0.98313   
 280.       0.76697    0.7872    -0.98705   -0.97627   
 281.       0.79908    0.77606   -0.97977   -0.97032   
 282.       0.77354    0.77726   -0.96554   -0.97156   
 283.       0.7683     0.77637   -0.97885   -0.97111   
 284.       0.7809     0.77931   -0.97677   -0.96403   
 285.       0.77152    0.76864   -0.97884   -0.9873    
 286.       0.77973    0.79011   -0.98516   -0.98398   
 287.       0.78726    0.76549   -0.97104   -0.99677   
 288.       0.76885    0.77368   -0.97689   -0.97231   
 289.       0.78072    0.78851   -0.97375   -0.96487   
 290.       0.77614    0.77102   -0.99355   -0.97521   
 291.       0.79372    0.78644   -0.9764    -0.97424   
 292.       0.77611    0.78119   -0.98098   -0.96132   
 293.       0.78588    0.7827    -0.97591   -0.96838   
 294.       0.78134    0.78202   -0.97784   -0.98862   
 295.       0.78192    0.77225   -0.97784   -0.96591   
 296.       0.78106    0.80141   -0.97777   -0.97813   
 297.       0.77599    0.78346   -0.97301   -0.98284   
 298.       0.77376    0.78057   -0.98929   -0.9821    
 299.       0.78308    0.77084   -0.979     -0.96012   
 300.       0.77481    0.76522   -0.98023   -0.98016   
 301.       0.78116    0.75473   -0.9808    -0.96414   
 302.       0.77229    0.77112   -0.95541   -0.97588   
 303.       0.75188    0.76155   -0.96986   -0.98209   
 304.       0.77539    0.77639   -0.971     -0.96723   
 305.       0.76562    0.76846   -0.96759   -0.99239   
 306.       0.77105    0.76213   -0.97854   -0.97402   
 307.       0.77978    0.78525   -0.98148   -0.97772   
 308.       0.7873     0.78113   -0.97634   -0.97791   
 309.       0.77512    0.78168   -0.9803    -0.96161   
 310.       0.78054    0.78062   -0.97695   -0.97505   
 311.       0.77247    0.77191   -0.95681   -0.95669   
 312.       0.76126    0.75687   -0.97729   -0.95325   
 313.       0.77645    0.78346   -0.97878   -0.97942   
 314.       0.77263    0.75798   -0.97109   -0.98392   
 315.       0.76954    0.79229   -0.97204   -0.97373   
 316.       0.7747     0.78114   -0.96991   -0.96922   
 317.       0.77176    0.77304   -0.976     -0.98373   
 318.       0.7758     0.77394   -0.96873   -0.97443   
 319.       0.76479    0.78311   -0.97299   -0.97685   
 320.       0.76854    0.75396   -0.97895   -0.97786   
 321.       0.77773    0.75917   -0.97509   -0.97588   
 322.       0.77059    0.77286   -0.97493   -0.97682   
 323.       0.7698     0.75374   -0.97513   -0.97231   
 324.       0.7819     0.77709   -0.95836   -0.97171   
 325.       0.75203    0.77695   -0.98083   -0.9852    
 326.       0.77814    0.77725   -0.97544   -0.97744   
 327.       0.77439    0.77327   -0.98478   -0.97708   
 328.       0.79072    0.78788   -0.97642   -0.97012   
 329.       0.77686    0.77894   -0.9654    -0.97469   
 330.       0.76663    0.76543   -0.97224   -0.99051   
 331.       0.76233    0.77417   -0.97494   -0.98635   
 332.       0.77924    0.77682   -0.97457   -0.98863   
 333.       0.77708    0.79602   -0.97657   -0.95799   
 334.       0.77292    0.77251   -0.97243   -0.98149   
 335.       0.7734     0.76853   -0.98386   -0.98672   
 336.       0.78437    0.7771    -0.96001   -0.96029   
 337.       0.75665    0.77852   -0.97753   -0.98149   
 338.       0.78394    0.77878   -0.96839   -0.98951   
 339.       0.76988    0.79249   -0.97178   -0.96728   
 340.       0.76422    0.76588   -0.97352   -0.97547   
 341.       0.77483    0.77425   -0.96596   -0.96692   
 342.       0.76508    0.76103   -0.97142   -0.98673   
 343.       0.77164    0.76278   -0.96734   -0.9551    
 344.       0.76206    0.77273   -0.97334   -0.9767    
 345.       0.76762    0.76633   -0.97985   -0.98912   
 346.       0.78083    0.76437   -0.97056   -0.97129   
 347.       0.75887    0.77228   -0.97883   -0.98069   
 348.       0.78166    0.78247   -0.97382   -0.96617   
 349.       0.76754    0.76734   -0.9802    -0.97295   
 350.       0.78609    0.78451   -0.97645   -0.97226   
 351.       0.76871    0.79432   -0.972     -0.97643   
 352.       0.75987    0.76543   -0.96994   -0.98711   
 353.       0.7764     0.7935    -0.97523   -0.97514   
 354.       0.77269    0.78182   -0.97403   -0.97815   
 355.       0.77089    0.77788   -0.97027   -0.9689    
 356.       0.76654    0.7799    -0.96959   -0.97356   
