#           v(g)       i(tb.sd)   iter(0)   
 0.         0.2        0.         4.        
 0.02       0.2        0.         4.        
 0.04       0.2        0.         4.        
 0.06       0.2        0.         4.        
 0.08       0.2        0.         4.        
 0.1        0.2        0.         4.        
 0.12       0.2        0.         4.        
 0.14       0.2        0.         4.        
 0.16       0.2        0.         4.        
 0.18       0.2        0.         4.        
 0.2        0.2        0.         4.        
 0.22       0.2        0.         4.        
 0.24       0.2        0.         4.        
 0.26       0.2        0.         4.        
 0.28       0.2        0.         4.        
 0.3        0.2        0.         4.        
 0.32       0.2        0.         4.        
 0.34       0.2        0.         4.        
 0.36       0.2        0.         4.        
 0.38       0.2        0.         4.        
 0.4        0.2        0.         4.        
 0.42       0.2        0.         4.        
 0.44       0.2        0.         4.        
 0.46       0.2        0.         4.        
 0.48       0.2        0.         4.        
 0.5        0.2        0.         4.        
 0.52       0.2        0.         4.        
 0.54       0.2        0.         4.        
 0.56       0.2        0.         4.        
 0.58       0.2        0.         4.        
 0.6        0.2        0.         4.        
 0.62       0.2        0.         4.        
 0.64       0.2        0.         4.        
 0.66       0.2        0.         4.        
 0.68       0.2        0.         4.        
 0.7        0.2        0.         4.        
 0.72       0.2        0.         4.        
 0.74       0.2        0.         4.        
 0.76       0.2        0.         4.        
 0.78       0.2        0.         4.        
 0.8        0.2        0.         4.        
 0.82       0.2        0.         4.        
 0.84       0.2        0.         4.        
 0.86       0.2        0.         4.        
 0.88       0.2        0.         4.        
 0.9        0.2        0.         4.        
 0.92       0.2        0.         4.        
 0.94       0.2        0.         4.        
 0.96       0.2        0.         4.        
 0.98       0.2        0.         4.        
 1.         0.2        0.         4.        
 1.02       0.2        0.         4.        
 1.04       0.2        0.         4.        
 1.06       0.2        0.         4.        
 1.08       0.2        0.         4.        
 1.1        0.2        0.         4.        
 1.12       0.2        0.         4.        
 1.14       0.2        0.         4.        
 1.16       0.2        0.         4.        
 1.18       0.2        0.         4.        
 1.2        0.2        0.         4.        
 0.         0.4        0.         4.        
 0.02       0.4        0.         4.        
 0.04       0.4        0.         4.        
 0.06       0.4        0.         4.        
 0.08       0.4        0.         4.        
 0.1        0.4        0.         4.        
 0.12       0.4        0.         4.        
 0.14       0.4        0.         4.        
 0.16       0.4        0.         4.        
 0.18       0.4        0.         4.        
 0.2        0.4        0.         4.        
 0.22       0.4        0.         4.        
 0.24       0.4        0.         4.        
 0.26       0.4        0.         4.        
 0.28       0.4        0.         4.        
 0.3        0.4        0.         4.        
 0.32       0.4        0.         4.        
 0.34       0.4        0.         4.        
 0.36       0.4        0.         4.        
 0.38       0.4        0.         4.        
 0.4        0.4        0.         4.        
 0.42       0.4        0.         4.        
 0.44       0.4        0.         4.        
 0.46       0.4        0.         4.        
 0.48       0.4        0.         4.        
 0.5        0.4        0.         4.        
 0.52       0.4        0.         4.        
 0.54       0.4        0.         4.        
 0.56       0.4        0.         4.        
 0.58       0.4        0.         4.        
 0.6        0.4        0.         4.        
 0.62       0.4        0.         4.        
 0.64       0.4        0.         4.        
 0.66       0.4        0.         4.        
 0.68       0.4        0.         4.        
 0.7        0.4        0.         4.        
 0.72       0.4        0.         4.        
 0.74       0.4        0.         4.        
 0.76       0.4        0.         4.        
 0.78       0.4        0.         4.        
 0.8        0.4        0.         4.        
 0.82       0.4        0.         4.        
 0.84       0.4        0.         4.        
 0.86       0.4        0.         4.        
 0.88       0.4        0.         4.        
 0.9        0.4        0.         4.        
 0.92       0.4        0.         4.        
 0.94       0.4        0.         4.        
 0.96       0.4        0.         4.        
 0.98       0.4        0.         4.        
 1.         0.4        0.         4.        
 1.02       0.4        0.         4.        
 1.04       0.4        0.         4.        
 1.06       0.4        0.         4.        
 1.08       0.4        0.         4.        
 1.1        0.4        0.         4.        
 1.12       0.4        0.         4.        
 1.14       0.4        0.         4.        
 1.16       0.4        0.         4.        
 1.18       0.4        0.         4.        
 1.2        0.4        0.         4.        
 0.         0.6       -2.E-21     4.        
 0.02       0.6       -32.845E-9  4.        
 0.04       0.6       -49.912E-9  4.        
 0.06       0.6       -58.611E-9  4.        
 0.08       0.6       -63.385E-9  4.        
 0.1        0.6       -66.36E-9   4.        
 0.12       0.6       -68.487E-9  4.        
 0.14       0.6       -70.191E-9  4.        
 0.16       0.6       -71.674E-9  4.        
 0.18       0.6       -73.032E-9  4.        
 0.2        0.6       -74.313E-9  4.        
 0.22       0.6       -75.554E-9  4.        
 0.24       0.6       -76.769E-9  4.        
 0.26       0.6       -77.969E-9  4.        
 0.28       0.6       -79.155E-9  4.        
 0.3        0.6       -80.345E-9  4.        
 0.32       0.6       -81.523E-9  4.        
 0.34       0.6       -82.706E-9  4.        
 0.36       0.6       -83.892E-9  4.        
 0.38       0.6       -85.085E-9  4.        
 0.4        0.6       -86.278E-9  4.        
 0.42       0.6       -87.472E-9  4.        
 0.44       0.6       -88.687E-9  4.        
 0.46       0.6       -89.887E-9  4.        
 0.48       0.6       -91.11E-9   4.        
 0.5        0.6       -92.346E-9  4.        
 0.52       0.6       -93.576E-9  4.        
 0.54       0.6       -94.835E-9  4.        
 0.56       0.6       -96.094E-9  4.        
 0.58       0.6       -97.367E-9  4.        
 0.6        0.6       -98.647E-9  4.        
 0.62       0.6       -99.943E-9  4.        
 0.64       0.6       -101.24E-9  4.        
 0.66       0.6       -102.55E-9  4.        
 0.68       0.6       -103.87E-9  4.        
 0.7        0.6       -105.21E-9  4.        
 0.72       0.6       -106.56E-9  4.        
 0.74       0.6       -107.92E-9  4.        
 0.76       0.6       -109.27E-9  4.        
 0.78       0.6       -110.65E-9  4.        
 0.8        0.6       -112.06E-9  4.        
 0.82       0.6       -113.46E-9  4.        
 0.84       0.6       -114.9E-9   4.        
 0.86       0.6       -116.33E-9  4.        
 0.88       0.6       -117.78E-9  4.        
 0.9        0.6       -119.24E-9  4.        
 0.92       0.6       -120.71E-9  4.        
 0.94       0.6       -122.19E-9  4.        
 0.96       0.6       -123.68E-9  4.        
 0.98       0.6       -125.22E-9  4.        
 1.         0.6       -126.73E-9  4.        
 1.02       0.6       -128.28E-9  4.        
 1.04       0.6       -129.85E-9  4.        
 1.06       0.6       -131.42E-9  4.        
 1.08       0.6       -133.02E-9  4.        
 1.1        0.6       -134.61E-9  4.        
 1.12       0.6       -136.24E-9  4.        
 1.14       0.6       -137.86E-9  4.        
 1.16       0.6       -139.52E-9  4.        
 1.18       0.6       -141.2E-9   4.        
 1.2        0.6       -142.83E-9  4.        
 0.         0.8        217.E-21   4.        
 0.02       0.8       -442.09E-9  4.        
 0.04       0.8       -804.11E-9  4.        
 0.06       0.8       -1.0885E-6  4.        
 0.08       0.8       -1.3058E-6  4.        
 0.1        0.8       -1.4697E-6  4.        
 0.12       0.8       -1.5934E-6  4.        
 0.14       0.8       -1.6882E-6  4.        
 0.16       0.8       -1.7624E-6  4.        
 0.18       0.8       -1.8221E-6  4.        
 0.2        0.8       -1.8716E-6  4.        
 0.22       0.8       -1.9138E-6  4.        
 0.24       0.8       -1.9508E-6  4.        
 0.26       0.8       -1.9839E-6  4.        
 0.28       0.8       -2.014E-6   4.        
 0.3        0.8       -2.042E-6   4.        
 0.32       0.8       -2.0682E-6  4.        
 0.34       0.8       -2.093E-6   4.        
 0.36       0.8       -2.1166E-6  4.        
 0.38       0.8       -2.1394E-6  4.        
 0.4        0.8       -2.1614E-6  4.        
 0.42       0.8       -2.1828E-6  4.        
 0.44       0.8       -2.2035E-6  4.        
 0.46       0.8       -2.2238E-6  4.        
 0.48       0.8       -2.2437E-6  4.        
 0.5        0.8       -2.2633E-6  4.        
 0.52       0.8       -2.2825E-6  4.        
 0.54       0.8       -2.3014E-6  4.        
 0.56       0.8       -2.32E-6    4.        
 0.58       0.8       -2.3384E-6  4.        
 0.6        0.8       -2.3567E-6  4.        
 0.62       0.8       -2.3747E-6  4.        
 0.64       0.8       -2.3925E-6  4.        
 0.66       0.8       -2.4102E-6  4.        
 0.68       0.8       -2.4278E-6  4.        
 0.7        0.8       -2.4452E-6  4.        
 0.72       0.8       -2.4625E-6  4.        
 0.74       0.8       -2.4796E-6  4.        
 0.76       0.8       -2.4968E-6  4.        
 0.78       0.8       -2.5137E-6  4.        
 0.8        0.8       -2.5306E-6  4.        
 0.82       0.8       -2.5474E-6  4.        
 0.84       0.8       -2.5641E-6  4.        
 0.86       0.8       -2.5808E-6  4.        
 0.88       0.8       -2.5974E-6  4.        
 0.9        0.8       -2.6139E-6  4.        
 0.92       0.8       -2.6304E-6  4.        
 0.94       0.8       -2.6468E-6  4.        
 0.96       0.8       -2.6632E-6  4.        
 0.98       0.8       -2.6795E-6  4.        
 1.         0.8       -2.6958E-6  4.        
 1.02       0.8       -2.7121E-6  4.        
 1.04       0.8       -2.7283E-6  4.        
 1.06       0.8       -2.7445E-6  4.        
 1.08       0.8       -2.7606E-6  4.        
 1.1        0.8       -2.7767E-6  4.        
 1.12       0.8       -2.7928E-6  4.        
 1.14       0.8       -2.8089E-6  4.        
 1.16       0.8       -2.825E-6   4.        
 1.18       0.8       -2.841E-6   4.        
 1.2        0.8       -2.857E-6   4.        
 0.         1.         2.633E-18  4.        
 0.02       1.        -1.039E-6   4.        
 0.04       1.        -1.9905E-6  4.        
 0.06       1.        -2.8472E-6  4.        
 0.08       1.        -3.6075E-6  4.        
 0.1        1.        -4.2743E-6  4.        
 0.12       1.        -4.854E-6   4.        
 0.14       1.        -5.355E-6   4.        
 0.16       1.        -5.7865E-6  4.        
 0.18       1.        -6.1578E-6  4.        
 0.2        1.        -6.4777E-6  4.        
 0.22       1.        -6.7541E-6  4.        
 0.24       1.        -6.9941E-6  4.        
 0.26       1.        -7.2036E-6  4.        
 0.28       1.        -7.3877E-6  4.        
 0.3        1.        -7.5506E-6  4.        
 0.32       1.        -7.696E-6   4.        
 0.34       1.        -7.8266E-6  4.        
 0.36       1.        -7.9448E-6  4.        
 0.38       1.        -8.0527E-6  4.        
 0.4        1.        -8.1519E-6  4.        
 0.42       1.        -8.2436E-6  4.        
 0.44       1.        -8.329E-6   4.        
 0.46       1.        -8.409E-6   4.        
 0.48       1.        -8.4842E-6  4.        
 0.5        1.        -8.5555E-6  4.        
 0.52       1.        -8.6232E-6  4.        
 0.54       1.        -8.6878E-6  4.        
 0.56       1.        -8.7497E-6  4.        
 0.58       1.        -8.8092E-6  4.        
 0.6        1.        -8.8666E-6  4.        
 0.62       1.        -8.9221E-6  4.        
 0.64       1.        -8.9759E-6  4.        
 0.66       1.        -9.0281E-6  4.        
 0.68       1.        -9.079E-6   4.        
 0.7        1.        -9.1286E-6  4.        
 0.72       1.        -9.1771E-6  4.        
 0.74       1.        -9.2245E-6  4.        
 0.76       1.        -9.271E-6   4.        
 0.78       1.        -9.3166E-6  4.        
 0.8        1.        -9.3613E-6  4.        
 0.82       1.        -9.4054E-6  4.        
 0.84       1.        -9.4487E-6  4.        
 0.86       1.        -9.4914E-6  4.        
 0.88       1.        -9.5335E-6  4.        
 0.9        1.        -9.5751E-6  4.        
 0.92       1.        -9.6161E-6  4.        
 0.94       1.        -9.6567E-6  4.        
 0.96       1.        -9.6967E-6  4.        
 0.98       1.        -9.7364E-6  4.        
 1.         1.        -9.7757E-6  4.        
 1.02       1.        -9.8146E-6  4.        
 1.04       1.        -9.8531E-6  4.        
 1.06       1.        -9.8912E-6  4.        
 1.08       1.        -9.9291E-6  4.        
 1.1        1.        -9.9667E-6  4.        
 1.12       1.        -10.004E-6  4.        
 1.14       1.        -10.041E-6  4.        
 1.16       1.        -10.078E-6  4.        
 1.18       1.        -10.114E-6  4.        
 1.2        1.        -10.15E-6   4.        
 0.         1.2        16.13E-18  4.        
 0.02       1.2       -1.6288E-6  4.        
 0.04       1.2       -3.1747E-6  4.        
 0.06       1.2       -4.6283E-6  4.        
 0.08       1.2       -5.9834E-6  4.        
 0.1        1.2       -7.2372E-6  4.        
 0.12       1.2       -8.3896E-6  4.        
 0.14       1.2       -9.443E-6   4.        
 0.16       1.2       -10.401E-6  4.        
 0.18       1.2       -11.27E-6   4.        
 0.2        1.2       -12.056E-6  4.        
 0.22       1.2       -12.765E-6  4.        
 0.24       1.2       -13.404E-6  4.        
 0.26       1.2       -13.98E-6   4.        
 0.28       1.2       -14.499E-6  4.        
 0.3        1.2       -14.967E-6  4.        
 0.32       1.2       -15.39E-6   4.        
 0.34       1.2       -15.773E-6  4.        
 0.36       1.2       -16.121E-6  4.        
 0.38       1.2       -16.437E-6  4.        
 0.4        1.2       -16.725E-6  4.        
 0.42       1.2       -16.989E-6  4.        
 0.44       1.2       -17.232E-6  4.        
 0.46       1.2       -17.455E-6  4.        
 0.48       1.2       -17.662E-6  4.        
 0.5        1.2       -17.854E-6  4.        
 0.52       1.2       -18.032E-6  4.        
 0.54       1.2       -18.199E-6  4.        
 0.56       1.2       -18.356E-6  4.        
 0.58       1.2       -18.503E-6  4.        
 0.6        1.2       -18.642E-6  4.        
 0.62       1.2       -18.774E-6  4.        
 0.64       1.2       -18.899E-6  4.        
 0.66       1.2       -19.018E-6  4.        
 0.68       1.2       -19.131E-6  4.        
 0.7        1.2       -19.24E-6   4.        
 0.72       1.2       -19.344E-6  4.        
 0.74       1.2       -19.444E-6  4.        
 0.76       1.2       -19.541E-6  4.        
 0.78       1.2       -19.634E-6  4.        
 0.8        1.2       -19.724E-6  4.        
 0.82       1.2       -19.812E-6  4.        
 0.84       1.2       -19.897E-6  4.        
 0.86       1.2       -19.979E-6  4.        
 0.88       1.2       -20.06E-6   4.        
 0.9        1.2       -20.138E-6  4.        
 0.92       1.2       -20.214E-6  4.        
 0.94       1.2       -20.289E-6  4.        
 0.96       1.2       -20.362E-6  4.        
 0.98       1.2       -20.434E-6  4.        
 1.         1.2       -20.504E-6  4.        
 1.02       1.2       -20.573E-6  4.        
 1.04       1.2       -20.641E-6  4.        
 1.06       1.2       -20.707E-6  4.        
 1.08       1.2       -20.773E-6  4.        
 1.1        1.2       -20.837E-6  4.        
 1.12       1.2       -20.901E-6  4.        
 1.14       1.2       -20.963E-6  4.        
 1.16       1.2       -21.025E-6  4.        
 1.18       1.2       -21.086E-6  4.        
 1.2        1.2       -21.146E-6  4.        
Gnucap   System status
iterations: op=0, dc=1464, tran=0, fourier=0, total=1464
transient timesteps: accepted=0, rejected=0, total=0
nodes: user=2, subckt=0, model=33, total=35
dctran density=60.1%, ac density=60.1%
