#           v(g)       i(tb.sd)   iter(0)   
 0.        -0.2        0.         4.        
-0.02      -0.2        0.         4.        
-0.04      -0.2        0.         4.        
-0.06      -0.2        0.         4.        
-0.08      -0.2        0.         4.        
-0.1       -0.2        0.         4.        
-0.12      -0.2        0.         4.        
-0.14      -0.2        0.         4.        
-0.16      -0.2        0.         4.        
-0.18      -0.2        0.         4.        
-0.2       -0.2        0.         4.        
-0.22      -0.2        0.         4.        
-0.24      -0.2        0.         4.        
-0.26      -0.2        0.         4.        
-0.28      -0.2        0.         4.        
-0.3       -0.2        0.         4.        
-0.32      -0.2        0.         4.        
-0.34      -0.2        0.         4.        
-0.36      -0.2        0.         4.        
-0.38      -0.2        0.         4.        
-0.4       -0.2        0.         4.        
-0.42      -0.2        0.         4.        
-0.44      -0.2        0.         4.        
-0.46      -0.2        0.         4.        
-0.48      -0.2        0.         4.        
-0.5       -0.2        0.         4.        
-0.52      -0.2        0.         4.        
-0.54      -0.2        0.         4.        
-0.56      -0.2        0.         4.        
-0.58      -0.2        0.         4.        
-0.6       -0.2        0.         4.        
-0.62      -0.2        0.         4.        
-0.64      -0.2        0.         4.        
-0.66      -0.2        0.         4.        
-0.68      -0.2        0.         4.        
-0.7       -0.2        0.         4.        
-0.72      -0.2        0.         4.        
-0.74      -0.2        0.         4.        
-0.76      -0.2        0.         4.        
-0.78      -0.2        0.         4.        
-0.8       -0.2        0.         4.        
-0.82      -0.2        0.         4.        
-0.84      -0.2        0.         4.        
-0.86      -0.2        0.         4.        
-0.88      -0.2        0.         4.        
-0.9       -0.2        0.         4.        
-0.92      -0.2        0.         4.        
-0.94      -0.2        0.         4.        
-0.96      -0.2        0.         4.        
-0.98      -0.2        0.         4.        
-1.        -0.2        0.         4.        
-1.02      -0.2        0.         4.        
-1.04      -0.2        0.         4.        
-1.06      -0.2        0.         4.        
-1.08      -0.2        0.         4.        
-1.1       -0.2        0.         4.        
-1.12      -0.2        0.         4.        
-1.14      -0.2        0.         4.        
-1.16      -0.2        0.         4.        
-1.18      -0.2        0.         4.        
-1.2       -0.2        0.         4.        
 0.        -0.4        0.         4.        
-0.02      -0.4        506.8E-12  4.        
-0.04      -0.4        730.8E-12  4.        
-0.06      -0.4        830.4E-12  4.        
-0.08      -0.4        881.3E-12  4.        
-0.1       -0.4        0.         4.        
-0.12      -0.4        0.         4.        
-0.14      -0.4        0.         4.        
-0.16      -0.4        0.         4.        
-0.18      -0.4        0.         4.        
-0.2       -0.4        0.         4.        
-0.22      -0.4        0.         4.        
-0.24      -0.4        0.         4.        
-0.26      -0.4        0.         4.        
-0.28      -0.4        0.         4.        
-0.3       -0.4        0.         4.        
-0.32      -0.4        0.         4.        
-0.34      -0.4        0.         4.        
-0.36      -0.4        0.         4.        
-0.38      -0.4        0.         4.        
-0.4       -0.4        0.         4.        
-0.42      -0.4        0.         4.        
-0.44      -0.4        0.         4.        
-0.46      -0.4        0.         4.        
-0.48      -0.4        0.         4.        
-0.5       -0.4        0.         4.        
-0.52      -0.4        0.         4.        
-0.54      -0.4        0.         4.        
-0.56      -0.4        0.         4.        
-0.58      -0.4        0.         4.        
-0.6       -0.4        0.         4.        
-0.62      -0.4        0.         4.        
-0.64      -0.4        0.         4.        
-0.66      -0.4        0.         4.        
-0.68      -0.4        0.         4.        
-0.7       -0.4        0.         4.        
-0.72      -0.4        0.         4.        
-0.74      -0.4        0.         4.        
-0.76      -0.4        0.         4.        
-0.78      -0.4        0.         4.        
-0.8       -0.4        0.         4.        
-0.82      -0.4        0.         4.        
-0.84      -0.4        0.         4.        
-0.86      -0.4        0.         4.        
-0.88      -0.4        0.         4.        
-0.9       -0.4        0.         4.        
-0.92      -0.4        0.         4.        
-0.94      -0.4        0.         4.        
-0.96      -0.4        0.         4.        
-0.98      -0.4        0.         4.        
-1.        -0.4        0.         4.        
-1.02      -0.4        0.         4.        
-1.04      -0.4        0.         4.        
-1.06      -0.4        0.         4.        
-1.08      -0.4        0.         4.        
-1.1       -0.4        0.         4.        
-1.12      -0.4        0.         4.        
-1.14      -0.4        0.         4.        
-1.16      -0.4        0.         4.        
-1.18      -0.4        0.         4.        
-1.2       -0.4        0.         4.        
 0.        -0.6       -1.E-21     4.        
-0.02      -0.6        38.473E-9  4.        
-0.04      -0.6        61.905E-9  4.        
-0.06      -0.6        75.067E-9  4.        
-0.08      -0.6        82.343E-9  4.        
-0.1       -0.6        86.531E-9  4.        
-0.12      -0.6        89.12E-9   4.        
-0.14      -0.6        90.859E-9  4.        
-0.16      -0.6        92.132E-9  4.        
-0.18      -0.6        93.125E-9  4.        
-0.2       -0.6        93.962E-9  4.        
-0.22      -0.6        94.678E-9  4.        
-0.24      -0.6        95.333E-9  4.        
-0.26      -0.6        95.934E-9  4.        
-0.28      -0.6        96.497E-9  4.        
-0.3       -0.6        97.032E-9  4.        
-0.32      -0.6        97.549E-9  4.        
-0.34      -0.6        98.058E-9  4.        
-0.36      -0.6        98.56E-9   4.        
-0.38      -0.6        99.04E-9   4.        
-0.4       -0.6        99.521E-9  4.        
-0.42      -0.6        99.993E-9  4.        
-0.44      -0.6        100.47E-9  4.        
-0.46      -0.6        100.93E-9  4.        
-0.48      -0.6        101.39E-9  4.        
-0.5       -0.6        101.86E-9  4.        
-0.52      -0.6        102.33E-9  4.        
-0.54      -0.6        102.78E-9  4.        
-0.56      -0.6        103.23E-9  4.        
-0.58      -0.6        103.69E-9  4.        
-0.6       -0.6        104.15E-9  4.        
-0.62      -0.6        104.6E-9   4.        
-0.64      -0.6        105.06E-9  4.        
-0.66      -0.6        105.5E-9   4.        
-0.68      -0.6        105.98E-9  4.        
-0.7       -0.6        106.43E-9  4.        
-0.72      -0.6        106.88E-9  4.        
-0.74      -0.6        107.33E-9  4.        
-0.76      -0.6        107.82E-9  4.        
-0.78      -0.6        108.28E-9  4.        
-0.8       -0.6        108.72E-9  4.        
-0.82      -0.6        109.15E-9  4.        
-0.84      -0.6        109.65E-9  4.        
-0.86      -0.6        110.11E-9  4.        
-0.88      -0.6        110.57E-9  4.        
-0.9       -0.6        111.03E-9  4.        
-0.92      -0.6        111.51E-9  4.        
-0.94      -0.6        111.95E-9  4.        
-0.96      -0.6        112.41E-9  4.        
-0.98      -0.6        112.88E-9  4.        
-1.        -0.6        113.34E-9  4.        
-1.02      -0.6        113.8E-9   4.        
-1.04      -0.6        114.28E-9  4.        
-1.06      -0.6        114.74E-9  4.        
-1.08      -0.6        115.24E-9  4.        
-1.1       -0.6        115.72E-9  4.        
-1.12      -0.6        116.2E-9   4.        
-1.14      -0.6        116.68E-9  4.        
-1.16      -0.6        117.14E-9  4.        
-1.18      -0.6        117.64E-9  4.        
-1.2       -0.6        118.1E-9   4.        
 0.        -0.8       -55.E-21    4.        
-0.02      -0.8        205.47E-9  4.        
-0.04      -0.8        376.81E-9  4.        
-0.06      -0.8        514.43E-9  4.        
-0.08      -0.8        621.58E-9  4.        
-0.1       -0.8        703.12E-9  4.        
-0.12      -0.8        764.31E-9  4.        
-0.14      -0.8        809.97E-9  4.        
-0.16      -0.8        844.13E-9  4.        
-0.18      -0.8        869.91E-9  4.        
-0.2       -0.8        889.65E-9  4.        
-0.22      -0.8        905.04E-9  4.        
-0.24      -0.8        917.29E-9  4.        
-0.26      -0.8        927.24E-9  4.        
-0.28      -0.8        935.49E-9  4.        
-0.3       -0.8        942.5E-9   4.        
-0.32      -0.8        948.56E-9  4.        
-0.34      -0.8        953.89E-9  4.        
-0.36      -0.8        958.67E-9  4.        
-0.38      -0.8        963.E-9    4.        
-0.4       -0.8        966.99E-9  4.        
-0.42      -0.8        970.69E-9  4.        
-0.44      -0.8        974.19E-9  4.        
-0.46      -0.8        977.47E-9  4.        
-0.48      -0.8        980.63E-9  4.        
-0.5       -0.8        983.64E-9  4.        
-0.52      -0.8        986.54E-9  4.        
-0.54      -0.8        989.35E-9  4.        
-0.56      -0.8        992.1E-9   4.        
-0.58      -0.8        994.77E-9  4.        
-0.6       -0.8        997.39E-9  4.        
-0.62      -0.8        999.95E-9  4.        
-0.64      -0.8        1.0025E-6  4.        
-0.66      -0.8        1.0049E-6  4.        
-0.68      -0.8        1.0074E-6  4.        
-0.7       -0.8        1.0098E-6  4.        
-0.72      -0.8        1.0122E-6  4.        
-0.74      -0.8        1.0145E-6  4.        
-0.76      -0.8        1.0169E-6  4.        
-0.78      -0.8        1.0192E-6  4.        
-0.8       -0.8        1.0215E-6  4.        
-0.82      -0.8        1.0238E-6  4.        
-0.84      -0.8        1.0261E-6  4.        
-0.86      -0.8        1.0284E-6  4.        
-0.88      -0.8        1.0306E-6  4.        
-0.9       -0.8        1.0329E-6  4.        
-0.92      -0.8        1.0351E-6  4.        
-0.94      -0.8        1.0373E-6  4.        
-0.96      -0.8        1.0395E-6  4.        
-0.98      -0.8        1.0418E-6  4.        
-1.        -0.8        1.044E-6   4.        
-1.02      -0.8        1.0462E-6  4.        
-1.04      -0.8        1.0484E-6  4.        
-1.06      -0.8        1.0506E-6  4.        
-1.08      -0.8        1.0528E-6  4.        
-1.1       -0.8        1.0549E-6  4.        
-1.12      -0.8        1.0571E-6  4.        
-1.14      -0.8        1.0593E-6  4.        
-1.16      -0.8        1.0615E-6  4.        
-1.18      -0.8        1.0636E-6  4.        
-1.2       -0.8        1.0658E-6  4.        
 0.        -1.        -641.E-21   4.        
-0.02      -1.         427.28E-9  4.        
-0.04      -1.         816.13E-9  4.        
-0.06      -1.         1.1644E-6  4.        
-0.08      -1.         1.4716E-6  4.        
-0.1       -1.         1.739E-6   4.        
-0.12      -1.         1.9692E-6  4.        
-0.14      -1.         2.1653E-6  4.        
-0.16      -1.         2.3312E-6  4.        
-0.18      -1.         2.4709E-6  4.        
-0.2       -1.         2.588E-6   4.        
-0.22      -1.         2.6862E-6  4.        
-0.24      -1.         2.7686E-6  4.        
-0.26      -1.         2.8378E-6  4.        
-0.28      -1.         2.8961E-6  4.        
-0.3       -1.         2.9455E-6  4.        
-0.32      -1.         2.9876E-6  4.        
-0.34      -1.         3.0237E-6  4.        
-0.36      -1.         3.0549E-6  4.        
-0.38      -1.         3.082E-6   4.        
-0.4       -1.         3.1057E-6  4.        
-0.42      -1.         3.1266E-6  4.        
-0.44      -1.         3.1452E-6  4.        
-0.46      -1.         3.1619E-6  4.        
-0.48      -1.         3.177E-6   4.        
-0.5       -1.         3.1907E-6  4.        
-0.52      -1.         3.2033E-6  4.        
-0.54      -1.         3.2149E-6  4.        
-0.56      -1.         3.2256E-6  4.        
-0.58      -1.         3.2357E-6  4.        
-0.6       -1.         3.2451E-6  4.        
-0.62      -1.         3.254E-6   4.        
-0.64      -1.         3.2624E-6  4.        
-0.66      -1.         3.2704E-6  4.        
-0.68      -1.         3.2782E-6  4.        
-0.7       -1.         3.2855E-6  4.        
-0.72      -1.         3.2926E-6  4.        
-0.74      -1.         3.2995E-6  4.        
-0.76      -1.         3.3061E-6  4.        
-0.78      -1.         3.3125E-6  4.        
-0.8       -1.         3.3188E-6  4.        
-0.82      -1.         3.3249E-6  4.        
-0.84      -1.         3.3309E-6  4.        
-0.86      -1.         3.3368E-6  4.        
-0.88      -1.         3.3425E-6  4.        
-0.9       -1.         3.3482E-6  4.        
-0.92      -1.         3.3537E-6  4.        
-0.94      -1.         3.3592E-6  4.        
-0.96      -1.         3.3645E-6  4.        
-0.98      -1.         3.3699E-6  4.        
-1.        -1.         3.3751E-6  4.        
-1.02      -1.         3.3803E-6  4.        
-1.04      -1.         3.3854E-6  4.        
-1.06      -1.         3.3905E-6  4.        
-1.08      -1.         3.3955E-6  4.        
-1.1       -1.         3.4005E-6  4.        
-1.12      -1.         3.4055E-6  4.        
-1.14      -1.         3.4104E-6  4.        
-1.16      -1.         3.4153E-6  4.        
-1.18      -1.         3.4201E-6  4.        
-1.2       -1.         3.425E-6   4.        
 0.        -1.2       -4.264E-18  4.        
-0.02      -1.2        651.57E-9  4.        
-0.04      -1.2        1.2661E-6  4.        
-0.06      -1.2        1.8408E-6  4.        
-0.08      -1.2        2.3739E-6  4.        
-0.1       -1.2        2.8646E-6  4.        
-0.12      -1.2        3.313E-6   4.        
-0.14      -1.2        3.72E-6    4.        
-0.16      -1.2        4.0873E-6  4.        
-0.18      -1.2        4.417E-6   4.        
-0.2       -1.2        4.7117E-6  4.        
-0.22      -1.2        4.9742E-6  4.        
-0.24      -1.2        5.2073E-6  4.        
-0.26      -1.2        5.4139E-6  4.        
-0.28      -1.2        5.5968E-6  4.        
-0.3       -1.2        5.7587E-6  4.        
-0.32      -1.2        5.9019E-6  4.        
-0.34      -1.2        6.0286E-6  4.        
-0.36      -1.2        6.141E-6   4.        
-0.38      -1.2        6.2407E-6  4.        
-0.4       -1.2        6.3295E-6  4.        
-0.42      -1.2        6.4086E-6  4.        
-0.44      -1.2        6.4793E-6  4.        
-0.46      -1.2        6.5426E-6  4.        
-0.48      -1.2        6.5996E-6  4.        
-0.5       -1.2        6.651E-6   4.        
-0.52      -1.2        6.6976E-6  4.        
-0.54      -1.2        6.7398E-6  4.        
-0.56      -1.2        6.7784E-6  4.        
-0.58      -1.2        6.8136E-6  4.        
-0.6       -1.2        6.846E-6   4.        
-0.62      -1.2        6.8759E-6  4.        
-0.64      -1.2        6.9035E-6  4.        
-0.66      -1.2        6.9291E-6  4.        
-0.68      -1.2        6.953E-6   4.        
-0.7       -1.2        6.9753E-6  4.        
-0.72      -1.2        6.9963E-6  4.        
-0.74      -1.2        7.016E-6   4.        
-0.76      -1.2        7.0346E-6  4.        
-0.78      -1.2        7.0522E-6  4.        
-0.8       -1.2        7.0689E-6  4.        
-0.82      -1.2        7.0849E-6  4.        
-0.84      -1.2        7.1001E-6  4.        
-0.86      -1.2        7.1146E-6  4.        
-0.88      -1.2        7.1286E-6  4.        
-0.9       -1.2        7.1421E-6  4.        
-0.92      -1.2        7.1551E-6  4.        
-0.94      -1.2        7.1676E-6  4.        
-0.96      -1.2        7.1797E-6  4.        
-0.98      -1.2        7.1915E-6  4.        
-1.        -1.2        7.2029E-6  4.        
-1.02      -1.2        7.214E-6   4.        
-1.04      -1.2        7.2248E-6  4.        
-1.06      -1.2        7.2354E-6  4.        
-1.08      -1.2        7.2457E-6  4.        
-1.1       -1.2        7.2558E-6  4.        
-1.12      -1.2        7.2657E-6  4.        
-1.14      -1.2        7.2754E-6  4.        
-1.16      -1.2        7.285E-6   4.        
-1.18      -1.2        7.2943E-6  4.        
-1.2       -1.2        7.3036E-6  4.        
Gnucap   System status
iterations: op=0, dc=1464, tran=0, fourier=0, total=1464
transient timesteps: accepted=0, rejected=0, total=0
nodes: user=2, subckt=0, model=33, total=35
dctran density=60.1%, ac density=60.1%
