#           v(vgs1)    v(vgs2)    v(vgs3)    v(vgs4)   
 1.         0.8547     0.84694   -1.061     -1.0477    
 2.         0.84878    0.85215   -1.0652    -1.0609    
 3.         0.84397    0.84404   -1.0658    -1.0489    
 4.         0.8578     0.84102   -1.0568    -1.0548    
 5.         0.85101    0.84825   -1.0678    -1.0535    
 6.         0.85833    0.85399   -1.058     -1.0549    
 7.         0.84555    0.86033   -1.0616    -1.0626    
 8.         0.85825    0.84305   -1.0511    -1.0539    
 9.         0.83182    0.8544    -1.0353    -1.0628    
 10.        0.82951    0.85056   -1.0423    -1.06      
 11.        0.83049    0.85904   -1.0725    -1.0636    
 12.        0.85744    0.86598   -1.0617    -1.0618    
 13.        0.85392    0.85685   -1.0635    -1.0542    
 14.        0.85808    0.86237   -1.0596    -1.0635    
 15.        0.8447     0.85984   -1.0705    -1.0614    
 16.        0.86312    0.83909   -1.0572    -1.0549    
 17.        0.84605    0.84903   -1.0634    -1.054     
 18.        0.85255    0.85182   -1.059     -1.0585    
 19.        0.84391    0.84844   -1.0628    -1.0449    
 20.        0.86026    0.83401   -1.0489    -1.0636    
 21.        0.82857    0.83828   -1.0701    -1.0586    
 22.        0.86543    0.84927   -1.0536    -1.0735    
 23.        0.83317    0.84312   -1.0625    -1.0737    
 24.        0.85588    0.84508   -1.0611    -1.0563    
 25.        0.8549     0.83469   -1.0624    -1.0719    
 26.        0.84745    0.852     -1.0602    -1.0624    
 27.        0.84474    0.8479    -1.0734    -1.0621    
 28.        0.86843    0.84581   -1.0619    -1.0585    
 29.        0.84433    0.85073   -1.056     -1.0645    
 30.        0.83742    0.85808   -1.0547    -1.0488    
 31.        0.84358    0.8476    -1.0683    -1.0551    
 32.        0.86154    0.86497   -1.0446    -1.0738    
 33.        0.83147    0.83206   -1.0658    -1.0579    
 34.        0.86509    0.83335   -1.0564    -1.0592    
 35.        0.83549    0.83092   -1.0671    -1.072     
 36.        0.85922    0.84555   -1.0579    -1.0582    
 37.        0.84628    0.85593   -1.0559    -1.0548    
 38.        0.84104    0.85578   -1.0721    -1.0506    
 39.        0.86927    0.83628   -1.0643    -1.063     
 40.        0.85347    0.84082   -1.0544    -1.0698    
 41.        0.83978    0.85963   -1.0601    -1.0487    
 42.        0.84578    0.84013   -1.0445    -1.0658    
 43.        0.82916    0.83938   -1.0586    -1.0614    
 44.        0.84576    0.86491   -1.0542    -1.0593    
 45.        0.83683    0.8519    -1.0661    -1.0663    
 46.        0.86021    0.85154   -1.0533    -1.0427    
 47.        0.84357    0.84494   -1.063     -1.0603    
 48.        0.85805    0.84474   -1.0546    -1.0498    
 49.        0.83761    0.82931   -1.0669    -1.0697    
 50.        0.85837    0.84715   -1.0643    -1.0621    
 51.        0.84936    0.84276   -1.0625    -1.0562    
 52.        0.85458    0.86369   -1.055     -1.0626    
 53.        0.84125    0.85425   -1.0735    -1.0605    
 54.        0.86653    0.84424   -1.0464    -1.0702    
 55.        0.82824    0.85306   -1.06      -1.0655    
 56.        0.85128    0.84909   -1.053     -1.0562    
 57.        0.83958    0.83536   -1.0638    -1.0437    
 58.        0.85769    0.85505   -1.0486    -1.0672    
 59.        0.83326    0.84538   -1.0666    -1.0498    
 60.        0.86221    0.86213   -1.065     -1.0635    
 61.        0.8564     0.85862   -1.063     -1.0663    
 62.        0.8543     0.84727   -1.0603    -1.0682    
 63.        0.85939    0.84627   -1.0577    -1.0629    
 64.        0.84482    0.85387   -1.055     -1.0586    
 65.        0.84082    0.83193   -1.0768    -1.0579    
 66.        0.86835    0.84984   -1.059     -1.0584    
 67.        0.84624    0.84423   -1.0703    -1.0577    
 68.        0.87443    0.85198   -1.0454    -1.0459    
 69.        0.83685    0.84469   -1.063     -1.0765    
 70.        0.86053    0.85896   -1.0542    -1.0547    
 71.        0.83983    0.86585   -1.0622    -1.0641    
 72.        0.85154    0.86398   -1.062     -1.0659    
 73.        0.84921    0.87475   -1.0635    -1.0771    
 74.        0.85262    0.87433   -1.0526    -1.061     
 75.        0.84216    0.85016   -1.0562    -1.0638    
 76.        0.83699    0.84805   -1.0527    -1.0556    
 77.        0.84021    0.85725   -1.0618    -1.0534    
 78.        0.8467     0.84069   -1.0512    -1.0456    
 79.        0.83952    0.8399    -1.0729    -1.0711    
 80.        0.86261    0.85101   -1.0558    -1.0594    
 81.        0.84062    0.86006   -1.0703    -1.0482    
 82.        0.86484    0.85544   -1.0545    -1.0614    
 83.        0.85769    0.84222   -1.0509    -1.0576    
 84.        0.84219    0.83703   -1.0528    -1.0456    
 85.        0.83629    0.83914   -1.0615    -1.0492    
 86.        0.85759    0.85349   -1.0517    -1.0599    
 87.        0.84044    0.84031   -1.0692    -1.0675    
 88.        0.86827    0.86396   -1.039     -1.0525    
 89.        0.818      0.84451   -1.0566    -1.0699    
 90.        0.85451    0.85547   -1.0531    -1.0624    
 91.        0.84412    0.84846   -1.0655    -1.0736    
 92.        0.85608    0.83764   -1.0652    -1.0592    
 93.        0.85807    0.85442   -1.0601    -1.0641    
 94.        0.85373    0.85449   -1.0654    -1.0616    
 95.        0.85672    0.8382    -1.0599    -1.0514    
 96.        0.85005    0.85723   -1.0607    -1.065     
 97.        0.85673    0.85468   -1.0714    -1.055     
 98.        0.85324    0.84631   -1.063     -1.0584    
 99.        0.85187    0.85566   -1.0783    -1.0559    
 100.       0.87644    0.84244   -1.0563    -1.0651    
 101.       0.83787    0.8423    -1.0658    -1.079     
 102.       0.86017    0.8579    -1.0572    -1.0579    
 103.       0.84865    0.84616   -1.0564    -1.0425    
 104.       0.85177    0.84645   -1.0658    -1.0676    
 105.       0.85573    0.85323   -1.062     -1.0466    
 106.       0.85091    0.84469   -1.0677    -1.0644    
 107.       0.85613    0.84209   -1.0673    -1.0568    
 108.       0.85501    0.84941   -1.0596    -1.0714    
 109.       0.84787    0.84246   -1.0666    -1.065     
 110.       0.85612    0.84372   -1.0698    -1.0534    
 111.       0.86101    0.85594   -1.0777    -1.0695    
 112.       0.87643    0.8527    -1.0525    -1.0576    
 113.       0.84158    0.85296   -1.0663    -1.0644    
 114.       0.85842    0.8509    -1.0485    -1.0692    
 115.       0.83206    0.86219   -1.0491    -1.0634    
 116.       0.84171    0.85664   -1.0505    -1.0657    
 117.       0.84626    0.85232   -1.0519    -1.0493    
 118.       0.84781    0.86226   -1.0623    -1.0601    
 119.       0.85383    0.84731   -1.0539    -1.0587    
 120.       0.83908    0.85709   -1.0599    -1.0599    
 121.       0.84608    0.84913   -1.0718    -1.0584    
 122.       0.86333    0.83979   -1.0647    -1.0619    
 123.       0.84557    0.85071   -1.0622    -1.0602    
 124.       0.85685    0.83559   -1.061     -1.0531    
 125.       0.84389    0.84382   -1.0602    -1.0532    
 126.       0.85393    0.84589   -1.0623    -1.0597    
 127.       0.84737    0.82616   -1.0504    -1.0537    
 128.       0.83614    0.82862   -1.0643    -1.0689    
 129.       0.85283    0.85994   -1.0585    -1.0546    
 130.       0.84852    0.85237   -1.0579    -1.0397    
 131.       0.85099    0.86165   -1.066     -1.0499    
 132.       0.85869    0.86754   -1.0558    -1.0561    
 133.       0.84118    0.85423   -1.0673    -1.0609    
 134.       0.86223    0.85233   -1.0521    -1.07      
 135.       0.83859    0.8595    -1.06      -1.0657    
 136.       0.8494     0.84426   -1.0592    -1.0612    
 137.       0.84505    0.86087   -1.0584    -1.0525    
 138.       0.84796    0.84131   -1.0494    -1.0589    
 139.       0.84058    0.8633    -1.0568    -1.0746    
 140.       0.84382    0.84568   -1.0672    -1.0577    
 141.       0.85265    0.85194   -1.0478    -1.0662    
 142.       0.83238    0.86575   -1.0649    -1.0624    
 143.       0.85968    0.83711   -1.0655    -1.0564    
 144.       0.85248    0.84655   -1.0449    -1.0697    
 145.       0.83412    0.84601   -1.0648    -1.045     
 146.       0.85844    0.87007   -1.0676    -1.0764    
 147.       0.85148    0.86733   -1.041     -1.0539    
 148.       0.83138    0.85432   -1.0654    -1.0635    
 149.       0.86015    0.84756   -1.0545    -1.0674    
 150.       0.84169    0.86351   -1.069     -1.0628    
 151.       0.8632     0.84823   -1.0517    -1.0592    
 152.       0.84991    0.83446   -1.0536    -1.052     
 153.       0.84555    0.85402   -1.0658    -1.0621    
 154.       0.85697    0.8533    -1.0646    -1.0473    
 155.       0.85485    0.84586   -1.063     -1.05      
 156.       0.84535    0.85873   -1.0708    -1.0635    
 157.       0.86478    0.84627   -1.049     -1.0488    
 158.       0.83501    0.87286   -1.0601    -1.0786    
 159.       0.85477    0.86288   -1.0597    -1.0607    
 160.       0.84894    0.86384   -1.0554    -1.0667    
 161.       0.84396    0.85089   -1.0489    -1.0602    
 162.       0.84313    0.85148   -1.0613    -1.0638    
 163.       0.85311    0.86385   -1.0562    -1.066     
 164.       0.84643    0.84896   -1.0648    -1.0568    
 165.       0.85382    0.84922   -1.0563    -1.0677    
 166.       0.84301    0.83752   -1.0671    -1.0536    
 167.       0.85692    0.84872   -1.0796    -1.0552    
 168.       0.88088    0.82866   -1.0721    -1.0763    
 169.       0.86059    0.83801   -1.0523    -1.0599    
 170.       0.8375     0.83919   -1.0705    -1.0672    
 171.       0.86159    0.84626   -1.0625    -1.0544    
 172.       0.85025    0.83397   -1.0633    -1.0651    
 173.       0.84761    0.85555   -1.0588    -1.0703    
 174.       0.84679    0.85439   -1.0516    -1.0536    
 175.       0.83814    0.86108   -1.0606    -1.0397    
 176.       0.85331    0.85188   -1.0634    -1.0542    
 177.       0.85822    0.84857   -1.053     -1.0801    
 178.       0.83383    0.8714    -1.064     -1.0579    
 179.       0.8581     0.84264   -1.0464    -1.0642    
 180.       0.83285    0.86913   -1.0637    -1.0758    
 181.       0.85899    0.83826   -1.0555    -1.056     
 182.       0.84016    0.84102   -1.0674    -1.0527    
 183.       0.85908    0.84398   -1.0612    -1.0618    
 184.       0.84716    0.8398    -1.0604    -1.0664    
 185.       0.84107    0.85734   -1.0632    -1.0521    
 186.       0.85001    0.85374   -1.0612    -1.0509    
 187.       0.8477     0.84817   -1.0728    -1.0514    
 188.       0.87096    0.85044   -1.0681    -1.0632    
 189.       0.86361    0.85352   -1.0468    -1.0544    
 190.       0.82537    0.85312   -1.0708    -1.0653    
 191.       0.86391    0.86119   -1.055     -1.0517    
 192.       0.83732    0.85069   -1.0693    -1.0614    
 193.       0.85661    0.83337   -1.0561    -1.057     
 194.       0.84529    0.84936   -1.0604    -1.0595    
 195.       0.85196    0.83862   -1.0664    -1.0718    
 196.       0.85719    0.84158   -1.0572    -1.0648    
 197.       0.84805    0.84981   -1.0614    -1.0754    
 198.       0.84633    0.85925   -1.0608    -1.0497    
 199.       0.85476    0.84798   -1.0625    -1.0591    
 200.       0.85055    0.86407   -1.0665    -1.0685    
 201.       0.85234    0.85716   -1.0393    -1.0567    
 202.       0.82838    0.85478   -1.0672    -1.0572    
 203.       0.86355    0.86567   -1.0515    -1.0556    
 204.       0.83831    0.86685   -1.065     -1.0729    
 205.       0.85488    0.84602   -1.0597    -1.0575    
 206.       0.84924    0.85695   -1.0541    -1.069     
 207.       0.83849    0.84353   -1.0671    -1.0632    
 208.       0.85984    0.82824   -1.0588    -1.0726    
 209.       0.8562     0.86189   -1.0613    -1.0577    
 210.       0.84767    0.84994   -1.061     -1.0636    
 211.       0.84783    0.83452   -1.0534    -1.049     
 212.       0.83682    0.87104   -1.0765    -1.0656    
 213.       0.86228    0.83665   -1.0471    -1.0509    
 214.       0.83365    0.84495   -1.0686    -1.0611    
 215.       0.85947    0.8589    -1.0563    -1.0518    
 216.       0.84217    0.84508   -1.0497    -1.0539    
 217.       0.83939    0.82388   -1.0698    -1.0602    
 218.       0.86401    0.85315   -1.0563    -1.0595    
 219.       0.8424     0.84367   -1.0686    -1.0746    
 220.       0.85966    0.8577    -1.0562    -1.0562    
 221.       0.84398    0.85475   -1.0596    -1.0529    
 222.       0.84702    0.84691   -1.0619    -1.0536    
 223.       0.85396    0.8457    -1.0482    -1.0452    
 224.       0.83378    0.85376   -1.0708    -1.0689    
 225.       0.86238    0.82782   -1.0545    -1.0613    
 226.       0.84647    0.8512    -1.0655    -1.0644    
 227.       0.85813    0.83121   -1.0562    -1.0618    
 228.       0.84813    0.85922   -1.06      -1.0621    
 229.       0.84991    0.8571    -1.0612    -1.0582    
 230.       0.83954    0.85107   -1.0544    -1.0772    
 231.       0.84079    0.83703   -1.055     -1.0615    
 232.       0.84645    0.85008   -1.0669    -1.0503    
 233.       0.85361    0.85033   -1.0407    -1.0529    
 234.       0.82758    0.84085   -1.0781    -1.0663    
 235.       0.87187    0.85618   -1.0654    -1.043     
 236.       0.84651    0.84891   -1.0753    -1.0783    
 237.       0.86306    0.85087   -1.0565    -1.0684    
 238.       0.84301    0.84653   -1.0658    -1.0606    
 239.       0.85415    0.84207   -1.0664    -1.0709    
 240.       0.85408    0.83581   -1.0566    -1.0565    
 241.       0.84097    0.8344    -1.0642    -1.0738    
 242.       0.84761    0.85065   -1.0593    -1.0763    
 243.       0.8528     0.84668   -1.0461    -1.0688    
 244.       0.8326     0.87492   -1.0715    -1.0606    
 245.       0.86128    0.85734   -1.0469    -1.0525    
 246.       0.83501    0.86329   -1.076     -1.0826    
 247.       0.87209    0.84243   -1.0558    -1.0743    
 248.       0.84612    0.85754   -1.067     -1.0668    
 249.       0.86204    0.84702   -1.0555    -1.0703    
 250.       0.84445    0.86355   -1.0636    -1.05      
 251.       0.85078    0.85174   -1.0519    -1.0592    
 252.       0.84461    0.86292   -1.0633    -1.0549    
 253.       0.85199    0.84617   -1.0659    -1.0563    
 254.       0.84493    0.84528   -1.0654    -1.0632    
 255.       0.85586    0.84392   -1.0567    -1.0553    
 256.       0.83859    0.83953   -1.0698    -1.0721    
 257.       0.86796    0.83703   -1.0569    -1.0596    
 258.       0.84035    0.82929   -1.0698    -1.061     
 259.       0.85989    0.846     -1.0655    -1.0656    
 260.       0.86301    0.83566   -1.0653    -1.0543    
 261.       0.8594     0.83878   -1.0529    -1.0603    
 262.       0.84424    0.84571   -1.0513    -1.0463    
 263.       0.84509    0.85085   -1.0485    -1.0625    
 264.       0.83749    0.85614   -1.0562    -1.0628    
 265.       0.83565    0.84683   -1.0568    -1.0565    
 266.       0.8467     0.86678   -1.0681    -1.0776    
 267.       0.86095    0.8362    -1.0494    -1.0631    
 268.       0.8367     0.86468   -1.078     -1.0596    
 269.       0.87514    0.85454   -1.0562    -1.0601    
 270.       0.84116    0.85311   -1.0663    -1.0553    
 271.       0.85894    0.83765   -1.0452    -1.0621    
 272.       0.83283    0.84821   -1.0637    -1.0516    
 273.       0.85366    0.84907   -1.0708    -1.068     
 274.       0.86007    0.83992   -1.0566    -1.0734    
 275.       0.85247    0.85382   -1.0561    -1.0588    
 276.       0.84134    0.83996   -1.0684    -1.0802    
 277.       0.8625     0.85191   -1.0534    -1.0619    
 278.       0.8476     0.83148   -1.0717    -1.0581    
 279.       0.86264    0.85325   -1.0556    -1.0678    
 280.       0.84209    0.86238   -1.0723    -1.0611    
 281.       0.87356    0.85103   -1.0643    -1.0553    
 282.       0.84845    0.85169   -1.0507    -1.057     
 283.       0.8432     0.85201   -1.064     -1.0559    
 284.       0.85532    0.85475   -1.0617    -1.0493    
 285.       0.84729    0.84281   -1.0638    -1.0722    
 286.       0.85481    0.86415   -1.07      -1.069     
 287.       0.86182    0.8409    -1.0563    -1.0813    
 288.       0.84435    0.84824   -1.0619    -1.0579    
 289.       0.85551    0.86306   -1.0586    -1.05      
 290.       0.84975    0.84604   -1.0781    -1.0601    
 291.       0.86863    0.86099   -1.0613    -1.0589    
 292.       0.85104    0.85608   -1.0661    -1.0462    
 293.       0.86061    0.857     -1.0612    -1.0533    
 294.       0.85642    0.85574   -1.0628    -1.0736    
 295.       0.85626    0.84703   -1.0632    -1.0509    
 296.       0.85594    0.87603   -1.0629    -1.063     
 297.       0.85145    0.85827   -1.058     -1.0671    
 298.       0.84845    0.85604   -1.0738    -1.0673    
 299.       0.85808    0.84573   -1.0636    -1.0455    
 300.       0.84973    0.84013   -1.0653    -1.0648    
 301.       0.85617    0.82992   -1.0655    -1.049     
 302.       0.8486     0.84599   -1.0404    -1.0606    
 303.       0.82663    0.83758   -1.0552    -1.0667    
 304.       0.84966    0.85058   -1.0557    -1.0519    
 305.       0.84077    0.84328   -1.0523    -1.077     
 306.       0.84517    0.83618   -1.0634    -1.0583    
 307.       0.85379    0.86028   -1.0669    -1.0628    
 308.       0.86238    0.85621   -1.0612    -1.0631    
 309.       0.85004    0.8568    -1.0652    -1.0469    
 310.       0.85551    0.85533   -1.0618    -1.0603    
 311.       0.84777    0.84737   -1.0426    -1.0424    
 312.       0.83592    0.83322   -1.0623    -1.0383    
 313.       0.85126    0.85816   -1.0638    -1.0641    
 314.       0.84837    0.83305   -1.0561    -1.0686    
 315.       0.84478    0.86736   -1.0572    -1.0583    
 316.       0.84927    0.85636   -1.0555    -1.0544    
 317.       0.84701    0.84746   -1.061     -1.0678    
 318.       0.85072    0.8493    -1.0536    -1.0596    
 319.       0.83973    0.85764   -1.0576    -1.0614    
 320.       0.84332    0.82976   -1.0635    -1.0628    
 321.       0.85197    0.83402   -1.0598    -1.0612    
 322.       0.8455     0.84781   -1.0598    -1.0618    
 323.       0.84492    0.82988   -1.0602    -1.0571    
 324.       0.85624    0.85161   -1.0435    -1.057     
 325.       0.82694    0.85219   -1.0657    -1.0702    
 326.       0.85344    0.85143   -1.0601    -1.0621    
 327.       0.8493     0.84843   -1.0701    -1.0621    
 328.       0.86572    0.86217   -1.0613    -1.0553    
 329.       0.85228    0.85336   -1.0506    -1.0597    
 330.       0.84128    0.83959   -1.057     -1.0752    
 331.       0.83805    0.8482    -1.0596    -1.0715    
 332.       0.85306    0.85187   -1.0596    -1.0736    
 333.       0.85101    0.87059   -1.0612    -1.0431    
 334.       0.84798    0.84723   -1.0573    -1.066     
 335.       0.84754    0.84342   -1.0685    -1.0717    
 336.       0.85875    0.85247   -1.0452    -1.0449    
 337.       0.83156    0.85367   -1.0627    -1.0658    
 338.       0.85836    0.85309   -1.0537    -1.0746    
 339.       0.84469    0.86646   -1.0566    -1.0528    
 340.       0.83965    0.8397    -1.0586    -1.0604    
 341.       0.84944    0.84884   -1.0513    -1.0519    
 342.       0.83992    0.8358    -1.0568    -1.0715    
 343.       0.84714    0.83765   -1.0525    -1.0408    
 344.       0.83776    0.84765   -1.0582    -1.0611    
 345.       0.84301    0.84197   -1.0646    -1.0736    
 346.       0.8558     0.83941   -1.0549    -1.0564    
 347.       0.83331    0.84787   -1.064     -1.0655    
 348.       0.85689    0.85691   -1.0582    -1.0505    
 349.       0.84208    0.84184   -1.0653    -1.0582    
 350.       0.86011    0.85842   -1.061     -1.0572    
 351.       0.84364    0.86821   -1.0563    -1.0615    
 352.       0.83487    0.84047   -1.0555    -1.0719    
 353.       0.8509     0.86847   -1.0602    -1.0601    
 354.       0.84781    0.85625   -1.0587    -1.0626    
 355.       0.84585    0.85248   -1.0552    -1.0537    
 356.       0.84122    0.85434   -1.0544    -1.0585    
