 v-sweep         v(1)            i(vd)          
 0.00000000e+00 -2.00000000e-01  0.00000000e+00 
-2.00000000e-02 -2.00000000e-01  9.11157553e-12 
-4.00000000e-02 -2.00000000e-01  1.31140582e-11 
-6.00000000e-02 -2.00000000e-01  1.49252921e-11 
-8.00000000e-02 -2.00000000e-01  1.58336591e-11 
-1.00000000e-01 -2.00000000e-01  1.63570779e-11 
-1.20000000e-01 -2.00000000e-01  1.67044551e-11 
-1.40000000e-01 -2.00000000e-01  1.69647091e-11 
-1.60000000e-01 -2.00000000e-01  1.71785201e-11 
-1.80000000e-01 -2.00000000e-01  1.73659252e-11 
-2.00000000e-01 -2.00000000e-01  1.75374919e-11 
-2.20000000e-01 -2.00000000e-01  1.76991420e-11 
-2.40000000e-01 -2.00000000e-01  1.78543749e-11 
-2.60000000e-01 -2.00000000e-01  1.80053560e-11 
-2.80000000e-01 -2.00000000e-01  1.81534800e-11 
-3.00000000e-01 -2.00000000e-01  1.82996775e-11 
-3.20000000e-01 -2.00000000e-01  1.84445892e-11 
-3.40000000e-01 -2.00000000e-01  1.85886682e-11 
-3.60000000e-01 -2.00000000e-01  1.87322430e-11 
-3.80000000e-01 -2.00000000e-01  1.88755574e-11 
-4.00000000e-01 -2.00000000e-01  1.90188071e-11 
-4.20000000e-01 -2.00000000e-01  1.91620466e-11 
-4.40000000e-01 -2.00000000e-01  1.93054776e-11 
-4.60000000e-01 -2.00000000e-01  1.94491854e-11 
-4.80000000e-01 -2.00000000e-01  1.95932397e-11 
-5.00000000e-01 -2.00000000e-01  1.97376975e-11 
-5.20000000e-01 -2.00000000e-01  1.98826067e-11 
-5.40000000e-01 -2.00000000e-01  2.00280076e-11 
-5.60000000e-01 -2.00000000e-01  2.01739349e-11 
-5.80000000e-01 -2.00000000e-01  2.03204183e-11 
-6.00000000e-01 -2.00000000e-01  2.04674839e-11 
-6.20000000e-01 -2.00000000e-01  2.06151547e-11 
-6.40000000e-01 -2.00000000e-01  2.07634513e-11 
-6.60000000e-01 -2.00000000e-01  2.09123921e-11 
-6.80000000e-01 -2.00000000e-01  2.10619937e-11 
-7.00000000e-01 -2.00000000e-01  2.12122714e-11 
-7.20000000e-01 -2.00000000e-01  2.13632393e-11 
-7.40000000e-01 -2.00000000e-01  2.15149105e-11 
-7.60000000e-01 -2.00000000e-01  2.16672970e-11 
-7.80000000e-01 -2.00000000e-01  2.18204105e-11 
-8.00000000e-01 -2.00000000e-01  2.19742615e-11 
-8.20000000e-01 -2.00000000e-01  2.21288605e-11 
-8.40000000e-01 -2.00000000e-01  2.22842172e-11 
-8.60000000e-01 -2.00000000e-01  2.24403410e-11 
-8.80000000e-01 -2.00000000e-01  2.25972409e-11 
-9.00000000e-01 -2.00000000e-01  2.27549257e-11 
-9.20000000e-01 -2.00000000e-01  2.29134037e-11 
-9.40000000e-01 -2.00000000e-01  2.30726834e-11 
-9.60000000e-01 -2.00000000e-01  2.32327725e-11 
-9.80000000e-01 -2.00000000e-01  2.33936791e-11 
-1.00000000e+00 -2.00000000e-01  2.35554108e-11 
-1.02000000e+00 -2.00000000e-01  2.37179752e-11 
-1.04000000e+00 -2.00000000e-01  2.38813797e-11 
-1.06000000e+00 -2.00000000e-01  2.40456315e-11 
-1.08000000e+00 -2.00000000e-01  2.42107381e-11 
-1.10000000e+00 -2.00000000e-01  2.43767064e-11 
-1.12000000e+00 -2.00000000e-01  2.45435437e-11 
-1.14000000e+00 -2.00000000e-01  2.47112569e-11 
-1.16000000e+00 -2.00000000e-01  2.48798530e-11 
-1.18000000e+00 -2.00000000e-01  2.50493390e-11 
-1.20000000e+00 -2.00000000e-01  2.52197217e-11 
 0.00000000e+00 -4.00000000e-01  3.93226257e-44 
-2.00000000e-02 -4.00000000e-01  1.52056354e-09 
-4.00000000e-02 -4.00000000e-01  2.19132306e-09 
-6.00000000e-02 -4.00000000e-01  2.49405448e-09 
-8.00000000e-02 -4.00000000e-01  2.64448536e-09 
-1.00000000e-01 -4.00000000e-01  2.72986006e-09 
-1.20000000e-01 -4.00000000e-01  2.78546569e-09 
-1.40000000e-01 -4.00000000e-01  2.82633995e-09 
-1.60000000e-01 -4.00000000e-01  2.85936563e-09 
-1.80000000e-01 -4.00000000e-01  2.88793284e-09 
-2.00000000e-01 -4.00000000e-01  2.91382907e-09 
-2.20000000e-01 -4.00000000e-01  2.93805563e-09 
-2.40000000e-01 -4.00000000e-01  2.96120392e-09 
-2.60000000e-01 -4.00000000e-01  2.98363968e-09 
-2.80000000e-01 -4.00000000e-01  3.00559838e-09 
-3.00000000e-01 -4.00000000e-01  3.02723704e-09 
-3.20000000e-01 -4.00000000e-01  3.04866367e-09 
-3.40000000e-01 -4.00000000e-01  3.06995462e-09 
-3.60000000e-01 -4.00000000e-01  3.09116525e-09 
-3.80000000e-01 -4.00000000e-01  3.11233658e-09 
-4.00000000e-01 -4.00000000e-01  3.13349964e-09 
-4.20000000e-01 -4.00000000e-01  3.15467836e-09 
-4.40000000e-01 -4.00000000e-01  3.17587151e-09 
-4.60000000e-01 -4.00000000e-01  3.19712705e-09 
-4.80000000e-01 -4.00000000e-01  3.21844532e-09 
-5.00000000e-01 -4.00000000e-01  3.23983594e-09 
-5.20000000e-01 -4.00000000e-01  3.26130694e-09 
-5.40000000e-01 -4.00000000e-01  3.28286509e-09 
-5.60000000e-01 -4.00000000e-01  3.30451619e-09 
-5.80000000e-01 -4.00000000e-01  3.32626527e-09 
-6.00000000e-01 -4.00000000e-01  3.34811669e-09 
-6.20000000e-01 -4.00000000e-01  3.37007433e-09 
-6.40000000e-01 -4.00000000e-01  3.39214163e-09 
-6.60000000e-01 -4.00000000e-01  3.41432169e-09 
-6.80000000e-01 -4.00000000e-01  3.43661731e-09 
-7.00000000e-01 -4.00000000e-01  3.45903107e-09 
-7.20000000e-01 -4.00000000e-01  3.48156533e-09 
-7.40000000e-01 -4.00000000e-01  3.50422230e-09 
-7.60000000e-01 -4.00000000e-01  3.52700401e-09 
-7.80000000e-01 -4.00000000e-01  3.54991240e-09 
-8.00000000e-01 -4.00000000e-01  3.57294930e-09 
-8.20000000e-01 -4.00000000e-01  3.59611642e-09 
-8.40000000e-01 -4.00000000e-01  3.61941542e-09 
-8.60000000e-01 -4.00000000e-01  3.64284789e-09 
-8.80000000e-01 -4.00000000e-01  3.66641536e-09 
-9.00000000e-01 -4.00000000e-01  3.69011929e-09 
-9.20000000e-01 -4.00000000e-01  3.71396111e-09 
-9.40000000e-01 -4.00000000e-01  3.73794222e-09 
-9.60000000e-01 -4.00000000e-01  3.76206397e-09 
-9.80000000e-01 -4.00000000e-01  3.78632769e-09 
-1.00000000e+00 -4.00000000e-01  3.81073468e-09 
-1.02000000e+00 -4.00000000e-01  3.83528621e-09 
-1.04000000e+00 -4.00000000e-01  3.85998355e-09 
-1.06000000e+00 -4.00000000e-01  3.88482792e-09 
-1.08000000e+00 -4.00000000e-01  3.90982057e-09 
-1.10000000e+00 -4.00000000e-01  3.93496268e-09 
-1.12000000e+00 -4.00000000e-01  3.96025547e-09 
-1.14000000e+00 -4.00000000e-01  3.98570013e-09 
-1.16000000e+00 -4.00000000e-01  4.01129782e-09 
-1.18000000e+00 -4.00000000e-01  4.03704973e-09 
-1.20000000e+00 -4.00000000e-01  4.06295702e-09 
 0.00000000e+00 -6.00000000e-01 -4.11797046e-44 
-2.00000000e-02 -6.00000000e-01  1.15424389e-07 
-4.00000000e-02 -6.00000000e-01  1.85723841e-07 
-6.00000000e-02 -6.00000000e-01  2.25214388e-07 
-8.00000000e-02 -6.00000000e-01  2.47048473e-07 
-1.00000000e-01 -6.00000000e-01  2.59609780e-07 
-1.20000000e-01 -6.00000000e-01  2.67381501e-07 
-1.40000000e-01 -6.00000000e-01  2.72613447e-07 
-1.60000000e-01 -6.00000000e-01  2.76435705e-07 
-1.80000000e-01 -6.00000000e-01  2.79434702e-07 
-2.00000000e-01 -6.00000000e-01  2.81928720e-07 
-2.20000000e-01 -6.00000000e-01  2.84098886e-07 
-2.40000000e-01 -6.00000000e-01  2.86053067e-07 
-2.60000000e-01 -6.00000000e-01  2.87858239e-07 
-2.80000000e-01 -6.00000000e-01  2.89557576e-07 
-3.00000000e-01 -6.00000000e-01  2.91179861e-07 
-3.20000000e-01 -6.00000000e-01  2.92744860e-07 
-3.40000000e-01 -6.00000000e-01  2.94266513e-07 
-3.60000000e-01 -6.00000000e-01  2.95754887e-07 
-3.80000000e-01 -6.00000000e-01  2.97217405e-07 
-4.00000000e-01 -6.00000000e-01  2.98659649e-07 
-4.20000000e-01 -6.00000000e-01  3.00085887e-07 
-4.40000000e-01 -6.00000000e-01  3.01499433e-07 
-4.60000000e-01 -6.00000000e-01  3.02907552e-07 
-4.80000000e-01 -6.00000000e-01  3.04302054e-07 
-5.00000000e-01 -6.00000000e-01  3.05690421e-07 
-5.20000000e-01 -6.00000000e-01  3.07073984e-07 
-5.40000000e-01 -6.00000000e-01  3.08453843e-07 
-5.60000000e-01 -6.00000000e-01  3.09830916e-07 
-5.80000000e-01 -6.00000000e-01  3.11205973e-07 
-6.00000000e-01 -6.00000000e-01  3.12579668e-07 
-6.20000000e-01 -6.00000000e-01  3.13952559e-07 
-6.40000000e-01 -6.00000000e-01  3.15325124e-07 
-6.60000000e-01 -6.00000000e-01  3.16697776e-07 
-6.80000000e-01 -6.00000000e-01  3.18070877e-07 
-7.00000000e-01 -6.00000000e-01  3.19444739e-07 
-7.20000000e-01 -6.00000000e-01  3.20819641e-07 
-7.40000000e-01 -6.00000000e-01  3.22195825e-07 
-7.60000000e-01 -6.00000000e-01  3.23573510e-07 
-7.80000000e-01 -6.00000000e-01  3.24952886e-07 
-8.00000000e-01 -6.00000000e-01  3.26334129e-07 
-8.20000000e-01 -6.00000000e-01  3.27717392e-07 
-8.40000000e-01 -6.00000000e-01  3.29102816e-07 
-8.60000000e-01 -6.00000000e-01  3.30490527e-07 
-8.80000000e-01 -6.00000000e-01  3.31880642e-07 
-9.00000000e-01 -6.00000000e-01  3.33273264e-07 
-9.20000000e-01 -6.00000000e-01  3.34668489e-07 
-9.40000000e-01 -6.00000000e-01  3.36066406e-07 
-9.60000000e-01 -6.00000000e-01  3.37467096e-07 
-9.80000000e-01 -6.00000000e-01  3.38870633e-07 
-1.00000000e+00 -6.00000000e-01  3.40277086e-07 
-1.02000000e+00 -6.00000000e-01  3.41686519e-07 
-1.04000000e+00 -6.00000000e-01  3.43098991e-07 
-1.06000000e+00 -6.00000000e-01  3.44514559e-07 
-1.08000000e+00 -6.00000000e-01  3.45933272e-07 
-1.10000000e+00 -6.00000000e-01  3.47355181e-07 
-1.12000000e+00 -6.00000000e-01  3.48780330e-07 
-1.14000000e+00 -6.00000000e-01  3.50208762e-07 
-1.16000000e+00 -6.00000000e-01  3.51640517e-07 
-1.18000000e+00 -6.00000000e-01  3.53075632e-07 
-1.20000000e+00 -6.00000000e-01  3.54514144e-07 
 0.00000000e+00 -8.00000000e-01  5.49424582e-45 
-2.00000000e-02 -8.00000000e-01  6.16416435e-07 
-4.00000000e-02 -8.00000000e-01  1.13043718e-06 
-6.00000000e-02 -8.00000000e-01  1.54328414e-06 
-8.00000000e-02 -8.00000000e-01  1.86474788e-06 
-1.00000000e-01 -8.00000000e-01  2.10938801e-06 
-1.20000000e-01 -8.00000000e-01  2.29295561e-06 
-1.40000000e-01 -8.00000000e-01  2.42994679e-06 
-1.60000000e-01 -8.00000000e-01  2.53242386e-06 
-1.80000000e-01 -8.00000000e-01  2.60977716e-06 
-2.00000000e-01 -8.00000000e-01  2.66900278e-06 
-2.20000000e-01 -8.00000000e-01  2.71517086e-06 
-2.40000000e-01 -8.00000000e-01  2.75189866e-06 
-2.60000000e-01 -8.00000000e-01  2.78174953e-06 
-2.80000000e-01 -8.00000000e-01  2.80653947e-06 
-3.00000000e-01 -8.00000000e-01  2.82756068e-06 
-3.20000000e-01 -8.00000000e-01  2.84573963e-06 
-3.40000000e-01 -8.00000000e-01  2.86174704e-06 
-3.60000000e-01 -8.00000000e-01  2.87607383e-06 
-3.80000000e-01 -8.00000000e-01  2.88908352e-06 
-4.00000000e-01 -8.00000000e-01  2.90104851e-06 
-4.20000000e-01 -8.00000000e-01  2.91217537e-06 
-4.40000000e-01 -8.00000000e-01  2.92262256e-06 
-4.60000000e-01 -8.00000000e-01  2.93251298e-06 
-4.80000000e-01 -8.00000000e-01  2.94194305e-06 
-5.00000000e-01 -8.00000000e-01  2.95098912e-06 
-5.20000000e-01 -8.00000000e-01  2.95971229e-06 
-5.40000000e-01 -8.00000000e-01  2.96816188e-06 
-5.60000000e-01 -8.00000000e-01  2.97637806e-06 
-5.80000000e-01 -8.00000000e-01  2.98439382e-06 
-6.00000000e-01 -8.00000000e-01  2.99231888e-06 
-6.20000000e-01 -8.00000000e-01  3.00000045e-06 
-6.40000000e-01 -8.00000000e-01  3.00755246e-06 
-6.60000000e-01 -8.00000000e-01  3.01499071e-06 
-6.80000000e-01 -8.00000000e-01  3.02232868e-06 
-7.00000000e-01 -8.00000000e-01  3.02957789e-06 
-7.20000000e-01 -8.00000000e-01  3.03674825e-06 
-7.40000000e-01 -8.00000000e-01  3.04384836e-06 
-7.60000000e-01 -8.00000000e-01  3.05088566e-06 
-7.80000000e-01 -8.00000000e-01  3.05786666e-06 
-8.00000000e-01 -8.00000000e-01  3.06479707e-06 
-8.20000000e-01 -8.00000000e-01  3.07168192e-06 
-8.40000000e-01 -8.00000000e-01  3.07852563e-06 
-8.60000000e-01 -8.00000000e-01  3.08533216e-06 
-8.80000000e-01 -8.00000000e-01  3.09210500e-06 
-9.00000000e-01 -8.00000000e-01  3.09884729e-06 
-9.20000000e-01 -8.00000000e-01  3.10556182e-06 
-9.40000000e-01 -8.00000000e-01  3.11225113e-06 
-9.60000000e-01 -8.00000000e-01  3.11891747e-06 
-9.80000000e-01 -8.00000000e-01  3.12556290e-06 
-1.00000000e+00 -8.00000000e-01  3.13218928e-06 
-1.02000000e+00 -8.00000000e-01  3.13879830e-06 
-1.04000000e+00 -8.00000000e-01  3.14539149e-06 
-1.06000000e+00 -8.00000000e-01  3.15197026e-06 
-1.08000000e+00 -8.00000000e-01  3.15853590e-06 
-1.10000000e+00 -8.00000000e-01  3.16508956e-06 
-1.12000000e+00 -8.00000000e-01  3.17163235e-06 
-1.14000000e+00 -8.00000000e-01  3.17816525e-06 
-1.16000000e+00 -8.00000000e-01  3.18468917e-06 
-1.18000000e+00 -8.00000000e-01  3.19120497e-06 
-1.20000000e+00 -8.00000000e-01  3.19771342e-06 
 0.00000000e+00 -1.00000000e+00  6.11849280e-44 
-2.00000000e-02 -1.00000000e+00  1.28184246e-06 
-4.00000000e-02 -1.00000000e+00  2.44840444e-06 
-6.00000000e-02 -1.00000000e+00  3.49311887e-06 
-8.00000000e-02 -1.00000000e+00  4.41482431e-06 
-1.00000000e-01 -1.00000000e+00  5.21714769e-06 
-1.20000000e-01 -1.00000000e+00  5.90750163e-06 
-1.40000000e-01 -1.00000000e+00  6.49588186e-06 
-1.60000000e-01 -1.00000000e+00  6.99367708e-06 
-1.80000000e-01 -1.00000000e+00  7.41265333e-06 
-2.00000000e-01 -1.00000000e+00  7.76419368e-06 
-2.20000000e-01 -1.00000000e+00  8.05880255e-06 
-2.40000000e-01 -1.00000000e+00  8.30583862e-06 
-2.60000000e-01 -1.00000000e+00  8.51342138e-06 
-2.80000000e-01 -1.00000000e+00  8.68845503e-06 
-3.00000000e-01 -1.00000000e+00  8.83672240e-06 
-3.20000000e-01 -1.00000000e+00  8.96301344e-06 
-3.40000000e-01 -1.00000000e+00  9.07126408e-06 
-3.60000000e-01 -1.00000000e+00  9.16469103e-06 
-3.80000000e-01 -1.00000000e+00  9.24591430e-06 
-4.00000000e-01 -1.00000000e+00  9.31706430e-06 
-4.20000000e-01 -1.00000000e+00  9.37987266e-06 
-4.40000000e-01 -1.00000000e+00  9.43574792e-06 
-4.60000000e-01 -1.00000000e+00  9.48583764e-06 
-4.80000000e-01 -1.00000000e+00  9.53107888e-06 
-5.00000000e-01 -1.00000000e+00  9.57223897e-06 
-5.20000000e-01 -1.00000000e+00  9.60994828e-06 
-5.40000000e-01 -1.00000000e+00  9.64472655e-06 
-5.60000000e-01 -1.00000000e+00  9.67700387e-06 
-5.80000000e-01 -1.00000000e+00  9.70713760e-06 
-6.00000000e-01 -1.00000000e+00  9.73542585e-06 
-6.20000000e-01 -1.00000000e+00  9.76211834e-06 
-6.40000000e-01 -1.00000000e+00  9.78742510e-06 
-6.60000000e-01 -1.00000000e+00  9.81152354e-06 
-6.80000000e-01 -1.00000000e+00  9.83456410e-06 
-7.00000000e-01 -1.00000000e+00  9.85667491e-06 
-7.20000000e-01 -1.00000000e+00  9.87796548e-06 
-7.40000000e-01 -1.00000000e+00  9.89852981e-06 
-7.60000000e-01 -1.00000000e+00  9.91875900e-06 
-7.80000000e-01 -1.00000000e+00  9.93806950e-06 
-8.00000000e-01 -1.00000000e+00  9.95686993e-06 
-8.20000000e-01 -1.00000000e+00  9.97521254e-06 
-8.40000000e-01 -1.00000000e+00  9.99314305e-06 
-8.60000000e-01 -1.00000000e+00  1.00107016e-05 
-8.80000000e-01 -1.00000000e+00  1.00279234e-05 
-9.00000000e-01 -1.00000000e+00  1.00448397e-05 
-9.20000000e-01 -1.00000000e+00  1.00614780e-05 
-9.40000000e-01 -1.00000000e+00  1.00778629e-05 
-9.60000000e-01 -1.00000000e+00  1.00940162e-05 
-9.80000000e-01 -1.00000000e+00  1.01099574e-05 
-1.00000000e+00 -1.00000000e+00  1.01257039e-05 
-1.02000000e+00 -1.00000000e+00  1.01412714e-05 
-1.04000000e+00 -1.00000000e+00  1.01566740e-05 
-1.06000000e+00 -1.00000000e+00  1.01719243e-05 
-1.08000000e+00 -1.00000000e+00  1.01870340e-05 
-1.10000000e+00 -1.00000000e+00  1.02020134e-05 
-1.12000000e+00 -1.00000000e+00  1.02168719e-05 
-1.14000000e+00 -1.00000000e+00  1.02316181e-05 
-1.16000000e+00 -1.00000000e+00  1.02462600e-05 
-1.18000000e+00 -1.00000000e+00  1.02608045e-05 
-1.20000000e+00 -1.00000000e+00  1.02752584e-05 
 0.00000000e+00 -1.20000000e+00 -6.23778208e-44 
-2.00000000e-02 -1.20000000e+00  1.95471884e-06 
-4.00000000e-02 -1.20000000e+00  3.79819854e-06 
-6.00000000e-02 -1.20000000e+00  5.52227139e-06 
-8.00000000e-02 -1.20000000e+00  7.12161313e-06 
-1.00000000e-01 -1.20000000e+00  8.59376028e-06 
-1.20000000e-01 -1.20000000e+00  9.93900135e-06 
-1.40000000e-01 -1.20000000e+00  1.11601160e-05 
-1.60000000e-01 -1.20000000e+00  1.22619856e-05 
-1.80000000e-01 -1.20000000e+00  1.32511271e-05 
-2.00000000e-01 -1.20000000e+00  1.41352072e-05 
-2.20000000e-01 -1.20000000e+00  1.49225841e-05 
-2.40000000e-01 -1.20000000e+00  1.56219067e-05 
-2.60000000e-01 -1.20000000e+00  1.62417889e-05 
-2.80000000e-01 -1.20000000e+00  1.67905611e-05 
-3.00000000e-01 -1.20000000e+00  1.72760950e-05 
-3.20000000e-01 -1.20000000e+00  1.77056924e-05 
-3.40000000e-01 -1.20000000e+00  1.80860257e-05 
-3.60000000e-01 -1.20000000e+00  1.84231180e-05 
-3.80000000e-01 -1.20000000e+00  1.87223536e-05 
-4.00000000e-01 -1.20000000e+00  1.89885070e-05 
-4.20000000e-01 -1.20000000e+00  1.92257850e-05 
-4.40000000e-01 -1.20000000e+00  1.94378755e-05 
-4.60000000e-01 -1.20000000e+00  1.96279988e-05 
-4.80000000e-01 -1.20000000e+00  1.97989584e-05 
-5.00000000e-01 -1.20000000e+00  1.99531895e-05 
-5.20000000e-01 -1.20000000e+00  2.00928042e-05 
-5.40000000e-01 -1.20000000e+00  2.02196329e-05 
-5.60000000e-01 -1.20000000e+00  2.03352608e-05 
-5.80000000e-01 -1.20000000e+00  2.04410612e-05 
-6.00000000e-01 -1.20000000e+00  2.05382239e-05 
-6.20000000e-01 -1.20000000e+00  2.06277804e-05 
-6.40000000e-01 -1.20000000e+00  2.07106263e-05 
-6.60000000e-01 -1.20000000e+00  2.07875393e-05 
-6.80000000e-01 -1.20000000e+00  2.08591962e-05 
-7.00000000e-01 -1.20000000e+00  2.09261868e-05 
-7.20000000e-01 -1.20000000e+00  2.09890256e-05 
-7.40000000e-01 -1.20000000e+00  2.10481625e-05 
-7.60000000e-01 -1.20000000e+00  2.11039913e-05 
-7.80000000e-01 -1.20000000e+00  2.11568576e-05 
-8.00000000e-01 -1.20000000e+00  2.12070653e-05 
-8.20000000e-01 -1.20000000e+00  2.12548819e-05 
-8.40000000e-01 -1.20000000e+00  2.13005434e-05 
-8.60000000e-01 -1.20000000e+00  2.13442585e-05 
-8.80000000e-01 -1.20000000e+00  2.13870639e-05 
-9.00000000e-01 -1.20000000e+00  2.14273413e-05 
-9.20000000e-01 -1.20000000e+00  2.14661760e-05 
-9.40000000e-01 -1.20000000e+00  2.15036970e-05 
-9.60000000e-01 -1.20000000e+00  2.15400194e-05 
-9.80000000e-01 -1.20000000e+00  2.15752463e-05 
-1.00000000e+00 -1.20000000e+00  2.16094701e-05 
-1.02000000e+00 -1.20000000e+00  2.16427738e-05 
-1.04000000e+00 -1.20000000e+00  2.16752322e-05 
-1.06000000e+00 -1.20000000e+00  2.17069124e-05 
-1.08000000e+00 -1.20000000e+00  2.17378752e-05 
-1.10000000e+00 -1.20000000e+00  2.17681758e-05 
-1.12000000e+00 -1.20000000e+00  2.17978638e-05 
-1.14000000e+00 -1.20000000e+00  2.18269846e-05 
-1.16000000e+00 -1.20000000e+00  2.18555791e-05 
-1.18000000e+00 -1.20000000e+00  2.18836850e-05 
-1.20000000e+00 -1.20000000e+00  2.19113362e-05 
