 v-sweep         v(1)            i(vd)          
 0.00000000e+00 -2.00000000e-01  0.00000000e+00 
-2.00000000e-02 -2.00000000e-01  1.21420991e-11 
-4.00000000e-02 -2.00000000e-01  1.74720747e-11 
-6.00000000e-02 -2.00000000e-01  1.98803853e-11 
-8.00000000e-02 -2.00000000e-01  2.10848737e-11 
-1.00000000e-01 -2.00000000e-01  2.17760977e-11 
-1.20000000e-01 -2.00000000e-01  2.22325997e-11 
-1.40000000e-01 -2.00000000e-01  2.25729375e-11 
-1.60000000e-01 -2.00000000e-01  2.28513513e-11 
-1.80000000e-01 -2.00000000e-01  2.30945573e-11 
-2.00000000e-01 -2.00000000e-01  2.33166454e-11 
-2.20000000e-01 -2.00000000e-01  2.35255114e-11 
-2.40000000e-01 -2.00000000e-01  2.37258212e-11 
-2.60000000e-01 -2.00000000e-01  2.39204619e-11 
-2.80000000e-01 -2.00000000e-01  2.41112931e-11 
-3.00000000e-01 -2.00000000e-01  2.42995558e-11 
-3.20000000e-01 -2.00000000e-01  2.44861040e-11 
-3.40000000e-01 -2.00000000e-01  2.46715419e-11 
-3.60000000e-01 -2.00000000e-01  2.48563077e-11 
-3.80000000e-01 -2.00000000e-01  2.50407262e-11 
-4.00000000e-01 -2.00000000e-01  2.52250584e-11 
-4.20000000e-01 -2.00000000e-01  2.54093771e-11 
-4.40000000e-01 -2.00000000e-01  2.55939511e-11 
-4.60000000e-01 -2.00000000e-01  2.57788943e-11 
-4.80000000e-01 -2.00000000e-01  2.59642992e-11 
-5.00000000e-01 -2.00000000e-01  2.61502424e-11 
-5.20000000e-01 -2.00000000e-01  2.63367873e-11 
-5.40000000e-01 -2.00000000e-01  2.65239879e-11 
-5.60000000e-01 -2.00000000e-01  2.67118903e-11 
-5.80000000e-01 -2.00000000e-01  2.69005342e-11 
-6.00000000e-01 -2.00000000e-01  2.70899544e-11 
-6.20000000e-01 -2.00000000e-01  2.72801816e-11 
-6.40000000e-01 -2.00000000e-01  2.74712430e-11 
-6.60000000e-01 -2.00000000e-01  2.76631634e-11 
-6.80000000e-01 -2.00000000e-01  2.78559649e-11 
-7.00000000e-01 -2.00000000e-01  2.80496679e-11 
-7.20000000e-01 -2.00000000e-01  2.82442912e-11 
-7.40000000e-01 -2.00000000e-01  2.84398521e-11 
-7.60000000e-01 -2.00000000e-01  2.86363669e-11 
-7.80000000e-01 -2.00000000e-01  2.88338509e-11 
-8.00000000e-01 -2.00000000e-01  2.90323184e-11 
-8.20000000e-01 -2.00000000e-01  2.92317831e-11 
-8.40000000e-01 -2.00000000e-01  2.94322580e-11 
-8.60000000e-01 -2.00000000e-01  2.96337558e-11 
-8.80000000e-01 -2.00000000e-01  2.98362884e-11 
-9.00000000e-01 -2.00000000e-01  3.00398675e-11 
-9.20000000e-01 -2.00000000e-01  3.02445043e-11 
-9.40000000e-01 -2.00000000e-01  3.04502098e-11 
-9.60000000e-01 -2.00000000e-01  3.06569948e-11 
-9.80000000e-01 -2.00000000e-01  3.08648697e-11 
-1.00000000e+00 -2.00000000e-01  3.10738447e-11 
-1.02000000e+00 -2.00000000e-01  3.12839299e-11 
-1.04000000e+00 -2.00000000e-01  3.14951352e-11 
-1.06000000e+00 -2.00000000e-01  3.17074704e-11 
-1.08000000e+00 -2.00000000e-01  3.19209452e-11 
-1.10000000e+00 -2.00000000e-01  3.21355690e-11 
-1.12000000e+00 -2.00000000e-01  3.23513514e-11 
-1.14000000e+00 -2.00000000e-01  3.25683017e-11 
-1.16000000e+00 -2.00000000e-01  3.27864293e-11 
-1.18000000e+00 -2.00000000e-01  3.30057433e-11 
-1.20000000e+00 -2.00000000e-01  3.32262530e-11 
 0.00000000e+00 -4.00000000e-01  7.33978595e-44 
-2.00000000e-02 -4.00000000e-01  2.02741138e-09 
-4.00000000e-02 -4.00000000e-01  2.92175075e-09 
-6.00000000e-02 -4.00000000e-01  3.32538597e-09 
-8.00000000e-02 -4.00000000e-01  3.52595381e-09 
-1.00000000e-01 -4.00000000e-01  3.63978008e-09 
-1.20000000e-01 -4.00000000e-01  3.71391424e-09 
-1.40000000e-01 -4.00000000e-01  3.76840660e-09 
-1.60000000e-01 -4.00000000e-01  3.81243416e-09 
-1.80000000e-01 -4.00000000e-01  3.85051711e-09 
-2.00000000e-01 -4.00000000e-01  3.88503875e-09 
-2.20000000e-01 -4.00000000e-01  3.91733416e-09 
-2.40000000e-01 -4.00000000e-01  3.94819188e-09 
-2.60000000e-01 -4.00000000e-01  3.97809956e-09 
-2.80000000e-01 -4.00000000e-01  4.00737116e-09 
-3.00000000e-01 -4.00000000e-01  4.03621605e-09 
-3.20000000e-01 -4.00000000e-01  4.06477821e-09 
-3.40000000e-01 -4.00000000e-01  4.09315947e-09 
-3.60000000e-01 -4.00000000e-01  4.12143364e-09 
-3.80000000e-01 -4.00000000e-01  4.14965542e-09 
-4.00000000e-01 -4.00000000e-01  4.17786617e-09 
-4.20000000e-01 -4.00000000e-01  4.20609779e-09 
-4.40000000e-01 -4.00000000e-01  4.23434866e-09 
-4.60000000e-01 -4.00000000e-01  4.26268271e-09 
-4.80000000e-01 -4.00000000e-01  4.29110041e-09 
-5.00000000e-01 -4.00000000e-01  4.31961457e-09 
-5.20000000e-01 -4.00000000e-01  4.34823589e-09 
-5.40000000e-01 -4.00000000e-01  4.37697343e-09 
-5.60000000e-01 -4.00000000e-01  4.40583490e-09 
-5.80000000e-01 -4.00000000e-01  4.43482700e-09 
-6.00000000e-01 -4.00000000e-01  4.46395557e-09 
-6.20000000e-01 -4.00000000e-01  4.49322575e-09 
-6.40000000e-01 -4.00000000e-01  4.52264215e-09 
-6.60000000e-01 -4.00000000e-01  4.55220889e-09 
-6.80000000e-01 -4.00000000e-01  4.58192972e-09 
-7.00000000e-01 -4.00000000e-01  4.61180807e-09 
-7.20000000e-01 -4.00000000e-01  4.64184708e-09 
-7.40000000e-01 -4.00000000e-01  4.67204970e-09 
-7.60000000e-01 -4.00000000e-01  4.70241865e-09 
-7.80000000e-01 -4.00000000e-01  4.73295651e-09 
-8.00000000e-01 -4.00000000e-01  4.76366570e-09 
-8.20000000e-01 -4.00000000e-01  4.79454853e-09 
-8.40000000e-01 -4.00000000e-01  4.82560720e-09 
-8.60000000e-01 -4.00000000e-01  4.85684383e-09 
-8.80000000e-01 -4.00000000e-01  4.88826044e-09 
-9.00000000e-01 -4.00000000e-01  4.91985901e-09 
-9.20000000e-01 -4.00000000e-01  4.95164145e-09 
-9.40000000e-01 -4.00000000e-01  4.98360959e-09 
-9.60000000e-01 -4.00000000e-01  5.01576526e-09 
-9.80000000e-01 -4.00000000e-01  5.04811022e-09 
-1.00000000e+00 -4.00000000e-01  5.08064620e-09 
-1.02000000e+00 -4.00000000e-01  5.11337491e-09 
-1.04000000e+00 -4.00000000e-01  5.14629803e-09 
-1.06000000e+00 -4.00000000e-01  5.17941719e-09 
-1.08000000e+00 -4.00000000e-01  5.21273405e-09 
-1.10000000e+00 -4.00000000e-01  5.24625020e-09 
-1.12000000e+00 -4.00000000e-01  5.27996726e-09 
-1.14000000e+00 -4.00000000e-01  5.31388679e-09 
-1.16000000e+00 -4.00000000e-01  5.34801039e-09 
-1.18000000e+00 -4.00000000e-01  5.38233960e-09 
-1.20000000e+00 -4.00000000e-01  5.41687599e-09 
 0.00000000e+00 -6.00000000e-01  2.23716299e-43 
-2.00000000e-02 -6.00000000e-01  1.53899178e-07 
-4.00000000e-02 -6.00000000e-01  2.47631775e-07 
-6.00000000e-02 -6.00000000e-01  3.00285830e-07 
-8.00000000e-02 -6.00000000e-01  3.29397937e-07 
-1.00000000e-01 -6.00000000e-01  3.46146340e-07 
-1.20000000e-01 -6.00000000e-01  3.56508628e-07 
-1.40000000e-01 -6.00000000e-01  3.63484549e-07 
-1.60000000e-01 -6.00000000e-01  3.68580886e-07 
-1.80000000e-01 -6.00000000e-01  3.72579543e-07 
-2.00000000e-01 -6.00000000e-01  3.75904893e-07 
-2.20000000e-01 -6.00000000e-01  3.78798441e-07 
-2.40000000e-01 -6.00000000e-01  3.81404009e-07 
-2.60000000e-01 -6.00000000e-01  3.83810898e-07 
-2.80000000e-01 -6.00000000e-01  3.86076675e-07 
-3.00000000e-01 -6.00000000e-01  3.88239715e-07 
-3.20000000e-01 -6.00000000e-01  3.90326374e-07 
-3.40000000e-01 -6.00000000e-01  3.92355238e-07 
-3.60000000e-01 -6.00000000e-01  3.94339729e-07 
-3.80000000e-01 -6.00000000e-01  3.96289746e-07 
-4.00000000e-01 -6.00000000e-01  3.98212732e-07 
-4.20000000e-01 -6.00000000e-01  4.00114376e-07 
-4.40000000e-01 -6.00000000e-01  4.01999098e-07 
-4.60000000e-01 -6.00000000e-01  4.03876583e-07 
-4.80000000e-01 -6.00000000e-01  4.05735912e-07 
-5.00000000e-01 -6.00000000e-01  4.07587061e-07 
-5.20000000e-01 -6.00000000e-01  4.09431805e-07 
-5.40000000e-01 -6.00000000e-01  4.11271611e-07 
-5.60000000e-01 -6.00000000e-01  4.13107701e-07 
-5.80000000e-01 -6.00000000e-01  4.14941104e-07 
-6.00000000e-01 -6.00000000e-01  4.16772691e-07 
-6.20000000e-01 -6.00000000e-01  4.18603205e-07 
-6.40000000e-01 -6.00000000e-01  4.20433285e-07 
-6.60000000e-01 -6.00000000e-01  4.22263481e-07 
-6.80000000e-01 -6.00000000e-01  4.24094275e-07 
-7.00000000e-01 -6.00000000e-01  4.25926086e-07 
-7.20000000e-01 -6.00000000e-01  4.27759281e-07 
-7.40000000e-01 -6.00000000e-01  4.29594187e-07 
-7.60000000e-01 -6.00000000e-01  4.31431093e-07 
-7.80000000e-01 -6.00000000e-01  4.33270255e-07 
-8.00000000e-01 -6.00000000e-01  4.35111905e-07 
-8.20000000e-01 -6.00000000e-01  4.36956249e-07 
-8.40000000e-01 -6.00000000e-01  4.38803474e-07 
-8.60000000e-01 -6.00000000e-01  4.40653750e-07 
-8.80000000e-01 -6.00000000e-01  4.42507229e-07 
-9.00000000e-01 -6.00000000e-01  4.44364051e-07 
-9.20000000e-01 -6.00000000e-01  4.46224345e-07 
-9.40000000e-01 -6.00000000e-01  4.48088228e-07 
-9.60000000e-01 -6.00000000e-01  4.49955808e-07 
-9.80000000e-01 -6.00000000e-01  4.51827184e-07 
-1.00000000e+00 -6.00000000e-01  4.53702447e-07 
-1.02000000e+00 -6.00000000e-01  4.55581685e-07 
-1.04000000e+00 -6.00000000e-01  4.57464975e-07 
-1.06000000e+00 -6.00000000e-01  4.59352391e-07 
-1.08000000e+00 -6.00000000e-01  4.61244003e-07 
-1.10000000e+00 -6.00000000e-01  4.63139875e-07 
-1.12000000e+00 -6.00000000e-01  4.65040067e-07 
-1.14000000e+00 -6.00000000e-01  4.66944636e-07 
-1.16000000e+00 -6.00000000e-01  4.68853636e-07 
-1.18000000e+00 -6.00000000e-01  4.70767116e-07 
-1.20000000e+00 -6.00000000e-01  4.72685126e-07 
 0.00000000e+00 -8.00000000e-01  2.22695153e-43 
-2.00000000e-02 -8.00000000e-01  8.21888573e-07 
-4.00000000e-02 -8.00000000e-01  1.50724956e-06 
-6.00000000e-02 -8.00000000e-01  2.05771216e-06 
-8.00000000e-02 -8.00000000e-01  2.48633048e-06 
-1.00000000e-01 -8.00000000e-01  2.81251731e-06 
-1.20000000e-01 -8.00000000e-01  3.05727410e-06 
-1.40000000e-01 -8.00000000e-01  3.23992901e-06 
-1.60000000e-01 -8.00000000e-01  3.37656510e-06 
-1.80000000e-01 -8.00000000e-01  3.47970282e-06 
-2.00000000e-01 -8.00000000e-01  3.55867031e-06 
-2.20000000e-01 -8.00000000e-01  3.62022774e-06 
-2.40000000e-01 -8.00000000e-01  3.66919813e-06 
-2.60000000e-01 -8.00000000e-01  3.70899928e-06 
-2.80000000e-01 -8.00000000e-01  3.74205253e-06 
-3.00000000e-01 -8.00000000e-01  3.77008080e-06 
-3.20000000e-01 -8.00000000e-01  3.79431940e-06 
-3.40000000e-01 -8.00000000e-01  3.81566261e-06 
-3.60000000e-01 -8.00000000e-01  3.83476499e-06 
-3.80000000e-01 -8.00000000e-01  3.85211123e-06 
-4.00000000e-01 -8.00000000e-01  3.86806455e-06 
-4.20000000e-01 -8.00000000e-01  3.88290036e-06 
-4.40000000e-01 -8.00000000e-01  3.89682993e-06 
-4.60000000e-01 -8.00000000e-01  3.91001716e-06 
-4.80000000e-01 -8.00000000e-01  3.92259057e-06 
-5.00000000e-01 -8.00000000e-01  3.93465200e-06 
-5.20000000e-01 -8.00000000e-01  3.94628288e-06 
-5.40000000e-01 -8.00000000e-01  3.95754899e-06 
-5.60000000e-01 -8.00000000e-01  3.96850389e-06 
-5.80000000e-01 -8.00000000e-01  3.97919157e-06 
-6.00000000e-01 -8.00000000e-01  3.98975831e-06 
-6.20000000e-01 -8.00000000e-01  4.00000040e-06 
-6.40000000e-01 -8.00000000e-01  4.01006973e-06 
-6.60000000e-01 -8.00000000e-01  4.01998740e-06 
-6.80000000e-01 -8.00000000e-01  4.02977135e-06 
-7.00000000e-01 -8.00000000e-01  4.03943695e-06 
-7.20000000e-01 -8.00000000e-01  4.04899743e-06 
-7.40000000e-01 -8.00000000e-01  4.05846423e-06 
-7.60000000e-01 -8.00000000e-01  4.06784729e-06 
-7.80000000e-01 -8.00000000e-01  4.07715529e-06 
-8.00000000e-01 -8.00000000e-01  4.08639583e-06 
-8.20000000e-01 -8.00000000e-01  4.09557562e-06 
-8.40000000e-01 -8.00000000e-01  4.10470056e-06 
-8.60000000e-01 -8.00000000e-01  4.11377593e-06 
-8.80000000e-01 -8.00000000e-01  4.12280638e-06 
-9.00000000e-01 -8.00000000e-01  4.13179609e-06 
-9.20000000e-01 -8.00000000e-01  4.14074879e-06 
-9.40000000e-01 -8.00000000e-01  4.14966786e-06 
-9.60000000e-01 -8.00000000e-01  4.15855631e-06 
-9.80000000e-01 -8.00000000e-01  4.16741687e-06 
-1.00000000e+00 -8.00000000e-01  4.17625204e-06 
-1.02000000e+00 -8.00000000e-01  4.18506406e-06 
-1.04000000e+00 -8.00000000e-01  4.19385498e-06 
-1.06000000e+00 -8.00000000e-01  4.20262667e-06 
-1.08000000e+00 -8.00000000e-01  4.21138083e-06 
-1.10000000e+00 -8.00000000e-01  4.22011905e-06 
-1.12000000e+00 -8.00000000e-01  4.22884276e-06 
-1.14000000e+00 -8.00000000e-01  4.23755328e-06 
-1.16000000e+00 -8.00000000e-01  4.24625184e-06 
-1.18000000e+00 -8.00000000e-01  4.25493956e-06 
-1.20000000e+00 -8.00000000e-01  4.26361749e-06 
 0.00000000e+00 -1.00000000e+00  1.02996552e-43 
-2.00000000e-02 -1.00000000e+00  1.70912328e-06 
-4.00000000e-02 -1.00000000e+00  3.26453925e-06 
-6.00000000e-02 -1.00000000e+00  4.65749181e-06 
-8.00000000e-02 -1.00000000e+00  5.88643239e-06 
-1.00000000e-01 -1.00000000e+00  6.95619689e-06 
-1.20000000e-01 -1.00000000e+00  7.87666880e-06 
-1.40000000e-01 -1.00000000e+00  8.66117577e-06 
-1.60000000e-01 -1.00000000e+00  9.32490273e-06 
-1.80000000e-01 -1.00000000e+00  9.88353772e-06 
-2.00000000e-01 -1.00000000e+00  1.03522582e-05 
-2.20000000e-01 -1.00000000e+00  1.07450700e-05 
-2.40000000e-01 -1.00000000e+00  1.10744514e-05 
-2.60000000e-01 -1.00000000e+00  1.13512284e-05 
-2.80000000e-01 -1.00000000e+00  1.15846066e-05 
-3.00000000e-01 -1.00000000e+00  1.17822964e-05 
-3.20000000e-01 -1.00000000e+00  1.19506845e-05 
-3.40000000e-01 -1.00000000e+00  1.20950187e-05 
-3.60000000e-01 -1.00000000e+00  1.22195879e-05 
-3.80000000e-01 -1.00000000e+00  1.23278856e-05 
-4.00000000e-01 -1.00000000e+00  1.24227523e-05 
-4.20000000e-01 -1.00000000e+00  1.25064967e-05 
-4.40000000e-01 -1.00000000e+00  1.25809971e-05 
-4.60000000e-01 -1.00000000e+00  1.26477834e-05 
-4.80000000e-01 -1.00000000e+00  1.27081050e-05 
-5.00000000e-01 -1.00000000e+00  1.27629851e-05 
-5.20000000e-01 -1.00000000e+00  1.28132642e-05 
-5.40000000e-01 -1.00000000e+00  1.28596352e-05 
-5.60000000e-01 -1.00000000e+00  1.29026716e-05 
-5.80000000e-01 -1.00000000e+00  1.29428499e-05 
-6.00000000e-01 -1.00000000e+00  1.29805676e-05 
-6.20000000e-01 -1.00000000e+00  1.30161576e-05 
-6.40000000e-01 -1.00000000e+00  1.30498999e-05 
-6.60000000e-01 -1.00000000e+00  1.30820312e-05 
-6.80000000e-01 -1.00000000e+00  1.31127519e-05 
-7.00000000e-01 -1.00000000e+00  1.31422330e-05 
-7.20000000e-01 -1.00000000e+00  1.31706204e-05 
-7.40000000e-01 -1.00000000e+00  1.31980395e-05 
-7.60000000e-01 -1.00000000e+00  1.32250117e-05 
-7.80000000e-01 -1.00000000e+00  1.32507591e-05 
-8.00000000e-01 -1.00000000e+00  1.32758263e-05 
-8.20000000e-01 -1.00000000e+00  1.33002831e-05 
-8.40000000e-01 -1.00000000e+00  1.33241905e-05 
-8.60000000e-01 -1.00000000e+00  1.33476018e-05 
-8.80000000e-01 -1.00000000e+00  1.33705642e-05 
-9.00000000e-01 -1.00000000e+00  1.33931193e-05 
-9.20000000e-01 -1.00000000e+00  1.34153037e-05 
-9.40000000e-01 -1.00000000e+00  1.34371502e-05 
-9.60000000e-01 -1.00000000e+00  1.34586880e-05 
-9.80000000e-01 -1.00000000e+00  1.34799429e-05 
-1.00000000e+00 -1.00000000e+00  1.35009382e-05 
-1.02000000e+00 -1.00000000e+00  1.35216948e-05 
-1.04000000e+00 -1.00000000e+00  1.35422316e-05 
-1.06000000e+00 -1.00000000e+00  1.35625654e-05 
-1.08000000e+00 -1.00000000e+00  1.35827116e-05 
-1.10000000e+00 -1.00000000e+00  1.36026841e-05 
-1.12000000e+00 -1.00000000e+00  1.36224954e-05 
-1.14000000e+00 -1.00000000e+00  1.36421571e-05 
-1.16000000e+00 -1.00000000e+00  1.36616795e-05 
-1.18000000e+00 -1.00000000e+00  1.36810723e-05 
-1.20000000e+00 -1.00000000e+00  1.37003442e-05 
 0.00000000e+00 -1.20000000e+00  6.27037632e-44 
-2.00000000e-02 -1.20000000e+00  2.60629178e-06 
-4.00000000e-02 -1.20000000e+00  5.06426471e-06 
-6.00000000e-02 -1.20000000e+00  7.36302850e-06 
-8.00000000e-02 -1.20000000e+00  9.49548415e-06 
-1.00000000e-01 -1.20000000e+00  1.14583470e-05 
-1.20000000e-01 -1.20000000e+00  1.32520018e-05 
-1.40000000e-01 -1.20000000e+00  1.48801546e-05 
-1.60000000e-01 -1.20000000e+00  1.63493141e-05 
-1.80000000e-01 -1.20000000e+00  1.76681694e-05 
-2.00000000e-01 -1.20000000e+00  1.88469429e-05 
-2.20000000e-01 -1.20000000e+00  1.98967787e-05 
-2.40000000e-01 -1.20000000e+00  2.08292088e-05 
-2.60000000e-01 -1.20000000e+00  2.16557184e-05 
-2.80000000e-01 -1.20000000e+00  2.23874147e-05 
-3.00000000e-01 -1.20000000e+00  2.30347932e-05 
-3.20000000e-01 -1.20000000e+00  2.36075898e-05 
-3.40000000e-01 -1.20000000e+00  2.41147008e-05 
-3.60000000e-01 -1.20000000e+00  2.45641572e-05 
-3.80000000e-01 -1.20000000e+00  2.49631381e-05 
-4.00000000e-01 -1.20000000e+00  2.53180092e-05 
-4.20000000e-01 -1.20000000e+00  2.56343798e-05 
-4.40000000e-01 -1.20000000e+00  2.59171672e-05 
-4.60000000e-01 -1.20000000e+00  2.61706649e-05 
-4.80000000e-01 -1.20000000e+00  2.63986111e-05 
-5.00000000e-01 -1.20000000e+00  2.66042525e-05 
-5.20000000e-01 -1.20000000e+00  2.67904055e-05 
-5.40000000e-01 -1.20000000e+00  2.69595103e-05 
-5.60000000e-01 -1.20000000e+00  2.71136809e-05 
-5.80000000e-01 -1.20000000e+00  2.72547481e-05 
-6.00000000e-01 -1.20000000e+00  2.73842983e-05 
-6.20000000e-01 -1.20000000e+00  2.75037070e-05 
-6.40000000e-01 -1.20000000e+00  2.76141682e-05 
-6.60000000e-01 -1.20000000e+00  2.77167188e-05 
-6.80000000e-01 -1.20000000e+00  2.78122614e-05 
-7.00000000e-01 -1.20000000e+00  2.79015822e-05 
-7.20000000e-01 -1.20000000e+00  2.79853673e-05 
-7.40000000e-01 -1.20000000e+00  2.80642164e-05 
-7.60000000e-01 -1.20000000e+00  2.81386548e-05 
-7.80000000e-01 -1.20000000e+00  2.82091432e-05 
-8.00000000e-01 -1.20000000e+00  2.82760868e-05 
-8.20000000e-01 -1.20000000e+00  2.83398422e-05 
-8.40000000e-01 -1.20000000e+00  2.84007242e-05 
-8.60000000e-01 -1.20000000e+00  2.84590110e-05 
-8.80000000e-01 -1.20000000e+00  2.85160848e-05 
-9.00000000e-01 -1.20000000e+00  2.85697881e-05 
-9.20000000e-01 -1.20000000e+00  2.86215677e-05 
-9.40000000e-01 -1.20000000e+00  2.86715956e-05 
-9.60000000e-01 -1.20000000e+00  2.87200255e-05 
-9.80000000e-01 -1.20000000e+00  2.87669947e-05 
-1.00000000e+00 -1.20000000e+00  2.88126265e-05 
-1.02000000e+00 -1.20000000e+00  2.88570314e-05 
-1.04000000e+00 -1.20000000e+00  2.89003092e-05 
-1.06000000e+00 -1.20000000e+00  2.89425495e-05 
-1.08000000e+00 -1.20000000e+00  2.89838333e-05 
-1.10000000e+00 -1.20000000e+00  2.90242340e-05 
-1.12000000e+00 -1.20000000e+00  2.90638180e-05 
-1.14000000e+00 -1.20000000e+00  2.91026457e-05 
-1.16000000e+00 -1.20000000e+00  2.91407718e-05 
-1.18000000e+00 -1.20000000e+00  2.91782462e-05 
-1.20000000e+00 -1.20000000e+00  2.92151146e-05 
