 v-sweep         v(out)          i(VDD)         
 0.00000000e+00  1.19999999e+00 -1.24309099e-12 
 2.00000000e-02  1.19999999e+00 -1.27027537e-12 
 4.00000000e-02  1.19999999e+00 -1.31546154e-12 
 6.00000000e-02  1.19999999e+00 -1.39091547e-12 
 8.00000000e-02  1.19999999e+00 -1.51745939e-12 
 1.00000000e-01  1.19999999e+00 -1.73055527e-12 
 1.20000000e-01  1.19999998e+00 -2.09079272e-12 
 1.40000000e-01  1.19999998e+00 -2.70200245e-12 
 1.60000000e-01  1.19999997e+00 -3.74263112e-12 
 1.80000000e-01  1.19999995e+00 -5.52021759e-12 
 2.00000000e-01  1.19999991e+00 -8.56617334e-12 
 2.20000000e-01  1.19999986e+00 -1.38010807e-11 
 2.40000000e-01  1.19999975e+00 -2.28235639e-11 
 2.60000000e-01  1.19999955e+00 -3.84161237e-11 
 2.80000000e-01  1.19999918e+00 -6.54325928e-11 
 3.00000000e-01  1.19999849e+00 -1.12357872e-10 
 3.20000000e-01  1.19999720e+00 -1.94053637e-10 
 3.40000000e-01  1.19999476e+00 -3.36598348e-10 
 3.60000000e-01  1.19999009e+00 -5.85827426e-10 
 3.80000000e-01  1.19998108e+00 -1.02240775e-09 
 4.00000000e-01  1.19996357e+00 -1.78842750e-09 
 4.20000000e-01  1.19992912e+00 -3.13417927e-09 
 4.40000000e-01  1.19986063e+00 -5.49999648e-09 
 4.60000000e-01  1.19972276e+00 -9.65775192e-09 
 4.80000000e-01  1.19944153e+00 -1.69501121e-08 
 5.00000000e-01  1.19885926e+00 -2.96782825e-08 
 5.20000000e-01  1.19763186e+00 -5.16808648e-08 
 5.40000000e-01  1.19497563e+00 -8.90619085e-08 
 5.60000000e-01  1.18886094e+00 -1.50749651e-07 
 5.80000000e-01  1.17189147e+00 -2.47715813e-07 
 6.00000000e-01  8.60399611e-01 -3.38781154e-07 
 6.20000000e-01  4.64561489e-02 -2.61920289e-07 
 6.40000000e-01  1.45843092e-02 -1.75125269e-07 
 6.60000000e-01  6.36343949e-03 -1.13306272e-07 
 6.80000000e-01  2.99946453e-03 -7.13798319e-08 
 7.00000000e-01  1.46224774e-03 -4.40269864e-08 
 7.20000000e-01  7.27336503e-04 -2.67409576e-08 
 7.40000000e-01  3.68162633e-04 -1.60758345e-08 
 7.60000000e-01  1.89023018e-04 -9.60387017e-09 
 7.80000000e-01  9.83379214e-05 -5.71776862e-09 
 8.00000000e-01  5.17879655e-05 -3.39886779e-09 
 8.20000000e-01  2.75807182e-05 -2.01975992e-09 
 8.40000000e-01  1.48401911e-05 -1.20079806e-09 
 8.60000000e-01  8.06059119e-06 -7.14642618e-10 
 8.80000000e-01  4.41668041e-06 -4.25949410e-10 
 9.00000000e-01  2.44023462e-06 -2.54382401e-10 
 9.20000000e-01  1.35927825e-06 -1.52316286e-10 
 9.40000000e-01  7.63558036e-07 -9.15234495e-11 
 9.60000000e-01  4.32923378e-07 -5.52662926e-11 
 9.80000000e-01  2.48188713e-07 -3.36122898e-11 
 1.00000000e+00  1.44308055e-07 -2.06610958e-11 
 1.02000000e+00  8.55203998e-08 -1.29034951e-11 
 1.04000000e+00  5.20318527e-08 -8.24970532e-12 
 1.06000000e+00  3.28178195e-08 -5.45354305e-12 
 1.08000000e+00  2.17021673e-08 -3.77084486e-12 
 1.10000000e+00  1.52060202e-08 -2.75657898e-12 
 1.12000000e+00  1.13596437e-08 -2.14421201e-12 
 1.14000000e+00  9.04222178e-09 -1.77387661e-12 
 1.16000000e+00  7.61288846e-09 -1.54952946e-12 
 1.18000000e+00  6.70342981e-09 -1.41338600e-12 
 1.20000000e+00  6.10123704e-09 -1.33062176e-12 
