 v-sweep         v(out)          i(VDD)         
 0.00000000e+00  1.19999999e+00 -1.24309094e-12 
 2.00000000e-02  1.19999999e+00 -1.26398781e-12 
 4.00000000e-02  1.19999999e+00 -1.30492389e-12 
 6.00000000e-02  1.19999999e+00 -1.37317560e-12 
 8.00000000e-02  1.19999999e+00 -1.48748339e-12 
 1.00000000e-01  1.19999999e+00 -1.67972271e-12 
 1.20000000e-01  1.19999998e+00 -2.00429428e-12 
 1.40000000e-01  1.19999998e+00 -2.55433425e-12 
 1.60000000e-01  1.19999997e+00 -3.48975253e-12 
 1.80000000e-01  1.19999995e+00 -5.08588434e-12 
 2.00000000e-01  1.19999992e+00 -7.81807111e-12 
 2.20000000e-01  1.19999986e+00 -1.38010807e-11 
 2.40000000e-01  1.19999975e+00 -2.28235642e-11 
 2.60000000e-01  1.19999955e+00 -3.84161235e-11 
 2.80000000e-01  1.19999918e+00 -6.54325923e-11 
 3.00000000e-01  1.19999849e+00 -1.12357873e-10 
 3.20000000e-01  1.19999720e+00 -1.94053637e-10 
 3.40000000e-01  1.19999476e+00 -3.36598348e-10 
 3.60000000e-01  1.19999009e+00 -5.85827426e-10 
 3.80000000e-01  1.19998108e+00 -1.02240775e-09 
 4.00000000e-01  1.19996357e+00 -1.78842751e-09 
 4.20000000e-01  1.19992912e+00 -3.13417927e-09 
 4.40000000e-01  1.19986063e+00 -5.49999648e-09 
 4.60000000e-01  1.19972276e+00 -9.65775192e-09 
 4.80000000e-01  1.19944153e+00 -1.69501121e-08 
 5.00000000e-01  1.19885926e+00 -2.96782825e-08 
 5.20000000e-01  1.19763186e+00 -5.16808648e-08 
 5.40000000e-01  1.19497563e+00 -8.90619085e-08 
 5.60000000e-01  1.18890851e+00 -1.50753585e-07 
 5.80000000e-01  1.17189154e+00 -2.47715822e-07 
 6.00000000e-01  8.60399611e-01 -3.38781154e-07 
 6.20000000e-01  4.64561489e-02 -2.61920289e-07 
 6.40000000e-01  1.45843092e-02 -1.75125269e-07 
 6.60000000e-01  6.36343949e-03 -1.13306272e-07 
 6.80000000e-01  2.99946453e-03 -7.13798319e-08 
 7.00000000e-01  1.46224774e-03 -4.40269864e-08 
 7.20000000e-01  7.27336503e-04 -2.67409576e-08 
 7.40000000e-01  3.68162633e-04 -1.60758345e-08 
 7.60000000e-01  1.89023018e-04 -9.60387017e-09 
 7.80000000e-01  9.83379214e-05 -5.71776862e-09 
 8.00000000e-01  5.17879655e-05 -3.39886779e-09 
 8.20000000e-01  2.75807182e-05 -2.01975992e-09 
 8.40000000e-01  1.48401911e-05 -1.20079805e-09 
 8.60000000e-01  8.06059119e-06 -7.14642618e-10 
 8.80000000e-01  4.41668041e-06 -4.25949410e-10 
 9.00000000e-01  2.44023462e-06 -2.54382401e-10 
 9.20000000e-01  1.35927825e-06 -1.52316286e-10 
 9.40000000e-01  7.63558036e-07 -9.15234490e-11 
 9.60000000e-01  4.32923378e-07 -5.52662930e-11 
 9.80000000e-01  2.48188713e-07 -3.36122894e-11 
 1.00000000e+00  1.44308055e-07 -2.06610958e-11 
 1.02000000e+00  8.55203997e-08 -1.29034951e-11 
 1.04000000e+00  5.20318527e-08 -8.24970489e-12 
 1.06000000e+00  2.70203262e-08 -4.68202791e-12 
 1.08000000e+00  1.86711994e-08 -3.30812347e-12 
 1.10000000e+00  1.34534813e-08 -2.47862992e-12 
 1.12000000e+00  1.03488799e-08 -1.97699153e-12 
 1.14000000e+00  8.45549186e-09 -1.67310943e-12 
 1.16000000e+00  7.27000314e-09 -1.48871010e-12 
 1.18000000e+00  6.50139647e-09 -1.37661652e-12 
 1.20000000e+00  5.98095357e-09 -1.30835506e-12 
