 v-sweep         v(out)          i(VDD)         
 0.00000000e+00  1.19999999e+00 -1.50274587e-12 
 2.00000000e-02  1.19999999e+00 -1.65309725e-12 
 4.00000000e-02  1.19999999e+00 -1.94982012e-12 
 6.00000000e-02  1.19999999e+00 -2.44763237e-12 
 8.00000000e-02  1.19999998e+00 -3.28643090e-12 
 1.00000000e-01  1.19999997e+00 -4.70554905e-12 
 1.20000000e-01  1.19999995e+00 -7.11572608e-12 
 1.40000000e-01  1.19999991e+00 -1.23399807e-11 
 1.60000000e-01  1.19999985e+00 -2.01725054e-11 
 1.80000000e-01  1.19999974e+00 -3.36275185e-11 
 2.00000000e-01  1.19999955e+00 -5.68115637e-11 
 2.20000000e-01  1.19999920e+00 -9.68751347e-11 
 2.40000000e-01  1.19999855e+00 -1.66297631e-10 
 2.60000000e-01  1.19999738e+00 -2.86905428e-10 
 2.80000000e-01  1.19999521e+00 -4.96947123e-10 
 3.00000000e-01  1.19999119e+00 -8.63562254e-10 
 3.20000000e-01  1.19998371e+00 -1.50475433e-09 
 3.40000000e-01  1.19996970e+00 -2.62805521e-09 
 3.60000000e-01  1.19994332e+00 -4.59828665e-09 
 3.80000000e-01  1.19989338e+00 -8.05530916e-09 
 4.00000000e-01  1.19979840e+00 -1.41152744e-08 
 4.20000000e-01  1.19961711e+00 -2.47040370e-08 
 4.40000000e-01  1.19927069e+00 -4.30781480e-08 
 4.60000000e-01  1.19861021e+00 -7.45529230e-08 
 4.80000000e-01  1.19735975e+00 -1.27311029e-07 
 5.00000000e-01  1.19501824e+00 -2.12870461e-07 
 5.20000000e-01  1.19067319e+00 -3.45546850e-07 
 5.40000000e-01  1.18252238e+00 -5.40495959e-07 
 5.60000000e-01  1.16568785e+00 -8.10184738e-07 
 5.80000000e-01  1.10863642e+00 -1.14936767e-06 
 6.00000000e-01  3.00661551e-01 -1.13543491e-06 
 6.20000000e-01  4.30159491e-02 -8.82071364e-07 
 6.40000000e-01  2.11135230e-02 -6.51650085e-07 
 6.60000000e-01  1.17583639e-02 -4.67315597e-07 
 6.80000000e-01  6.75226948e-03 -3.24879548e-07 
 7.00000000e-01  3.88720772e-03 -2.18774883e-07 
 7.20000000e-01  2.21780574e-03 -1.42816708e-07 
 7.40000000e-01  1.25097997e-03 -9.06368003e-08 
 7.60000000e-01  6.97769529e-04 -5.61841759e-08 
 7.80000000e-01  3.86106660e-04 -3.42108947e-08 
 8.00000000e-01  2.12756749e-04 -2.05752082e-08 
 8.20000000e-01  1.17131162e-04 -1.22780392e-08 
 8.40000000e-01  6.45821235e-05 -7.29409268e-09 
 8.60000000e-01  3.57159174e-05 -4.32372355e-09 
 8.80000000e-01  1.98287761e-05 -2.56112417e-09 
 9.00000000e-01  1.10562377e-05 -1.51741224e-09 
 9.20000000e-01  6.19282360e-06 -8.99820587e-10 
 9.40000000e-01  3.48492605e-06 -5.34318825e-10 
 9.60000000e-01  1.97054137e-06 -3.17861449e-10 
 9.80000000e-01  1.11991536e-06 -1.89542851e-10 
 1.00000000e+00  6.40068288e-07 -1.13382659e-10 
 1.02000000e+00  3.68243161e-07 -6.81196454e-11 
 1.04000000e+00  2.13620961e-07 -4.11811474e-11 
 1.06000000e+00  1.25303163e-07 -2.51248928e-11 
 1.08000000e+00  7.46438482e-08 -1.55402431e-11 
 1.10000000e+00  4.54554432e-08 -9.80984169e-12 
 1.12000000e+00  2.35379975e-08 -5.42482074e-12 
 1.14000000e+00  1.59954830e-08 -3.75019037e-12 
 1.16000000e+00  1.13610990e-08 -2.74241323e-12 
 1.18000000e+00  8.60564097e-09 -2.13493400e-12 
 1.20000000e+00  6.93969128e-09 -1.76814954e-12 
