 v-sweep         v(out)          i(VDD)         
 0.00000000e+00  1.19999999e+00 -1.21670171e-12 
 2.00000000e-02  1.19999999e+00 -1.22459515e-12 
 4.00000000e-02  1.19999999e+00 -1.23999305e-12 
 6.00000000e-02  1.19999999e+00 -1.26559162e-12 
 8.00000000e-02  1.19999999e+00 -1.30833509e-12 
 1.00000000e-01  1.19999999e+00 -1.38000382e-12 
 1.20000000e-01  1.19999999e+00 -1.50065445e-12 
 1.40000000e-01  1.19999999e+00 -1.70452336e-12 
 1.60000000e-01  1.19999998e+00 -2.05024125e-12 
 1.80000000e-01  1.19999998e+00 -2.63848648e-12 
 2.00000000e-01  1.19999997e+00 -3.64261613e-12 
 2.20000000e-01  1.19999995e+00 -5.36190443e-12 
 2.40000000e-01  1.19999992e+00 -8.31429032e-12 
 2.60000000e-01  1.19999985e+00 -1.48063845e-11 
 2.80000000e-01  1.19999973e+00 -2.46198861e-11 
 3.00000000e-01  1.19999952e+00 -4.16210761e-11 
 3.20000000e-01  1.19999912e+00 -7.11449058e-11 
 3.40000000e-01  1.19999837e+00 -1.22532303e-10 
 3.60000000e-01  1.19999696e+00 -2.12168375e-10 
 3.80000000e-01  1.19999428e+00 -3.68843093e-10 
 4.00000000e-01  1.19998913e+00 -6.43217491e-10 
 4.20000000e-01  1.19997918e+00 -1.12454143e-09 
 4.40000000e-01  1.19995973e+00 -1.97014656e-09 
 4.60000000e-01  1.19992134e+00 -3.45731416e-09 
 4.80000000e-01  1.19984466e+00 -6.07387408e-09 
 5.00000000e-01  1.19968961e+00 -1.06743453e-08 
 5.20000000e-01  1.19937175e+00 -1.87422268e-08 
 5.40000000e-01  1.19871008e+00 -3.28096638e-08 
 5.60000000e-01  1.19730622e+00 -5.70680005e-08 
 5.80000000e-01  1.19423858e+00 -9.80915508e-08 
 6.00000000e-01  1.18708468e+00 -1.65268848e-07 
 6.20000000e-01  1.16499670e+00 -2.69265951e-07 
 6.40000000e-01  6.24235969e-01 -3.24237294e-07 
 6.60000000e-01  3.42581661e-02 -2.39848851e-07 
 6.80000000e-01  1.21968048e-02 -1.58605696e-07 
 7.00000000e-01  5.42822372e-03 -1.01670019e-07 
 7.20000000e-01  2.57392684e-03 -6.35396471e-08 
 7.40000000e-01  1.25777073e-03 -3.89378270e-08 
 7.60000000e-01  6.26548685e-04 -2.35316077e-08 
 7.80000000e-01  3.17473959e-04 -1.40930096e-08 
 8.00000000e-01  1.63164614e-04 -8.39518743e-09 
 8.20000000e-01  8.49674884e-05 -4.98702152e-09 
 8.40000000e-01  4.47855891e-05 -2.95913782e-09 
 8.60000000e-01  2.38692653e-05 -1.75578859e-09 
 8.80000000e-01  1.28511982e-05 -1.04249336e-09 
 9.00000000e-01  6.98390077e-06 -6.19719105e-10 
 9.20000000e-01  3.82850368e-06 -3.69008165e-10 
 9.40000000e-01  2.11626481e-06 -2.20200581e-10 
 9.60000000e-01  1.17950067e-06 -1.31777835e-10 
 9.80000000e-01  6.63122680e-07 -7.91695861e-11 
 1.00000000e+00  3.76473169e-07 -4.78268576e-11 
 1.02000000e+00  2.16289065e-07 -2.91268195e-11 
 1.04000000e+00  1.26197090e-07 -1.79532229e-11 
 1.06000000e+00  7.51983330e-08 -1.12666106e-11 
 1.08000000e+00  4.61329794e-08 -7.25889832e-12 
 1.10000000e+00  2.44169392e-08 -4.18796543e-12 
 1.12000000e+00  1.71443013e-08 -3.00784343e-12 
 1.14000000e+00  1.25911562e-08 -2.29587838e-12 
 1.16000000e+00  9.87000925e-09 -1.86562252e-12 
 1.18000000e+00  8.19992151e-09 -1.60515994e-12 
 1.20000000e+00  7.14479629e-09 -1.44720668e-12 
