 v-sweep         v(out)          i(VDD)         
 0.00000000e+00  1.19999999e+00 -1.20668750e-12 
 2.00000000e-02  1.19999999e+00 -1.20967240e-12 
 4.00000000e-02  1.19999999e+00 -1.21547455e-12 
 6.00000000e-02  1.19999999e+00 -1.22509163e-12 
 8.00000000e-02  1.19999999e+00 -1.24110126e-12 
 1.00000000e-01  1.19999999e+00 -1.26786306e-12 
 1.20000000e-01  1.19999999e+00 -1.31278505e-12 
 1.40000000e-01  1.19999999e+00 -1.38847416e-12 
 1.60000000e-01  1.19999998e+00 -1.51645692e-12 
 1.80000000e-01  1.19999998e+00 -1.73361235e-12 
 2.00000000e-01  1.19999997e+00 -2.10326453e-12 
 2.20000000e-01  1.19999996e+00 -2.73444935e-12 
 2.40000000e-01  1.19999995e+00 -3.81539241e-12 
 2.60000000e-01  1.19999991e+00 -5.67178784e-12 
 2.80000000e-01  1.19999985e+00 -8.86850912e-12 
 3.00000000e-01  1.19999971e+00 -1.59234997e-11 
 3.20000000e-01  1.19999946e+00 -2.66101824e-11 
 3.40000000e-01  1.19999899e+00 -4.51639193e-11 
 3.60000000e-01  1.19999808e+00 -7.74478332e-11 
 3.80000000e-01  1.19999627e+00 -1.33742064e-10 
 4.00000000e-01  1.19999263e+00 -2.32102244e-10 
 4.20000000e-01  1.19998522e+00 -4.04289823e-10 
 4.40000000e-01  1.19996982e+00 -7.06249675e-10 
 4.60000000e-01  1.19993708e+00 -1.23661701e-09 
 4.80000000e-01  1.19986575e+00 -2.16934957e-09 
 5.00000000e-01  1.19970566e+00 -3.81100746e-09 
 5.20000000e-01  1.19933346e+00 -6.70030722e-09 
 5.40000000e-01  1.19842903e+00 -1.17775168e-08 
 5.60000000e-01  1.19608809e+00 -2.06588642e-08 
 5.80000000e-01  1.18909062e+00 -3.60148098e-08 
 6.00000000e-01  1.14999879e+00 -6.11930367e-08 
 6.20000000e-01  1.25040084e-01 -5.56901109e-08 
 6.40000000e-01  1.34542509e-02 -3.48950402e-08 
 6.60000000e-01  4.44899441e-03 -2.11985445e-08 
 6.80000000e-01  1.68892998e-03 -1.27555565e-08 
 7.00000000e-01  6.88516218e-04 -7.63452876e-09 
 7.20000000e-01  2.95895426e-04 -4.55701544e-09 
 7.40000000e-01  1.33404092e-04 -2.71710743e-09 
 7.60000000e-01  6.24809180e-05 -1.62000111e-09 
 7.80000000e-01  3.02320484e-05 -9.66511104e-10 
 8.00000000e-01  1.50363031e-05 -5.77302251e-10 
 8.20000000e-01  7.65523890e-06 -3.45384895e-10 
 8.40000000e-01  3.97667769e-06 -2.07077436e-10 
 8.60000000e-01  2.10296386e-06 -1.24508616e-10 
 8.80000000e-01  1.13061610e-06 -7.51564603e-11 
 9.00000000e-01  6.17814901e-07 -4.56201170e-11 
 9.20000000e-01  3.43494894e-07 -2.79191690e-11 
 9.40000000e-01  1.94848922e-07 -1.72961669e-11 
 9.60000000e-01  1.13327390e-07 -1.09116744e-11 
 9.80000000e-01  6.80897567e-08 -7.06886347e-12 
 1.00000000e+00  3.47203218e-08 -4.11763323e-12 
 1.02000000e+00  2.43406151e-08 -2.97187440e-12 
 1.04000000e+00  1.76226337e-08 -2.27795646e-12 
 1.06000000e+00  1.36475704e-08 -1.85701114e-12 
 1.08000000e+00  1.11993989e-08 -1.60123605e-12 
 1.10000000e+00  9.63922241e-09 -1.44556241e-12 
 1.12000000e+00  8.60089631e-09 -1.35065278e-12 
 1.14000000e+00  7.87470516e-09 -1.29268945e-12 
 1.16000000e+00  7.33932436e-09 -1.25722756e-12 
 1.18000000e+00  6.92383993e-09 -1.23549351e-12 
 1.20000000e+00  6.58628757e-09 -1.22214857e-12 
