 v-sweep         v(out)          i(VDD)         
 0.00000000e+00  1.19999999e+00 -1.31390266e-12 
 2.00000000e-02  1.19999999e+00 -1.38691186e-12 
 4.00000000e-02  1.19999999e+00 -1.50864196e-12 
 6.00000000e-02  1.19999999e+00 -1.71253618e-12 
 8.00000000e-02  1.19999998e+00 -2.05552205e-12 
 1.00000000e-01  1.19999998e+00 -2.63482291e-12 
 1.20000000e-01  1.19999997e+00 -3.61700755e-12 
 1.40000000e-01  1.19999995e+00 -5.28829844e-12 
 1.60000000e-01  1.19999992e+00 -8.14193922e-12 
 1.80000000e-01  1.19999986e+00 -1.30302427e-11 
 2.00000000e-01  1.19999976e+00 -2.14298428e-11 
 2.20000000e-01  1.19999957e+00 -3.59053812e-11 
 2.40000000e-01  1.19999923e+00 -6.09217705e-11 
 2.60000000e-01  1.19999859e+00 -1.04269769e-10 
 2.80000000e-01  1.19999740e+00 -1.79572310e-10 
 3.00000000e-01  1.19999515e+00 -3.10697627e-10 
 3.20000000e-01  1.19999087e+00 -5.39538746e-10 
 3.40000000e-01  1.19998265e+00 -9.39735390e-10 
 3.60000000e-01  1.19996672e+00 -1.64086837e-09 
 3.80000000e-01  1.19993555e+00 -2.87103275e-09 
 4.00000000e-01  1.19987386e+00 -5.03138177e-09 
 4.20000000e-01  1.19975028e+00 -8.82533218e-09 
 4.40000000e-01  1.19949953e+00 -1.54781594e-08 
 4.60000000e-01  1.19898336e+00 -2.70965464e-08 
 4.80000000e-01  1.19790271e+00 -4.72165108e-08 
 5.00000000e-01  1.19558614e+00 -8.15247022e-08 
 5.20000000e-01  1.19035892e+00 -1.38509188e-07 
 5.40000000e-01  1.17678464e+00 -2.29145707e-07 
 5.60000000e-01  1.05843041e+00 -3.48603076e-07 
 5.80000000e-01  7.22081257e-02 -2.87036458e-07 
 6.00000000e-01  1.76484536e-02 -1.94534575e-07 
 6.20000000e-01  7.50957930e-03 -1.27155224e-07 
 6.40000000e-01  3.51786701e-03 -8.08223361e-08 
 6.60000000e-01  1.71186901e-03 -5.02193002e-08 
 6.80000000e-01  8.50810673e-04 -3.06777214e-08 
 7.00000000e-01  4.30482854e-04 -1.85226427e-08 
 7.20000000e-01  2.20897550e-04 -1.11016997e-08 
 7.40000000e-01  1.14848302e-04 -6.62600614e-09 
 7.60000000e-01  6.04451709e-05 -3.94655072e-09 
 7.80000000e-01  3.21731101e-05 -2.34904534e-09 
 8.00000000e-01  1.73028096e-05 -1.39851016e-09 
 8.20000000e-01  9.39432971e-06 -8.33313681e-10 
 8.40000000e-01  5.14559229e-06 -4.97197316e-10 
 8.60000000e-01  2.84188149e-06 -2.97185748e-10 
 8.80000000e-01  1.58224556e-06 -1.78053599e-10 
 9.00000000e-01  8.88169044e-07 -1.07014955e-10 
 9.20000000e-01  5.02988614e-07 -6.46012606e-11 
 9.40000000e-01  2.87798317e-07 -3.92441486e-11 
 9.60000000e-01  1.66806740e-07 -2.40630969e-11 
 9.80000000e-01  9.83505130e-08 -1.49611813e-11 
 1.00000000e+00  5.93697627e-08 -9.49594710e-12 
 1.02000000e+00  3.70205565e-08 -6.20936218e-12 
 1.04000000e+00  2.41070277e-08 -4.22986740e-12 
 1.06000000e+00  1.65754880e-08 -3.03574166e-12 
 1.08000000e+00  1.21304770e-08 -2.31422979e-12 
 1.10000000e+00  9.46569279e-09 -1.87756678e-12 
 1.12000000e+00  7.83415607e-09 -1.61285571e-12 
 1.14000000e+00  6.80668274e-09 -1.45211286e-12 
 1.16000000e+00  6.13548599e-09 -1.35433674e-12 
 1.18000000e+00  5.67678270e-09 -1.29475369e-12 
 1.20000000e+00  5.34667972e-09 -1.25838316e-12 
