 v-sweep         v(1)            i(vd)          
 0.00000000e+00 -2.00000000e-01  0.00000000e+00 
-2.00000000e-02 -2.00000000e-01  3.05052599e-12 
-4.00000000e-02 -2.00000000e-01  5.02515558e-12 
-6.00000000e-02 -2.00000000e-01  5.27497495e-12 
-8.00000000e-02 -2.00000000e-01  5.43883078e-12 
-1.00000000e-01 -2.00000000e-01  5.56612950e-12 
-1.20000000e-01 -2.00000000e-01  5.67041568e-12 
-1.40000000e-01 -2.00000000e-01  5.75961336e-12 
-1.60000000e-01 -2.00000000e-01  5.83907771e-12 
-1.80000000e-01 -2.00000000e-01  5.91227308e-12 
-2.00000000e-01 -2.00000000e-01  5.98138497e-12 
-2.20000000e-01 -2.00000000e-01  6.04779368e-12 
-2.40000000e-01 -2.00000000e-01  6.11238479e-12 
-2.60000000e-01 -2.00000000e-01  6.17573922e-12 
-2.80000000e-01 -2.00000000e-01  6.23824746e-12 
-3.00000000e-01 -2.00000000e-01  6.30017849e-12 
-3.20000000e-01 -2.00000000e-01  6.36172201e-12 
-3.40000000e-01 -2.00000000e-01  6.42301481e-12 
-3.60000000e-01 -2.00000000e-01  6.48415762e-12 
-3.80000000e-01 -2.00000000e-01  6.54522604e-12 
-4.00000000e-01 -2.00000000e-01  6.60627786e-12 
-4.20000000e-01 -2.00000000e-01  6.66735802e-12 
-4.40000000e-01 -2.00000000e-01  6.72850202e-12 
-4.60000000e-01 -2.00000000e-01  6.78973831e-12 
-4.80000000e-01 -2.00000000e-01  6.85109004e-12 
-5.00000000e-01 -2.00000000e-01  6.91257631e-12 
-5.20000000e-01 -2.00000000e-01  6.97421302e-12 
-5.40000000e-01 -2.00000000e-01  7.03601366e-12 
-5.60000000e-01 -2.00000000e-01  7.09798973e-12 
-5.80000000e-01 -2.00000000e-01  7.16015118e-12 
-6.00000000e-01 -2.00000000e-01  7.22250670e-12 
-6.20000000e-01 -2.00000000e-01  7.28506397e-12 
-6.40000000e-01 -2.00000000e-01  7.34782980e-12 
-6.60000000e-01 -2.00000000e-01  7.41081036e-12 
-6.80000000e-01 -2.00000000e-01  7.47401120e-12 
-7.00000000e-01 -2.00000000e-01  7.53743742e-12 
-7.20000000e-01 -2.00000000e-01  7.60109371e-12 
-7.40000000e-01 -2.00000000e-01  7.66498440e-12 
-7.60000000e-01 -2.00000000e-01  7.72911357e-12 
-7.80000000e-01 -2.00000000e-01  7.79348501e-12 
-8.00000000e-01 -2.00000000e-01  7.85810234e-12 
-8.20000000e-01 -2.00000000e-01  7.92296898e-12 
-8.40000000e-01 -2.00000000e-01  7.98808818e-12 
-8.60000000e-01 -2.00000000e-01  8.05346308e-12 
-8.80000000e-01 -2.00000000e-01  8.11909669e-12 
-9.00000000e-01 -2.00000000e-01  8.18499192e-12 
-9.20000000e-01 -2.00000000e-01  8.25115158e-12 
-9.40000000e-01 -2.00000000e-01  8.31757843e-12 
-9.60000000e-01 -2.00000000e-01  8.38427513e-12 
-9.80000000e-01 -2.00000000e-01  8.45124430e-12 
-1.00000000e+00 -2.00000000e-01  8.51848851e-12 
-1.02000000e+00 -2.00000000e-01  8.58601027e-12 
-1.04000000e+00 -2.00000000e-01  8.65381206e-12 
-1.06000000e+00 -2.00000000e-01  8.72189632e-12 
-1.08000000e+00 -2.00000000e-01  8.79026548e-12 
-1.10000000e+00 -2.00000000e-01  8.85892190e-12 
-1.12000000e+00 -2.00000000e-01  8.92786796e-12 
-1.14000000e+00 -2.00000000e-01  8.99710600e-12 
-1.16000000e+00 -2.00000000e-01  9.06663835e-12 
-1.18000000e+00 -2.00000000e-01  9.13646732e-12 
-1.20000000e+00 -2.00000000e-01  9.20659520e-12 
 0.00000000e+00 -4.00000000e-01  3.64612517e-45 
-2.00000000e-02 -4.00000000e-01  5.06867847e-10 
-4.00000000e-02 -4.00000000e-01  7.30467689e-10 
-6.00000000e-02 -4.00000000e-01  8.31391495e-10 
-8.00000000e-02 -4.00000000e-01  8.81548455e-10 
-1.00000000e-01 -4.00000000e-01  9.10020024e-10 
-1.20000000e-01 -4.00000000e-01  9.28568565e-10 
-1.40000000e-01 -4.00000000e-01  9.42206656e-10 
-1.60000000e-01 -4.00000000e-01  9.54281621e-10 
-1.80000000e-01 -4.00000000e-01  9.63376343e-10 
-2.00000000e-01 -4.00000000e-01  9.71783158e-10 
-2.20000000e-01 -4.00000000e-01  9.79735350e-10 
-2.40000000e-01 -4.00000000e-01  9.87382506e-10 
-2.60000000e-01 -4.00000000e-01  9.94822702e-10 
-2.80000000e-01 -4.00000000e-01  1.00212183e-09 
-3.00000000e-01 -4.00000000e-01  1.00932524e-09 
-3.20000000e-01 -4.00000000e-01  1.01646493e-09 
-3.40000000e-01 -4.00000000e-01  1.02356392e-09 
-3.60000000e-01 -4.00000000e-01  1.03063919e-09 
-3.80000000e-01 -4.00000000e-01  1.03770345e-09 
-4.00000000e-01 -4.00000000e-01  1.04476643e-09 
-4.20000000e-01 -4.00000000e-01  1.05183569e-09 
-4.40000000e-01 -4.00000000e-01  1.05891718e-09 
-4.60000000e-01 -4.00000000e-01  1.06601569e-09 
-4.80000000e-01 -4.00000000e-01  1.07313512e-09 
-5.00000000e-01 -4.00000000e-01  1.08027866e-09 
-5.20000000e-01 -4.00000000e-01  1.08744899e-09 
-5.40000000e-01 -4.00000000e-01  1.09464837e-09 
-5.60000000e-01 -4.00000000e-01  1.10187874e-09 
-5.80000000e-01 -4.00000000e-01  1.10914177e-09 
-6.00000000e-01 -4.00000000e-01  1.11643891e-09 
-6.20000000e-01 -4.00000000e-01  1.12377146e-09 
-6.40000000e-01 -4.00000000e-01  1.13114056e-09 
-6.60000000e-01 -4.00000000e-01  1.13854724e-09 
-6.80000000e-01 -4.00000000e-01  1.14599245e-09 
-7.00000000e-01 -4.00000000e-01  1.15347704e-09 
-7.20000000e-01 -4.00000000e-01  1.16100179e-09 
-7.40000000e-01 -4.00000000e-01  1.16856745e-09 
-7.60000000e-01 -4.00000000e-01  1.17617469e-09 
-7.80000000e-01 -4.00000000e-01  1.18382415e-09 
-8.00000000e-01 -4.00000000e-01  1.19151645e-09 
-8.20000000e-01 -4.00000000e-01  1.19925215e-09 
-8.40000000e-01 -4.00000000e-01  1.20703182e-09 
-8.60000000e-01 -4.00000000e-01  1.21485598e-09 
-8.80000000e-01 -4.00000000e-01  1.22272514e-09 
-9.00000000e-01 -4.00000000e-01  1.23063978e-09 
-9.20000000e-01 -4.00000000e-01  1.23860039e-09 
-9.40000000e-01 -4.00000000e-01  1.24660742e-09 
-9.60000000e-01 -4.00000000e-01  1.25466134e-09 
-9.80000000e-01 -4.00000000e-01  1.26276258e-09 
-1.00000000e+00 -4.00000000e-01  1.27091158e-09 
-1.02000000e+00 -4.00000000e-01  1.27910876e-09 
-1.04000000e+00 -4.00000000e-01  1.28735453e-09 
-1.06000000e+00 -4.00000000e-01  1.29564933e-09 
-1.08000000e+00 -4.00000000e-01  1.30399354e-09 
-1.10000000e+00 -4.00000000e-01  1.31238758e-09 
-1.12000000e+00 -4.00000000e-01  1.32083184e-09 
-1.14000000e+00 -4.00000000e-01  1.32932673e-09 
-1.16000000e+00 -4.00000000e-01  1.33787263e-09 
-1.18000000e+00 -4.00000000e-01  1.34646993e-09 
-1.20000000e+00 -4.00000000e-01  1.35511903e-09 
 0.00000000e+00 -6.00000000e-01  1.70179303e-44 
-2.00000000e-02 -6.00000000e-01  3.84748096e-08 
-4.00000000e-02 -6.00000000e-01  6.19079738e-08 
-6.00000000e-02 -6.00000000e-01  7.50715025e-08 
-8.00000000e-02 -6.00000000e-01  8.23495443e-08 
-1.00000000e-01 -6.00000000e-01  8.65366599e-08 
-1.20000000e-01 -6.00000000e-01  8.91272469e-08 
-1.40000000e-01 -6.00000000e-01  9.08712423e-08 
-1.60000000e-01 -6.00000000e-01  9.21453416e-08 
-1.80000000e-01 -6.00000000e-01  9.31450208e-08 
-2.00000000e-01 -6.00000000e-01  9.39763733e-08 
-2.20000000e-01 -6.00000000e-01  9.46997752e-08 
-2.40000000e-01 -6.00000000e-01  9.53511823e-08 
-2.60000000e-01 -6.00000000e-01  9.59529196e-08 
-2.80000000e-01 -6.00000000e-01  9.65193788e-08 
-3.00000000e-01 -6.00000000e-01  9.70601538e-08 
-3.20000000e-01 -6.00000000e-01  9.75904718e-08 
-3.40000000e-01 -6.00000000e-01  9.80956387e-08 
-3.60000000e-01 -6.00000000e-01  9.85902737e-08 
-3.80000000e-01 -6.00000000e-01  9.90766766e-08 
-4.00000000e-01 -6.00000000e-01  9.95565932e-08 
-4.20000000e-01 -6.00000000e-01  1.00031369e-07 
-4.40000000e-01 -6.00000000e-01  1.00502057e-07 
-4.60000000e-01 -6.00000000e-01  1.00969491e-07 
-4.80000000e-01 -6.00000000e-01  1.01434338e-07 
-5.00000000e-01 -6.00000000e-01  1.01897140e-07 
-5.20000000e-01 -6.00000000e-01  1.02358341e-07 
-5.40000000e-01 -6.00000000e-01  1.02818308e-07 
-5.60000000e-01 -6.00000000e-01  1.03277345e-07 
-5.80000000e-01 -6.00000000e-01  1.03735711e-07 
-6.00000000e-01 -6.00000000e-01  1.04193623e-07 
-6.20000000e-01 -6.00000000e-01  1.04651266e-07 
-6.40000000e-01 -6.00000000e-01  1.05108801e-07 
-6.60000000e-01 -6.00000000e-01  1.05566365e-07 
-6.80000000e-01 -6.00000000e-01  1.06024079e-07 
-7.00000000e-01 -6.00000000e-01  1.06482046e-07 
-7.20000000e-01 -6.00000000e-01  1.06940360e-07 
-7.40000000e-01 -6.00000000e-01  1.07399102e-07 
-7.60000000e-01 -6.00000000e-01  1.07858343e-07 
-7.80000000e-01 -6.00000000e-01  1.08318149e-07 
-8.00000000e-01 -6.00000000e-01  1.08778576e-07 
-8.20000000e-01 -6.00000000e-01  1.09239677e-07 
-8.40000000e-01 -6.00000000e-01  1.09701499e-07 
-8.60000000e-01 -6.00000000e-01  1.10164082e-07 
-8.80000000e-01 -6.00000000e-01  1.10627467e-07 
-9.00000000e-01 -6.00000000e-01  1.11091688e-07 
-9.20000000e-01 -6.00000000e-01  1.11556776e-07 
-9.40000000e-01 -6.00000000e-01  1.12022762e-07 
-9.60000000e-01 -6.00000000e-01  1.12489672e-07 
-9.80000000e-01 -6.00000000e-01  1.12957531e-07 
-1.00000000e+00 -6.00000000e-01  1.13426362e-07 
-1.02000000e+00 -6.00000000e-01  1.13896186e-07 
-1.04000000e+00 -6.00000000e-01  1.14367024e-07 
-1.06000000e+00 -6.00000000e-01  1.14838893e-07 
-1.08000000e+00 -6.00000000e-01  1.15311811e-07 
-1.10000000e+00 -6.00000000e-01  1.15785794e-07 
-1.12000000e+00 -6.00000000e-01  1.16260857e-07 
-1.14000000e+00 -6.00000000e-01  1.16737014e-07 
-1.16000000e+00 -6.00000000e-01  1.17214279e-07 
-1.18000000e+00 -6.00000000e-01  1.17692664e-07 
-1.20000000e+00 -6.00000000e-01  1.18172181e-07 
 0.00000000e+00 -8.00000000e-01  7.40635612e-45 
-2.00000000e-02 -8.00000000e-01  2.05472158e-07 
-4.00000000e-02 -8.00000000e-01  3.76812421e-07 
-6.00000000e-02 -8.00000000e-01  5.14428086e-07 
-8.00000000e-02 -8.00000000e-01  6.21582680e-07 
-1.00000000e-01 -8.00000000e-01  7.03129404e-07 
-1.20000000e-01 -8.00000000e-01  7.64318616e-07 
-1.40000000e-01 -8.00000000e-01  8.09982358e-07 
-1.60000000e-01 -8.00000000e-01  8.44141395e-07 
-1.80000000e-01 -8.00000000e-01  8.69925839e-07 
-2.00000000e-01 -8.00000000e-01  8.89667727e-07 
-2.20000000e-01 -8.00000000e-01  9.05057099e-07 
-2.40000000e-01 -8.00000000e-01  9.17299713e-07 
-2.60000000e-01 -8.00000000e-01  9.27250016e-07 
-2.80000000e-01 -8.00000000e-01  9.35513343e-07 
-3.00000000e-01 -8.00000000e-01  9.42520426e-07 
-3.20000000e-01 -8.00000000e-01  9.48580090e-07 
-3.40000000e-01 -8.00000000e-01  9.53915907e-07 
-3.60000000e-01 -8.00000000e-01  9.58691517e-07 
-3.80000000e-01 -8.00000000e-01  9.63028093e-07 
-4.00000000e-01 -8.00000000e-01  9.67016438e-07 
-4.20000000e-01 -8.00000000e-01  9.70725405e-07 
-4.40000000e-01 -8.00000000e-01  9.74207812e-07 
-4.60000000e-01 -8.00000000e-01  9.77591419e-07 
-4.80000000e-01 -8.00000000e-01  9.80719993e-07 
-5.00000000e-01 -8.00000000e-01  9.83723600e-07 
-5.20000000e-01 -8.00000000e-01  9.86621894e-07 
-5.40000000e-01 -8.00000000e-01  9.89430788e-07 
-5.60000000e-01 -8.00000000e-01  9.92163281e-07 
-5.80000000e-01 -8.00000000e-01  9.94830070e-07 
-6.00000000e-01 -8.00000000e-01  9.97440028e-07 
-6.20000000e-01 -8.00000000e-01  1.00000056e-06 
-6.40000000e-01 -8.00000000e-01  1.00251791e-06 
-6.60000000e-01 -8.00000000e-01  1.00499734e-06 
-6.80000000e-01 -8.00000000e-01  1.00744335e-06 
-7.00000000e-01 -8.00000000e-01  1.00985976e-06 
-7.20000000e-01 -8.00000000e-01  1.01224990e-06 
-7.40000000e-01 -8.00000000e-01  1.01461661e-06 
-7.60000000e-01 -8.00000000e-01  1.01696239e-06 
-7.80000000e-01 -8.00000000e-01  1.01928941e-06 
-8.00000000e-01 -8.00000000e-01  1.02159956e-06 
-8.20000000e-01 -8.00000000e-01  1.02389452e-06 
-8.40000000e-01 -8.00000000e-01  1.02617577e-06 
-8.60000000e-01 -8.00000000e-01  1.02844463e-06 
-8.80000000e-01 -8.00000000e-01  1.03070225e-06 
-9.00000000e-01 -8.00000000e-01  1.03294970e-06 
-9.20000000e-01 -8.00000000e-01  1.03518789e-06 
-9.40000000e-01 -8.00000000e-01  1.03741767e-06 
-9.60000000e-01 -8.00000000e-01  1.03963980e-06 
-9.80000000e-01 -8.00000000e-01  1.04185495e-06 
-1.00000000e+00 -8.00000000e-01  1.04406376e-06 
-1.02000000e+00 -8.00000000e-01  1.04626678e-06 
-1.04000000e+00 -8.00000000e-01  1.04846452e-06 
-1.06000000e+00 -8.00000000e-01  1.05065746e-06 
-1.08000000e+00 -8.00000000e-01  1.05284602e-06 
-1.10000000e+00 -8.00000000e-01  1.05503059e-06 
-1.12000000e+00 -8.00000000e-01  1.05721153e-06 
-1.14000000e+00 -8.00000000e-01  1.05938918e-06 
-1.16000000e+00 -8.00000000e-01  1.06156383e-06 
-1.18000000e+00 -8.00000000e-01  1.06373578e-06 
-1.20000000e+00 -8.00000000e-01  1.06590527e-06 
 0.00000000e+00 -1.00000000e+00  6.92088117e-45 
-2.00000000e-02 -1.00000000e+00  4.27280835e-07 
-4.00000000e-02 -1.00000000e+00  8.16134841e-07 
-6.00000000e-02 -1.00000000e+00  1.16437300e-06 
-8.00000000e-02 -1.00000000e+00  1.47160816e-06 
-1.00000000e-01 -1.00000000e+00  1.73904930e-06 
-1.20000000e-01 -1.00000000e+00  1.96916729e-06 
-1.40000000e-01 -1.00000000e+00  2.16529405e-06 
-1.60000000e-01 -1.00000000e+00  2.33122580e-06 
-1.80000000e-01 -1.00000000e+00  2.47088456e-06 
-2.00000000e-01 -1.00000000e+00  2.58806469e-06 
-2.20000000e-01 -1.00000000e+00  2.68626766e-06 
-2.40000000e-01 -1.00000000e+00  2.76861303e-06 
-2.60000000e-01 -1.00000000e+00  2.83780730e-06 
-2.80000000e-01 -1.00000000e+00  2.89615186e-06 
-3.00000000e-01 -1.00000000e+00  2.94557433e-06 
-3.20000000e-01 -1.00000000e+00  2.98767136e-06 
-3.40000000e-01 -1.00000000e+00  3.02375492e-06 
-3.60000000e-01 -1.00000000e+00  3.05489725e-06 
-3.80000000e-01 -1.00000000e+00  3.08197169e-06 
-4.00000000e-01 -1.00000000e+00  3.10568837e-06 
-4.20000000e-01 -1.00000000e+00  3.12662450e-06 
-4.40000000e-01 -1.00000000e+00  3.14524960e-06 
-4.60000000e-01 -1.00000000e+00  3.16194619e-06 
-4.80000000e-01 -1.00000000e+00  3.17702661e-06 
-5.00000000e-01 -1.00000000e+00  3.19074666e-06 
-5.20000000e-01 -1.00000000e+00  3.20331644e-06 
-5.40000000e-01 -1.00000000e+00  3.21490921e-06 
-5.60000000e-01 -1.00000000e+00  3.22566833e-06 
-5.80000000e-01 -1.00000000e+00  3.23571292e-06 
-6.00000000e-01 -1.00000000e+00  3.24543482e-06 
-6.20000000e-01 -1.00000000e+00  3.25429314e-06 
-6.40000000e-01 -1.00000000e+00  3.26269572e-06 
-6.60000000e-01 -1.00000000e+00  3.27070062e-06 
-6.80000000e-01 -1.00000000e+00  3.27835711e-06 
-7.00000000e-01 -1.00000000e+00  3.28570717e-06 
-7.20000000e-01 -1.00000000e+00  3.29278672e-06 
-7.40000000e-01 -1.00000000e+00  3.29962664e-06 
-7.60000000e-01 -1.00000000e+00  3.30625351e-06 
-7.80000000e-01 -1.00000000e+00  3.31269035e-06 
-8.00000000e-01 -1.00000000e+00  3.31895718e-06 
-8.20000000e-01 -1.00000000e+00  3.32507139e-06 
-8.40000000e-01 -1.00000000e+00  3.33104824e-06 
-8.60000000e-01 -1.00000000e+00  3.33690110e-06 
-8.80000000e-01 -1.00000000e+00  3.34264171e-06 
-9.00000000e-01 -1.00000000e+00  3.34828049e-06 
-9.20000000e-01 -1.00000000e+00  3.35382662e-06 
-9.40000000e-01 -1.00000000e+00  3.35928826e-06 
-9.60000000e-01 -1.00000000e+00  3.36467271e-06 
-9.80000000e-01 -1.00000000e+00  3.36998645e-06 
-1.00000000e+00 -1.00000000e+00  3.37523530e-06 
-1.02000000e+00 -1.00000000e+00  3.38042448e-06 
-1.04000000e+00 -1.00000000e+00  3.38555868e-06 
-1.06000000e+00 -1.00000000e+00  3.39064215e-06 
-1.08000000e+00 -1.00000000e+00  3.39567872e-06 
-1.10000000e+00 -1.00000000e+00  3.40067185e-06 
-1.12000000e+00 -1.00000000e+00  3.40562470e-06 
-1.14000000e+00 -1.00000000e+00  3.41054013e-06 
-1.16000000e+00 -1.00000000e+00  3.41542076e-06 
-1.18000000e+00 -1.00000000e+00  3.42026896e-06 
-1.20000000e+00 -1.00000000e+00  3.42508694e-06 
 0.00000000e+00 -1.20000000e+00 -2.49322043e-45 
-2.00000000e-02 -1.20000000e+00  6.51572959e-07 
-4.00000000e-02 -1.20000000e+00  1.26606621e-06 
-6.00000000e-02 -1.20000000e+00  1.84075717e-06 
-8.00000000e-02 -1.20000000e+00  2.37387110e-06 
-1.00000000e-01 -1.20000000e+00  2.86458683e-06 
-1.20000000e-01 -1.20000000e+00  3.31300053e-06 
-1.40000000e-01 -1.20000000e+00  3.72003877e-06 
-1.60000000e-01 -1.20000000e+00  4.08732866e-06 
-1.80000000e-01 -1.20000000e+00  4.41704250e-06 
-2.00000000e-01 -1.20000000e+00  4.71173588e-06 
-2.20000000e-01 -1.20000000e+00  4.97419483e-06 
-2.40000000e-01 -1.20000000e+00  5.20730238e-06 
-2.60000000e-01 -1.20000000e+00  5.41392980e-06 
-2.80000000e-01 -1.20000000e+00  5.59685388e-06 
-3.00000000e-01 -1.20000000e+00  5.75869853e-06 
-3.20000000e-01 -1.20000000e+00  5.90189769e-06 
-3.40000000e-01 -1.20000000e+00  6.02867545e-06 
-3.60000000e-01 -1.20000000e+00  6.14103958e-06 
-3.80000000e-01 -1.20000000e+00  6.24078480e-06 
-4.00000000e-01 -1.20000000e+00  6.32950260e-06 
-4.20000000e-01 -1.20000000e+00  6.40859527e-06 
-4.40000000e-01 -1.20000000e+00  6.47929212e-06 
-4.60000000e-01 -1.20000000e+00  6.54266658e-06 
-4.80000000e-01 -1.20000000e+00  6.59965313e-06 
-5.00000000e-01 -1.20000000e+00  6.65106350e-06 
-5.20000000e-01 -1.20000000e+00  6.69760176e-06 
-5.40000000e-01 -1.20000000e+00  6.73987799e-06 
-5.60000000e-01 -1.20000000e+00  6.77842065e-06 
-5.80000000e-01 -1.20000000e+00  6.81368746e-06 
-6.00000000e-01 -1.20000000e+00  6.84607502e-06 
-6.20000000e-01 -1.20000000e+00  6.87592723e-06 
-6.40000000e-01 -1.20000000e+00  6.90354252e-06 
-6.60000000e-01 -1.20000000e+00  6.92918020e-06 
-6.80000000e-01 -1.20000000e+00  6.95306587e-06 
-7.00000000e-01 -1.20000000e+00  6.97539608e-06 
-7.20000000e-01 -1.20000000e+00  6.99700764e-06 
-7.40000000e-01 -1.20000000e+00  7.01664829e-06 
-7.60000000e-01 -1.20000000e+00  7.03519514e-06 
-7.80000000e-01 -1.20000000e+00  7.05276216e-06 
-8.00000000e-01 -1.20000000e+00  7.06944961e-06 
-8.20000000e-01 -1.20000000e+00  7.08534576e-06 
-8.40000000e-01 -1.20000000e+00  7.10052855e-06 
-8.60000000e-01 -1.20000000e+00  7.11506689e-06 
-8.80000000e-01 -1.20000000e+00  7.12902187e-06 
-9.00000000e-01 -1.20000000e+00  7.14244770e-06 
-9.20000000e-01 -1.20000000e+00  7.15539261e-06 
-9.40000000e-01 -1.20000000e+00  7.16789961e-06 
-9.60000000e-01 -1.20000000e+00  7.18000709e-06 
-9.80000000e-01 -1.20000000e+00  7.19174941e-06 
-1.00000000e+00 -1.20000000e+00  7.20315737e-06 
-1.02000000e+00 -1.20000000e+00  7.21425863e-06 
-1.04000000e+00 -1.20000000e+00  7.22507808e-06 
-1.06000000e+00 -1.20000000e+00  7.23563816e-06 
-1.08000000e+00 -1.20000000e+00  7.24595913e-06 
-1.10000000e+00 -1.20000000e+00  7.25605933e-06 
-1.12000000e+00 -1.20000000e+00  7.26595535e-06 
-1.14000000e+00 -1.20000000e+00  7.27566228e-06 
-1.16000000e+00 -1.20000000e+00  7.28519381e-06 
-1.18000000e+00 -1.20000000e+00  7.29456244e-06 
-1.20000000e+00 -1.20000000e+00  7.30377955e-06 
