 v-sweep         v(1)            i(vd)          
 0.00000000e+00  2.00000000e-01  0.00000000e+00 
 2.00000000e-02  2.00000000e-01 -1.98878635e-12 
 4.00000000e-02  2.00000000e-01 -2.91731910e-12 
 6.00000000e-02  2.00000000e-01 -3.37088454e-12 
 8.00000000e-02  2.00000000e-01 -3.62141212e-12 
 1.00000000e-01  2.00000000e-01 -3.78351225e-12 
 1.20000000e-01  2.00000000e-01 -3.90500372e-12 
 1.40000000e-01  2.00000000e-01 -4.00662044e-12 
 1.60000000e-01  2.00000000e-01 -4.09790424e-12 
 1.80000000e-01  2.00000000e-01 -4.18354182e-12 
 2.00000000e-01  2.00000000e-01 -4.26598597e-12 
 2.20000000e-01  2.00000000e-01 -4.34659843e-12 
 2.40000000e-01  2.00000000e-01 -4.42617713e-12 
 2.60000000e-01  2.00000000e-01 -4.50521331e-12 
 2.80000000e-01  2.00000000e-01 -4.58402335e-12 
 3.00000000e-01  2.00000000e-01 -4.66281975e-12 
 3.20000000e-01  2.00000000e-01 -4.74175084e-12 
 3.40000000e-01  2.00000000e-01 -4.82092405e-12 
 3.60000000e-01  2.00000000e-01 -4.90041982e-12 
 3.80000000e-01  2.00000000e-01 -4.98009881e-12 
 4.00000000e-01  2.00000000e-01 -5.06039068e-12 
 4.20000000e-01  2.00000000e-01 -5.14116144e-12 
 4.40000000e-01  2.00000000e-01 -5.22244407e-12 
 4.60000000e-01  2.00000000e-01 -5.30426706e-12 
 4.80000000e-01  2.00000000e-01 -5.38665549e-12 
 5.00000000e-01  2.00000000e-01 -5.46963185e-12 
 5.20000000e-01  2.00000000e-01 -5.55321659e-12 
 5.40000000e-01  2.00000000e-01 -5.63742855e-12 
 5.60000000e-01  2.00000000e-01 -5.72228534e-12 
 5.80000000e-01  2.00000000e-01 -5.80780352e-12 
 6.00000000e-01  2.00000000e-01 -5.89399884e-12 
 6.20000000e-01  2.00000000e-01 -5.98088640e-12 
 6.40000000e-01  2.00000000e-01 -6.06848076e-12 
 6.60000000e-01  2.00000000e-01 -6.15679602e-12 
 6.80000000e-01  2.00000000e-01 -6.24584595e-12 
 7.00000000e-01  2.00000000e-01 -6.33564401e-12 
 7.20000000e-01  2.00000000e-01 -6.42620343e-12 
 7.40000000e-01  2.00000000e-01 -6.51753725e-12 
 7.60000000e-01  2.00000000e-01 -6.60965836e-12 
 7.80000000e-01  2.00000000e-01 -6.70257953e-12 
 8.00000000e-01  2.00000000e-01 -6.79631346e-12 
 8.20000000e-01  2.00000000e-01 -6.89087276e-12 
 8.40000000e-01  2.00000000e-01 -6.98627002e-12 
 8.60000000e-01  2.00000000e-01 -7.08251778e-12 
 8.80000000e-01  2.00000000e-01 -7.17962861e-12 
 9.00000000e-01  2.00000000e-01 -7.27761506e-12 
 9.20000000e-01  2.00000000e-01 -7.37648972e-12 
 9.40000000e-01  2.00000000e-01 -7.47626518e-12 
 9.60000000e-01  2.00000000e-01 -7.57695412e-12 
 9.80000000e-01  2.00000000e-01 -7.67856925e-12 
 1.00000000e+00  2.00000000e-01 -7.78112333e-12 
 1.02000000e+00  2.00000000e-01 -7.88462921e-12 
 1.04000000e+00  2.00000000e-01 -7.98909981e-12 
 1.06000000e+00  2.00000000e-01 -8.09454813e-12 
 1.08000000e+00  2.00000000e-01 -8.20098729e-12 
 1.10000000e+00  2.00000000e-01 -8.30843046e-12 
 1.12000000e+00  2.00000000e-01 -8.41689095e-12 
 1.14000000e+00  2.00000000e-01 -8.52638217e-12 
 1.16000000e+00  2.00000000e-01 -8.63691763e-12 
 1.18000000e+00  2.00000000e-01 -8.74851099e-12 
 1.20000000e+00  2.00000000e-01 -8.86117600e-12 
 0.00000000e+00  4.00000000e-01 -2.52191310e-43 
 2.00000000e-02  4.00000000e-01 -4.35908613e-10 
 4.00000000e-02  4.00000000e-01 -6.37333585e-10 
 6.00000000e-02  4.00000000e-01 -7.33701203e-10 
 8.00000000e-02  4.00000000e-01 -7.85188059e-10 
 1.00000000e-01  4.00000000e-01 -8.17158305e-10 
 1.20000000e-01  4.00000000e-01 -8.40190456e-10 
 1.40000000e-01  4.00000000e-01 -8.58867644e-10 
 1.60000000e-01  4.00000000e-01 -8.75296544e-10 
 1.80000000e-01  4.00000000e-01 -8.90510316e-10 
 2.00000000e-01  4.00000000e-01 -9.05048678e-10 
 2.20000000e-01  4.00000000e-01 -9.19210667e-10 
 2.40000000e-01  4.00000000e-01 -9.33171164e-10 
 2.60000000e-01  4.00000000e-01 -9.47037627e-10 
 2.80000000e-01  4.00000000e-01 -9.60879172e-10 
 3.00000000e-01  4.00000000e-01 -9.74742184e-10 
 3.20000000e-01  4.00000000e-01 -9.88659055e-10 
 3.40000000e-01  4.00000000e-01 -1.00265327e-09 
 3.60000000e-01  4.00000000e-01 -1.01674247e-09 
 3.80000000e-01  4.00000000e-01 -1.03094037e-09 
 4.00000000e-01  4.00000000e-01 -1.04525793e-09 
 4.20000000e-01  4.00000000e-01 -1.05970420e-09 
 4.40000000e-01  4.00000000e-01 -1.07428685e-09 
 4.60000000e-01  4.00000000e-01 -1.08901250e-09 
 4.80000000e-01  4.00000000e-01 -1.10388703e-09 
 5.00000000e-01  4.00000000e-01 -1.11891572e-09 
 5.20000000e-01  4.00000000e-01 -1.13410343e-09 
 5.40000000e-01  4.00000000e-01 -1.14945465e-09 
 5.60000000e-01  4.00000000e-01 -1.16488905e-09 
 5.80000000e-01  4.00000000e-01 -1.18057778e-09 
 6.00000000e-01  4.00000000e-01 -1.19644219e-09 
 6.20000000e-01  4.00000000e-01 -1.21248595e-09 
 6.40000000e-01  4.00000000e-01 -1.22871267e-09 
 6.60000000e-01  4.00000000e-01 -1.24512583e-09 
 6.80000000e-01  4.00000000e-01 -1.26172887e-09 
 7.00000000e-01  4.00000000e-01 -1.27852518e-09 
 7.20000000e-01  4.00000000e-01 -1.29551809e-09 
 7.40000000e-01  4.00000000e-01 -1.31271092e-09 
 7.60000000e-01  4.00000000e-01 -1.33010694e-09 
 7.80000000e-01  4.00000000e-01 -1.34770943e-09 
 8.00000000e-01  4.00000000e-01 -1.36552165e-09 
 8.20000000e-01  4.00000000e-01 -1.38354686e-09 
 8.40000000e-01  4.00000000e-01 -1.40178831e-09 
 8.60000000e-01  4.00000000e-01 -1.42024926e-09 
 8.80000000e-01  4.00000000e-01 -1.43893298e-09 
 9.00000000e-01  4.00000000e-01 -1.45784275e-09 
 9.20000000e-01  4.00000000e-01 -1.47698186e-09 
 9.40000000e-01  4.00000000e-01 -1.49635363e-09 
 9.60000000e-01  4.00000000e-01 -1.51596139e-09 
 9.80000000e-01  4.00000000e-01 -1.53580847e-09 
 1.00000000e+00  4.00000000e-01 -1.55589827e-09 
 1.02000000e+00  4.00000000e-01 -1.57623417e-09 
 1.04000000e+00  4.00000000e-01 -1.59681960e-09 
 1.06000000e+00  4.00000000e-01 -1.61765802e-09 
 1.08000000e+00  4.00000000e-01 -1.63875290e-09 
 1.10000000e+00  4.00000000e-01 -1.66010776e-09 
 1.12000000e+00  4.00000000e-01 -1.68172616e-09 
 1.14000000e+00  4.00000000e-01 -1.70361166e-09 
 1.16000000e+00  4.00000000e-01 -1.72576789e-09 
 1.18000000e+00  4.00000000e-01 -1.74819849e-09 
 1.20000000e+00  4.00000000e-01 -1.77090716e-09 
 0.00000000e+00  6.00000000e-01  5.22428683e-42 
 2.00000000e-02  6.00000000e-01 -9.85443168e-08 
 4.00000000e-02  6.00000000e-01 -1.49750919e-07 
 6.00000000e-02  6.00000000e-01 -1.75859845e-07 
 8.00000000e-02  6.00000000e-01 -1.90187994e-07 
 1.00000000e-01  6.00000000e-01 -1.99123036e-07 
 1.20000000e-01  6.00000000e-01 -2.05512746e-07 
 1.40000000e-01  6.00000000e-01 -2.10634484e-07 
 1.60000000e-01  6.00000000e-01 -2.15086231e-07 
 1.80000000e-01  6.00000000e-01 -2.19164216e-07 
 2.00000000e-01  6.00000000e-01 -2.23024172e-07 
 2.20000000e-01  6.00000000e-01 -2.26752849e-07 
 2.40000000e-01  6.00000000e-01 -2.30401263e-07 
 2.60000000e-01  6.00000000e-01 -2.34000977e-07 
 2.80000000e-01  6.00000000e-01 -2.37572448e-07 
 3.00000000e-01  6.00000000e-01 -2.41129518e-07 
 3.20000000e-01  6.00000000e-01 -2.44681934e-07 
 3.40000000e-01  6.00000000e-01 -2.48236810e-07 
 3.60000000e-01  6.00000000e-01 -2.51799511e-07 
 3.80000000e-01  6.00000000e-01 -2.55374209e-07 
 4.00000000e-01  6.00000000e-01 -2.58964230e-07 
 4.20000000e-01  6.00000000e-01 -2.62572298e-07 
 4.40000000e-01  6.00000000e-01 -2.66200685e-07 
 4.60000000e-01  6.00000000e-01 -2.69851324e-07 
 4.80000000e-01  6.00000000e-01 -2.73525890e-07 
 5.00000000e-01  6.00000000e-01 -2.77212923e-07 
 5.20000000e-01  6.00000000e-01 -2.80938958e-07 
 5.40000000e-01  6.00000000e-01 -2.84692932e-07 
 5.60000000e-01  6.00000000e-01 -2.88475904e-07 
 5.80000000e-01  6.00000000e-01 -2.92288846e-07 
 6.00000000e-01  6.00000000e-01 -2.96132656e-07 
 6.20000000e-01  6.00000000e-01 -3.00008173e-07 
 6.40000000e-01  6.00000000e-01 -3.03916183e-07 
 6.60000000e-01  6.00000000e-01 -3.07857427e-07 
 6.80000000e-01  6.00000000e-01 -3.11832606e-07 
 7.00000000e-01  6.00000000e-01 -3.15842389e-07 
 7.20000000e-01  6.00000000e-01 -3.19887414e-07 
 7.40000000e-01  6.00000000e-01 -3.23968292e-07 
 7.60000000e-01  6.00000000e-01 -3.28085614e-07 
 7.80000000e-01  6.00000000e-01 -3.32239947e-07 
 8.00000000e-01  6.00000000e-01 -3.36431840e-07 
 8.20000000e-01  6.00000000e-01 -3.40661829e-07 
 8.40000000e-01  6.00000000e-01 -3.44930430e-07 
 8.60000000e-01  6.00000000e-01 -3.49238150e-07 
 8.80000000e-01  6.00000000e-01 -3.53585482e-07 
 9.00000000e-01  6.00000000e-01 -3.57972907e-07 
 9.20000000e-01  6.00000000e-01 -3.62400898e-07 
 9.40000000e-01  6.00000000e-01 -3.66869917e-07 
 9.60000000e-01  6.00000000e-01 -3.71380420e-07 
 9.80000000e-01  6.00000000e-01 -3.75932853e-07 
 1.00000000e+00  6.00000000e-01 -3.80527656e-07 
 1.02000000e+00  6.00000000e-01 -3.85165262e-07 
 1.04000000e+00  6.00000000e-01 -3.89846099e-07 
 1.06000000e+00  6.00000000e-01 -3.94570588e-07 
 1.08000000e+00  6.00000000e-01 -3.99339145e-07 
 1.10000000e+00  6.00000000e-01 -4.04152183e-07 
 1.12000000e+00  6.00000000e-01 -4.09010109e-07 
 1.14000000e+00  6.00000000e-01 -4.13913325e-07 
 1.16000000e+00  6.00000000e-01 -4.18862231e-07 
 1.18000000e+00  6.00000000e-01 -4.23857223e-07 
 1.20000000e+00  6.00000000e-01 -4.28898692e-07 
 0.00000000e+00  8.00000000e-01  9.46233763e-40 
 2.00000000e-02  8.00000000e-01 -1.32627690e-06 
 4.00000000e-02  8.00000000e-01 -2.41233083e-06 
 6.00000000e-02  8.00000000e-01 -3.26552600e-06 
 8.00000000e-02  8.00000000e-01 -3.91737537e-06 
 1.00000000e-01  8.00000000e-01 -4.40900158e-06 
 1.20000000e-01  8.00000000e-01 -4.78031108e-06 
 1.40000000e-01  8.00000000e-01 -5.06457980e-06 
 1.60000000e-01  8.00000000e-01 -5.28715747e-06 
 1.80000000e-01  8.00000000e-01 -5.46632459e-06 
 2.00000000e-01  8.00000000e-01 -5.61485694e-06 
 2.20000000e-01  8.00000000e-01 -5.74155079e-06 
 2.40000000e-01  8.00000000e-01 -5.85244225e-06 
 2.60000000e-01  8.00000000e-01 -5.95169281e-06 
 2.80000000e-01  8.00000000e-01 -6.04220073e-06 
 3.00000000e-01  8.00000000e-01 -6.12601214e-06 
 3.20000000e-01  8.00000000e-01 -6.20459444e-06 
 3.40000000e-01  8.00000000e-01 -6.27901772e-06 
 3.60000000e-01  8.00000000e-01 -6.35007589e-06 
 3.80000000e-01  8.00000000e-01 -6.41836799e-06 
 4.00000000e-01  8.00000000e-01 -6.48435365e-06 
 4.20000000e-01  8.00000000e-01 -6.54839108e-06 
 4.40000000e-01  8.00000000e-01 -6.61076379e-06 
 4.60000000e-01  8.00000000e-01 -6.67169929e-06 
 4.80000000e-01  8.00000000e-01 -6.73138262e-06 
 5.00000000e-01  8.00000000e-01 -6.78996614e-06 
 5.20000000e-01  8.00000000e-01 -6.84757671e-06 
 5.40000000e-01  8.00000000e-01 -6.90432111e-06 
 5.60000000e-01  8.00000000e-01 -6.96066383e-06 
 5.80000000e-01  8.00000000e-01 -7.01589818e-06 
 6.00000000e-01  8.00000000e-01 -7.07050701e-06 
 6.20000000e-01  8.00000000e-01 -7.12454801e-06 
 6.40000000e-01  8.00000000e-01 -7.17807183e-06 
 6.60000000e-01  8.00000000e-01 -7.23112319e-06 
 6.80000000e-01  8.00000000e-01 -7.28374184e-06 
 7.00000000e-01  8.00000000e-01 -7.33596327e-06 
 7.20000000e-01  8.00000000e-01 -7.38781931e-06 
 7.40000000e-01  8.00000000e-01 -7.43933866e-06 
 7.60000000e-01  8.00000000e-01 -7.49054727e-06 
 7.80000000e-01  8.00000000e-01 -7.54146870e-06 
 8.00000000e-01  8.00000000e-01 -7.59212446e-06 
 8.20000000e-01  8.00000000e-01 -7.64253417e-06 
 8.40000000e-01  8.00000000e-01 -7.69271584e-06 
 8.60000000e-01  8.00000000e-01 -7.74268604e-06 
 8.80000000e-01  8.00000000e-01 -7.79246003e-06 
 9.00000000e-01  8.00000000e-01 -7.84205192e-06 
 9.20000000e-01  8.00000000e-01 -7.89147479e-06 
 9.40000000e-01  8.00000000e-01 -7.94074076e-06 
 9.60000000e-01  8.00000000e-01 -7.98986113e-06 
 9.80000000e-01  8.00000000e-01 -8.03884640e-06 
 1.00000000e+00  8.00000000e-01 -8.08770640e-06 
 1.02000000e+00  8.00000000e-01 -8.13645031e-06 
 1.04000000e+00  8.00000000e-01 -8.18508673e-06 
 1.06000000e+00  8.00000000e-01 -8.23362372e-06 
 1.08000000e+00  8.00000000e-01 -8.28206887e-06 
 1.10000000e+00  8.00000000e-01 -8.33042930e-06 
 1.12000000e+00  8.00000000e-01 -8.37871173e-06 
 1.14000000e+00  8.00000000e-01 -8.42692249e-06 
 1.16000000e+00  8.00000000e-01 -8.47506756e-06 
 1.18000000e+00  8.00000000e-01 -8.52315259e-06 
 1.20000000e+00  8.00000000e-01 -8.57118294e-06 
 0.00000000e+00  1.00000000e+00  1.12614334e-38 
 2.00000000e-02  1.00000000e+00 -3.11686941e-06 
 4.00000000e-02  1.00000000e+00 -5.97149654e-06 
 6.00000000e-02  1.00000000e+00 -8.54172428e-06 
 8.00000000e-02  1.00000000e+00 -1.08225276e-05 
 1.00000000e-01  1.00000000e+00 -1.28229379e-05 
 1.20000000e-01  1.00000000e+00 -1.45620407e-05 
 1.40000000e-01  1.00000000e+00 -1.60649602e-05 
 1.60000000e-01  1.00000000e+00 -1.73594568e-05 
 1.80000000e-01  1.00000000e+00 -1.84734014e-05 
 2.00000000e-01  1.00000000e+00 -1.94331182e-05 
 2.20000000e-01  1.00000000e+00 -2.02624482e-05 
 2.40000000e-01  1.00000000e+00 -2.09823428e-05 
 2.60000000e-01  1.00000000e+00 -2.16108137e-05 
 2.80000000e-01  1.00000000e+00 -2.21630980e-05 
 3.00000000e-01  1.00000000e+00 -2.26519361e-05 
 3.20000000e-01  1.00000000e+00 -2.30878956e-05 
 3.40000000e-01  1.00000000e+00 -2.34796947e-05 
 3.60000000e-01  1.00000000e+00 -2.38345039e-05 
 3.80000000e-01  1.00000000e+00 -2.41582136e-05 
 4.00000000e-01  1.00000000e+00 -2.44556634e-05 
 4.20000000e-01  1.00000000e+00 -2.47308346e-05 
 4.40000000e-01  1.00000000e+00 -2.49870103e-05 
 4.60000000e-01  1.00000000e+00 -2.52269056e-05 
 4.80000000e-01  1.00000000e+00 -2.54527739e-05 
 5.00000000e-01  1.00000000e+00 -2.56664925e-05 
 5.20000000e-01  1.00000000e+00 -2.58696324e-05 
 5.40000000e-01  1.00000000e+00 -2.60635140e-05 
 5.60000000e-01  1.00000000e+00 -2.62492518e-05 
 5.80000000e-01  1.00000000e+00 -2.64277915e-05 
 6.00000000e-01  1.00000000e+00 -2.65999387e-05 
 6.20000000e-01  1.00000000e+00 -2.67663833e-05 
 6.40000000e-01  1.00000000e+00 -2.69277185e-05 
 6.60000000e-01  1.00000000e+00 -2.70844571e-05 
 6.80000000e-01  1.00000000e+00 -2.72370438e-05 
 7.00000000e-01  1.00000000e+00 -2.73858665e-05 
 7.20000000e-01  1.00000000e+00 -2.75329238e-05 
 7.40000000e-01  1.00000000e+00 -2.76750524e-05 
 7.60000000e-01  1.00000000e+00 -2.78143343e-05 
 7.80000000e-01  1.00000000e+00 -2.79510003e-05 
 8.00000000e-01  1.00000000e+00 -2.80852554e-05 
 8.20000000e-01  1.00000000e+00 -2.82172830e-05 
 8.40000000e-01  1.00000000e+00 -2.83472470e-05 
 8.60000000e-01  1.00000000e+00 -2.84752949e-05 
 8.80000000e-01  1.00000000e+00 -2.86015595e-05 
 9.00000000e-01  1.00000000e+00 -2.87261610e-05 
 9.20000000e-01  1.00000000e+00 -2.88492082e-05 
 9.40000000e-01  1.00000000e+00 -2.89708001e-05 
 9.60000000e-01  1.00000000e+00 -2.90910270e-05 
 9.80000000e-01  1.00000000e+00 -2.92099714e-05 
 1.00000000e+00  1.00000000e+00 -2.93277087e-05 
 1.02000000e+00  1.00000000e+00 -2.94443085e-05 
 1.04000000e+00  1.00000000e+00 -2.95598344e-05 
 1.06000000e+00  1.00000000e+00 -2.96743453e-05 
 1.08000000e+00  1.00000000e+00 -2.97878956e-05 
 1.10000000e+00  1.00000000e+00 -2.99005358e-05 
 1.12000000e+00  1.00000000e+00 -3.00123124e-05 
 1.14000000e+00  1.00000000e+00 -3.01232690e-05 
 1.16000000e+00  1.00000000e+00 -3.02334459e-05 
 1.18000000e+00  1.00000000e+00 -3.03428807e-05 
 1.20000000e+00  1.00000000e+00 -3.04516088e-05 
 0.00000000e+00  1.20000000e+00  9.39944381e-39 
 2.00000000e-02  1.20000000e+00 -4.88638107e-06 
 4.00000000e-02  1.20000000e+00 -9.52410827e-06 
 6.00000000e-02  1.20000000e+00 -1.38847817e-05 
 8.00000000e-02  1.20000000e+00 -1.79501386e-05 
 1.00000000e-01  1.20000000e+00 -2.17115261e-05 
 1.20000000e-01  1.20000000e+00 -2.51688152e-05 
 1.40000000e-01  1.20000000e+00 -2.83289318e-05 
 1.60000000e-01  1.20000000e+00 -3.12042339e-05 
 1.80000000e-01  1.20000000e+00 -3.38109359e-05 
 2.00000000e-01  1.20000000e+00 -3.61677083e-05 
 2.20000000e-01  1.20000000e+00 -3.82945151e-05 
 2.40000000e-01  1.20000000e+00 -4.02116955e-05 
 2.60000000e-01  1.20000000e+00 -4.19392735e-05 
 2.80000000e-01  1.20000000e+00 -4.34964634e-05 
 3.00000000e-01  1.20000000e+00 -4.49013374e-05 
 3.20000000e-01  1.20000000e+00 -4.61706253e-05 
 3.40000000e-01  1.20000000e+00 -4.73196157e-05 
 3.60000000e-01  1.20000000e+00 -4.83621343e-05 
 3.80000000e-01  1.20000000e+00 -4.93105772e-05 
 4.00000000e-01  1.20000000e+00 -5.01759829e-05 
 4.20000000e-01  1.20000000e+00 -5.09681267e-05 
 4.40000000e-01  1.20000000e+00 -5.16956277e-05 
 4.60000000e-01  1.20000000e+00 -5.23660612e-05 
 4.80000000e-01  1.20000000e+00 -5.29860686e-05 
 5.00000000e-01  1.20000000e+00 -5.35614635e-05 
 5.20000000e-01  1.20000000e+00 -5.40973291e-05 
 5.40000000e-01  1.20000000e+00 -5.45981086e-05 
 5.60000000e-01  1.20000000e+00 -5.50676857e-05 
 5.80000000e-01  1.20000000e+00 -5.55094566e-05 
 6.00000000e-01  1.20000000e+00 -5.59263934e-05 
 6.20000000e-01  1.20000000e+00 -5.63210998e-05 
 6.40000000e-01  1.20000000e+00 -5.66958600e-05 
 6.60000000e-01  1.20000000e+00 -5.70526806e-05 
 6.80000000e-01  1.20000000e+00 -5.73933274e-05 
 7.00000000e-01  1.20000000e+00 -5.77193570e-05 
 7.20000000e-01  1.20000000e+00 -5.80321443e-05 
 7.40000000e-01  1.20000000e+00 -5.83329061e-05 
 7.60000000e-01  1.20000000e+00 -5.86227215e-05 
 7.80000000e-01  1.20000000e+00 -5.89025492e-05 
 8.00000000e-01  1.20000000e+00 -5.91732432e-05 
 8.20000000e-01  1.20000000e+00 -5.94396313e-05 
 8.40000000e-01  1.20000000e+00 -5.96939351e-05 
 8.60000000e-01  1.20000000e+00 -5.99411932e-05 
 8.80000000e-01  1.20000000e+00 -6.01819501e-05 
 9.00000000e-01  1.20000000e+00 -6.04166961e-05 
 9.20000000e-01  1.20000000e+00 -6.06458735e-05 
 9.40000000e-01  1.20000000e+00 -6.08698822e-05 
 9.60000000e-01  1.20000000e+00 -6.10890842e-05 
 9.80000000e-01  1.20000000e+00 -6.13038084e-05 
 1.00000000e+00  1.20000000e+00 -6.15143538e-05 
 1.02000000e+00  1.20000000e+00 -6.17209928e-05 
 1.04000000e+00  1.20000000e+00 -6.19239743e-05 
 1.06000000e+00  1.20000000e+00 -6.21235256e-05 
 1.08000000e+00  1.20000000e+00 -6.23198553e-05 
 1.10000000e+00  1.20000000e+00 -6.25131547e-05 
 1.12000000e+00  1.20000000e+00 -6.27035998e-05 
 1.14000000e+00  1.20000000e+00 -6.28913526e-05 
 1.16000000e+00  1.20000000e+00 -6.30765626e-05 
 1.18000000e+00  1.20000000e+00 -6.32593680e-05 
 1.20000000e+00  1.20000000e+00 -6.34398966e-05 
